Frequency,S11,S11-Q,S11-Phase,S11-Phase-Q
4527198663.0,-13.428502525244383,0.0,-2.580332196990565,0.0
4527213662.9995,-13.4240271652803,0.0,-2.53398880050157,0.0
4527228662.999,-13.432926760271728,0.0,-2.5305317478715255,0.0
4527243662.9985,-13.418415998726324,0.0,-2.515630913515786,0.0
4527258662.998,-13.43092190544687,0.0,-2.562963522944649,0.0
4527273662.9975,-13.422220315097222,0.0,-2.539100531347039,0.0
4527288662.997,-13.424994570946236,0.0,-2.562020834790843,0.0
4527303662.9965,-13.426189328494583,0.0,-2.5290875718517536,0.0
4527318662.996,-13.42967893958026,0.0,-2.5062428204029996,0.0
4527333662.9955,-13.417824391496513,0.0,-2.5845247058981373,0.0
4527348662.995,-13.42678102223688,0.0,-2.518100235300773,0.0
4527363662.9945,-13.426568159314042,0.0,-2.532430904981858,0.0
4527378662.994,-13.42733638607561,0.0,-2.54433147646297,0.0
4527393662.9935,-13.420869477939581,0.0,-2.5804358361121555,0.0
4527408662.993,-13.42291920383714,0.0,-2.570912160839013,0.0
4527423662.9925,-13.424798050086252,0.0,-2.542487160865973,0.0
4527438662.992,-13.429307563105583,0.0,-2.573813024936046,0.0
4527453662.9915,-13.42976344475466,0.0,-2.6228836662830712,0.0
4527468662.991,-13.422685480402826,0.0,-2.5736695906206006,0.0
4527483662.9905,-13.426670249667652,0.0,-2.5956092253587495,0.0
4527498662.99,-13.43216088590629,0.0,-2.5290143517035375,0.0
4527513662.9895,-13.42761870252855,0.0,-2.5914038280748932,0.0
4527528662.989,-13.425809259990064,0.0,-2.5760160955182676,0.0
4527543662.9885,-13.429995759382063,0.0,-2.561038174268208,0.0
4527558662.988,-13.431018822662008,0.0,-2.60400554326645,0.0
4527573662.9875,-13.428075095794368,0.0,-2.6095410127525356,0.0
4527588662.987,-13.431077390190463,0.0,-2.607511245857401,0.0
4527603662.9865,-13.420545209427575,0.0,-2.5551498501653973,0.0
4527618662.986,-13.422930912492347,0.0,-2.571551952941813,0.0
4527633662.9855,-13.423297740779944,0.0,-2.6283366974346096,0.0
4527648662.985,-13.426650985643423,0.0,-2.606753954339356,0.0
4527663662.9845,-13.418345702511502,0.0,-2.5960298440623424,0.0
4527678662.984,-13.426403359921345,0.0,-2.6213145401291067,0.0
4527693662.9835,-13.433029627417277,0.0,-2.6070220332906846,0.0
4527708662.983,-13.427207586705759,0.0,-2.5965089089439015,0.0
4527723662.9825,-13.429894883911915,0.0,-2.6061484668611166,0.0
4527738662.982,-13.427440438095488,0.0,-2.6551409864526487,0.0
4527753662.9815,-13.417317615537407,0.0,-2.654830205515409,0.0
4527768662.981,-13.431036607146122,0.0,-2.585680364754571,0.0
4527783662.9805,-13.431277768735239,0.0,-2.622279168617467,0.0
4527798662.98,-13.427952015782893,0.0,-2.678724506131616,0.0
4527813662.9795,-13.42799521507158,0.0,-2.6021118498693196,0.0
4527828662.979,-13.424648503595119,0.0,-2.643291085911574,0.0
4527843662.9785,-13.41855026925543,0.0,-2.6033474938442267,0.0
4527858662.978,-13.423887419330125,0.0,-2.707120890372472,0.0
4527873662.9775,-13.431104344797845,0.0,-2.5921737480556977,0.0
4527888662.977,-13.432333692960544,0.0,-2.700784975990436,0.0
4527903662.9765,-13.430598293618425,0.0,-2.607784445274479,0.0
4527918662.976,-13.430972397833452,0.0,-2.641915208941923,0.0
4527933662.9755,-13.429690841674482,0.0,-2.6551381426765412,0.0
4527948662.975,-13.425913522162908,0.0,-2.714044780720588,0.0
4527963662.9745,-13.433928725035532,0.0,-2.6637535477602214,0.0
4527978662.974,-13.426427667585642,0.0,-2.6614453805510765,0.0
4527993662.9735,-13.427252839427934,0.0,-2.6731378328975053,0.0
4528008662.973,-13.431686514123683,0.0,-2.684865674466842,0.0
4528023662.9725,-13.432413225379703,0.0,-2.6978566621271334,0.0
4528038662.972,-13.426725917534387,0.0,-2.657132465137161,0.0
4528053662.9715,-13.428799749219964,0.0,-2.6787649580030677,0.0
4528068662.971,-13.43334399049305,0.0,-2.7074666438384143,0.0
4528083662.9705,-13.40993385469778,0.0,-2.6911419891445476,0.0
4528098662.97,-13.427448550107911,0.0,-2.6672105468263703,0.0
4528113662.9695,-13.424199511842495,0.0,-2.7023249353665846,0.0
4528128662.969,-13.432660871916235,0.0,-2.7039907844381292,0.0
4528143662.9685,-13.427117784008562,0.0,-2.6516067187351013,0.0
4528158662.968,-13.423658318393494,0.0,-2.7457396025927507,0.0
4528173662.9675,-13.424573856150122,0.0,-2.6975403412826084,0.0
4528188662.967,-13.43164038702806,0.0,-2.6676309188735545,0.0
4528203662.9665,-13.428684403628072,0.0,-2.7211928095279694,0.0
4528218662.966,-13.427653193176038,0.0,-2.705358718190918,0.0
4528233662.9655,-13.432227918472009,0.0,-2.6791219152007333,0.0
4528248662.965,-13.431026183303313,0.0,-2.6893783167783454,0.0
4528263662.9645,-13.435100010890555,0.0,-2.7298400008302606,0.0
4528278662.964,-13.419910360174129,0.0,-2.6862661590434804,0.0
4528293662.9635,-13.435100500497441,0.0,-2.65417822222188,0.0
4528308662.963,-13.42738404617457,0.0,-2.718528211276771,0.0
4528323662.9625,-13.42065616217045,0.0,-2.7925803210486633,0.0
4528338662.962,-13.417562905603692,0.0,-2.7300220573225245,0.0
4528353662.9615,-13.416632077316192,0.0,-2.684472757745716,0.0
4528368662.961,-13.432602249767838,0.0,-2.664192387575187,0.0
4528383662.9605,-13.422783549853257,0.0,-2.7294489242987514,0.0
4528398662.96,-13.415577037024693,0.0,-2.7119529832132465,0.0
4528413662.9595,-13.41893114944752,0.0,-2.725746695130599,0.0
4528428662.959,-13.419731051750084,0.0,-2.7265630004850734,0.0
4528443662.9585,-13.432361196621159,0.0,-2.731668451237988,0.0
4528458662.958,-13.430668965604431,0.0,-2.7217329275942057,0.0
4528473662.9575,-13.420934470519688,0.0,-2.69438874514625,0.0
4528488662.957,-13.42508932823052,0.0,-2.705216662074295,0.0
4528503662.9565,-13.420989609365314,0.0,-2.7111726954429503,0.0
4528518662.956,-13.432756818842401,0.0,-2.735378358043977,0.0
4528533662.9555,-13.423673576336771,0.0,-2.7505348649841848,0.0
4528548662.955,-13.428743421726299,0.0,-2.7352502375750416,0.0
4528563662.9545,-13.438353515007018,0.0,-2.7674913803328,0.0
4528578662.954,-13.424273961565108,0.0,-2.8273423144533396,0.0
4528593662.9535,-13.429197856622288,0.0,-2.8406011286697703,0.0
4528608662.953,-13.428030267371227,0.0,-2.788234183384562,0.0
4528623662.9525,-13.431762404119201,0.0,-2.8312457890662333,0.0
4528638662.952,-13.434171612792031,0.0,-2.7335388559900116,0.0
4528653662.9515,-13.435802079157684,0.0,-2.8284601551345414,0.0
4528668662.951,-13.42854134083594,0.0,-2.732284661895604,0.0
4528683662.9505,-13.428066733108828,0.0,-2.782810860316979,0.0
4528698662.95,-13.432278043535126,0.0,-2.760241160093676,0.0
4528713662.9495,-13.42680232488744,0.0,-2.8271701958516755,0.0
4528728662.949,-13.431431980971553,0.0,-2.8261404127353793,0.0
4528743662.9485,-13.422311284242749,0.0,-2.8222679486141447,0.0
4528758662.948,-13.432009353017008,0.0,-2.711691313945125,0.0
4528773662.9475,-13.434069671273715,0.0,-2.7947080561844886,0.0
4528788662.947,-13.426185658332505,0.0,-2.777446994587863,0.0
4528803662.9465,-13.422133784639314,0.0,-2.7865954604048464,0.0
4528818662.946,-13.431603118248976,0.0,-2.769683808476235,0.0
4528833662.9455,-13.422205696226591,0.0,-2.799968870574621,0.0
4528848662.945,-13.437125360150686,0.0,-2.803899567600678,0.0
4528863662.9445,-13.422470914711127,0.0,-2.8264922771199426,0.0
4528878662.944,-13.423536212064569,0.0,-2.8430721409503827,0.0
4528893662.9435,-13.423575898192032,0.0,-2.779933843920138,0.0
4528908662.943,-13.434909468197256,0.0,-2.8398957073581994,0.0
4528923662.9425,-13.434557893237795,0.0,-2.7868113732013313,0.0
4528938662.942,-13.423990540543551,0.0,-2.844914927084572,0.0
4528953662.9415,-13.43268305859884,0.0,-2.817883546419065,0.0
4528968662.941,-13.42012594542613,0.0,-2.829768351201287,0.0
4528983662.9405,-13.431941131283862,0.0,-2.8957245641640212,0.0
4528998662.94,-13.435203672625402,0.0,-2.8229491444971027,0.0
4529013662.9395,-13.422257416084522,0.0,-2.765161185295027,0.0
4529028662.939,-13.427557102880911,0.0,-2.852815880794656,0.0
4529043662.9385,-13.434866973551575,0.0,-2.8374097894644725,0.0
4529058662.938,-13.425591619706394,0.0,-2.8858446454033357,0.0
4529073662.9375,-13.427722041819043,0.0,-2.8365034089182513,0.0
4529088662.937,-13.41806435428072,0.0,-2.8725222137909507,0.0
4529103662.9365,-13.428741469437306,0.0,-2.8387979985227085,0.0
4529118662.936,-13.425449227733125,0.0,-2.865523474592276,0.0
4529133662.9355,-13.425647143068353,0.0,-2.863874246188989,0.0
4529148662.935,-13.436892743468265,0.0,-2.8496835703033416,0.0
4529163662.9345,-13.436477932227,0.0,-2.8008996745766077,0.0
4529178662.934,-13.432441615863935,0.0,-2.9042439720820776,0.0
4529193662.9335,-13.431695348593832,0.0,-2.798369226719589,0.0
4529208662.933,-13.43299428403558,0.0,-2.869855212866725,0.0
4529223662.9325,-13.434806539004388,0.0,-2.8434612467321356,0.0
4529238662.932,-13.436920489536408,0.0,-2.802679698747696,0.0
4529253662.9315,-13.425993360243753,0.0,-2.8631830594867247,0.0
4529268662.931,-13.429414821843785,0.0,-2.895980432631487,0.0
4529283662.9305,-13.431239743121413,0.0,-2.871205525670911,0.0
4529298662.93,-13.423375516296716,0.0,-2.896755108610578,0.0
4529313662.9295,-13.430701106534542,0.0,-2.908723943134449,0.0
4529328662.929,-13.430331051649915,0.0,-2.922164275117394,0.0
4529343662.9285,-13.422171650586257,0.0,-2.864152540657271,0.0
4529358662.928,-13.436055487827726,0.0,-2.9059033412771718,0.0
4529373662.9275,-13.42460077895451,0.0,-2.8753029086392456,0.0
4529388662.927,-13.430353604461773,0.0,-2.8895083120355305,0.0
4529403662.9265,-13.436189295505084,0.0,-2.912257429444828,0.0
4529418662.926,-13.430977250321538,0.0,-2.955029539400561,0.0
4529433662.9255,-13.429064813303764,0.0,-2.9628297889589423,0.0
4529448662.925,-13.425812397823073,0.0,-2.94397810762277,0.0
4529463662.9245,-13.43831836494287,0.0,-2.9286580325723914,0.0
4529478662.924,-13.434246629716213,0.0,-2.9251449033625043,0.0
4529493662.9235,-13.424987602332026,0.0,-2.93379251322103,0.0
4529508662.923,-13.429305115573094,0.0,-2.934376453090594,0.0
4529523662.9225,-13.433490496340049,0.0,-2.9398029980286204,0.0
4529538662.922,-13.429888550210357,0.0,-2.889376663910415,0.0
4529553662.9215,-13.431495338834683,0.0,-2.916947293990977,0.0
4529568662.921,-13.425193482677056,0.0,-2.9128765629588846,0.0
4529583662.9205,-13.433483479475745,0.0,-2.922131231220108,0.0
4529598662.92,-13.427206530989393,0.0,-2.983575618858317,0.0
4529613662.9195,-13.434930419889291,0.0,-2.96322307854311,0.0
4529628662.919,-13.433653617544294,0.0,-2.9733984366721566,0.0
4529643662.9185,-13.434035296643664,0.0,-2.972603833176187,0.0
4529658662.918,-13.422218523132152,0.0,-2.906036261833479,0.0
4529673662.9175,-13.428880792999376,0.0,-2.9693551395070057,0.0
4529688662.917,-13.437250095534505,0.0,-2.9777981147080492,0.0
4529703662.9165,-13.427998847267727,0.0,-3.0218642580514876,0.0
4529718662.916,-13.42771310005708,0.0,-2.9014298118219326,0.0
4529733662.9155,-13.436288519069608,0.0,-3.0096618237865176,0.0
4529748662.915,-13.437256813998971,0.0,-2.942683833599962,0.0
4529763662.9145,-13.425067747043908,0.0,-2.963743045128022,0.0
4529778662.914,-13.438503915136483,0.0,-2.976599804426449,0.0
4529793662.9135,-13.440491466282062,0.0,-2.9249638028357956,0.0
4529808662.913,-13.431296666122979,0.0,-2.981234858973455,0.0
4529823662.9125,-13.431693044471016,0.0,-3.0227333704360877,0.0
4529838662.912,-13.422367969360309,0.0,-3.0050969001365218,0.0
4529853662.9115,-13.43724829504444,0.0,-3.0358536184392215,0.0
4529868662.911,-13.433388328202117,0.0,-2.9895080760061385,0.0
4529883662.9105,-13.429019281154858,0.0,-2.9973166404564244,0.0
4529898662.91,-13.432979033030287,0.0,-3.0377983122505405,0.0
4529913662.9095,-13.431691106164372,0.0,-3.003144197940764,0.0
4529928662.909,-13.43397564418346,0.0,-2.9662663997916954,0.0
4529943662.9085,-13.434414019143212,0.0,-3.0286118110470115,0.0
4529958662.908,-13.430282835323021,0.0,-3.058552126337547,0.0
4529973662.9075,-13.434939507366451,0.0,-3.0258937653190574,0.0
4529988662.907,-13.420965461235042,0.0,-3.0849449907609534,0.0
4530003662.9065,-13.42318151402472,0.0,-2.997373353356988,0.0
4530018662.906,-13.435189090433612,0.0,-2.9690138797485517,0.0
4530033662.9055,-13.434083516117088,0.0,-3.0194792344055137,0.0
4530048662.905,-13.437053801934976,0.0,-3.060848162471529,0.0
4530063662.9045,-13.437474673578818,0.0,-3.0571738275325866,0.0
4530078662.904,-13.43024982502847,0.0,-3.063955365459682,0.0
4530093662.9035,-13.426298405106401,0.0,-3.0972157257101465,0.0
4530108662.903,-13.430871376259475,0.0,-3.0584610427040198,0.0
4530123662.9025,-13.443789399275461,0.0,-3.088147959921595,0.0
4530138662.902,-13.433391108999622,0.0,-3.063171600567701,0.0
4530153662.9015,-13.43753317505811,0.0,-3.067774157993573,0.0
4530168662.901,-13.440305494496814,0.0,-3.0550779933622088,0.0
4530183662.9005,-13.434053021171021,0.0,-3.026291357478279,0.0
4530198662.9,-13.424180975147145,0.0,-3.061754768163747,0.0
4530213662.8995,-13.440552710491286,0.0,-3.0916001388880376,0.0
4530228662.899,-13.436585549855502,0.0,-3.147445118929468,0.0
4530243662.8985,-13.43425058942313,0.0,-3.105558719311807,0.0
4530258662.898,-13.432183747284132,0.0,-3.032343901534333,0.0
4530273662.8975,-13.439882021400813,0.0,-3.1324958339759945,0.0
4530288662.897,-13.424861760568081,0.0,-3.119864594627302,0.0
4530303662.8965,-13.446834764548472,0.0,-3.0621477916379423,0.0
4530318662.896,-13.445945234360961,0.0,-3.073916188433871,0.0
4530333662.8955,-13.432160758789118,0.0,-3.131764409608844,0.0
4530348662.895,-13.423753305716463,0.0,-3.135682606168294,0.0
4530363662.8945,-13.432863907152807,0.0,-3.104797185044488,0.0
4530378662.894,-13.429479324463143,0.0,-3.11815049983001,0.0
4530393662.8935,-13.437496950096477,0.0,-3.1672418896053327,0.0
4530408662.893,-13.429403152916313,0.0,-3.1262612944630432,0.0
4530423662.8925,-13.42159934689909,0.0,-3.1809794030853626,0.0
4530438662.892,-13.426390842986038,0.0,-3.1683550703574777,0.0
4530453662.8915,-13.4367371292453,0.0,-3.134779012819685,0.0
4530468662.891,-13.430703697080338,0.0,-3.1530529884519747,0.0
4530483662.8905,-13.441850361163805,0.0,-3.130652495589469,0.0
4530498662.89,-13.436452636710161,0.0,-3.1867899630463645,0.0
4530513662.8895,-13.431299624113812,0.0,-3.141990128571832,0.0
4530528662.889,-13.427847119571808,0.0,-3.210819922085328,0.0
4530543662.8885,-13.440469247355535,0.0,-3.1635471648284303,0.0
4530558662.888,-13.427654658026409,0.0,-3.165638413358656,0.0
4530573662.8875,-13.438082635027085,0.0,-3.161535291565751,0.0
4530588662.887,-13.438889481773604,0.0,-3.205718088281874,0.0
4530603662.8865,-13.43150654413716,0.0,-3.193214064771657,0.0
4530618662.886,-13.438216918773023,0.0,-3.203552999873943,0.0
4530633662.8855,-13.43685931929139,0.0,-3.1775675623943855,0.0
4530648662.885,-13.431303646420602,0.0,-3.139929368811981,0.0
4530663662.8845,-13.430220802880044,0.0,-3.16243252317338,0.0
4530678662.884,-13.436705623876595,0.0,-3.201225588945666,0.0
4530693662.8835,-13.425645283207725,0.0,-3.2067917429587274,0.0
4530708662.883,-13.442413282043983,0.0,-3.168933707169486,0.0
4530723662.8825,-13.442723936837268,0.0,-3.295975885214671,0.0
4530738662.882,-13.428451796807137,0.0,-3.2288643571953326,0.0
4530753662.8815,-13.434423600458736,0.0,-3.2052631884472427,0.0
4530768662.881,-13.438441442285454,0.0,-3.150566415211188,0.0
4530783662.8805,-13.439576009867126,0.0,-3.259806949633787,0.0
4530798662.88,-13.43881263154322,0.0,-3.187560039387556,0.0
4530813662.8795,-13.442383915469652,0.0,-3.2203899849502564,0.0
4530828662.879,-13.437948619762281,0.0,-3.204076970185181,0.0
4530843662.8785,-13.437000678049868,0.0,-3.2330568557459887,0.0
4530858662.878,-13.434203135815146,0.0,-3.2860391538197637,0.0
4530873662.8775,-13.437025414089964,0.0,-3.2447924495807197,0.0
4530888662.877,-13.435158384792949,0.0,-3.2253372966920684,0.0
4530903662.8765,-13.438551474538048,0.0,-3.274709992307823,0.0
4530918662.876,-13.430279634151809,0.0,-3.249814747530072,0.0
4530933662.8755,-13.442977379862464,0.0,-3.279824851041852,0.0
4530948662.875,-13.44140018764225,0.0,-3.280885558070328,0.0
4530963662.8745,-13.441003047673012,0.0,-3.2099698693000964,0.0
4530978662.874,-13.446955561929897,0.0,-3.2344724188727882,0.0
4530993662.8735,-13.432684970719686,0.0,-3.206950438062272,0.0
4531008662.873,-13.445991145355462,0.0,-3.2887197989831582,0.0
4531023662.8725,-13.441822303730413,0.0,-3.2470071620391794,0.0
4531038662.872,-13.426591479641354,0.0,-3.3184601297569127,0.0
4531053662.8715,-13.436561209473867,0.0,-3.304559647344414,0.0
4531068662.871,-13.447983314015936,0.0,-3.334086503222687,0.0
4531083662.8705,-13.438091501297125,0.0,-3.315890771939347,0.0
4531098662.87,-13.442959952453863,0.0,-3.259990615872145,0.0
4531113662.8695,-13.430241857421766,0.0,-3.2502669196350484,0.0
4531128662.869,-13.438601831098666,0.0,-3.2582359719480904,0.0
4531143662.8685,-13.440074741656181,0.0,-3.3356443919165715,0.0
4531158662.868,-13.44080785093108,0.0,-3.302179185258266,0.0
4531173662.8675,-13.438085476575646,0.0,-3.303643559031305,0.0
4531188662.867,-13.439743208614674,0.0,-3.3231875112409313,0.0
4531203662.8665,-13.44152839457372,0.0,-3.3076117314148483,0.0
4531218662.866,-13.440166389111717,0.0,-3.335355941178058,0.0
4531233662.8655,-13.438856472333228,0.0,-3.3459176746504347,0.0
4531248662.865,-13.439126126976092,0.0,-3.3548922969898287,0.0
4531263662.8645,-13.440997225931255,0.0,-3.321510858577037,0.0
4531278662.864,-13.43780626360353,0.0,-3.3356774459537526,0.0
4531293662.8635,-13.435827996706992,0.0,-3.330050339332284,0.0
4531308662.863,-13.44057197545559,0.0,-3.3867896468178293,0.0
4531323662.8625,-13.438647962063223,0.0,-3.395353602581564,0.0
4531338662.862,-13.442955597977024,0.0,-3.3620632495622442,0.0
4531353662.8615,-13.430617784881282,0.0,-3.349181019293986,0.0
4531368662.861,-13.438274223163301,0.0,-3.3759280302962806,0.0
4531383662.8605,-13.44778674365324,0.0,-3.369891455288123,0.0
4531398662.86,-13.445123999794353,0.0,-3.3851369016037824,0.0
4531413662.8595,-13.444490820742557,0.0,-3.4269826060647275,0.0
4531428662.859,-13.443292812199047,0.0,-3.384868090639916,0.0
4531443662.8585,-13.436439431699199,0.0,-3.3942756167271777,0.0
4531458662.858,-13.439101092180426,0.0,-3.42789008521394,0.0
4531473662.8575,-13.434119338353801,0.0,-3.3746226516519755,0.0
4531488662.857,-13.438539156200886,0.0,-3.374747590650755,0.0
4531503662.8565,-13.437663918141912,0.0,-3.423050136104194,0.0
4531518662.856,-13.43278194592247,0.0,-3.382586703726024,0.0
4531533662.8555,-13.438461642067152,0.0,-3.412338494456045,0.0
4531548662.855,-13.428954307485583,0.0,-3.3898906486449367,0.0
4531563662.8545,-13.436870778806362,0.0,-3.402953429651837,0.0
4531578662.854,-13.442153851009085,0.0,-3.456979115524611,0.0
4531593662.8535,-13.442609965157683,0.0,-3.440718788150421,0.0
4531608662.853,-13.44026767214648,0.0,-3.4287580950098357,0.0
4531623662.8525,-13.442257499265764,0.0,-3.462687211520104,0.0
4531638662.852,-13.440915785748677,0.0,-3.385553012387156,0.0
4531653662.8515,-13.432837562147935,0.0,-3.4303822543006004,0.0
4531668662.851,-13.441666509916423,0.0,-3.4185386236666835,0.0
4531683662.8505,-13.4296576996603,0.0,-3.4005235096808493,0.0
4531698662.85,-13.43664664138422,0.0,-3.4186068790855497,0.0
4531713662.8495,-13.442177301910252,0.0,-3.481429634839896,0.0
4531728662.849,-13.430131197153228,0.0,-3.4587311805092997,0.0
4531743662.8485,-13.449065416121782,0.0,-3.418840420758553,0.0
4531758662.848,-13.444090827083395,0.0,-3.439907940352625,0.0
4531773662.8475,-13.435515629182342,0.0,-3.5259823072661036,0.0
4531788662.847,-13.437427044626943,0.0,-3.492634505013818,0.0
4531803662.8465,-13.439972758026396,0.0,-3.5594102625874577,0.0
4531818662.846,-13.435253457802293,0.0,-3.4316454034715496,0.0
4531833662.8455,-13.434106990588802,0.0,-3.544184444165757,0.0
4531848662.845,-13.435462386632434,0.0,-3.4993488121461884,0.0
4531863662.8445,-13.445272792884131,0.0,-3.4384666652063154,0.0
4531878662.844,-13.439294617522023,0.0,-3.511596719360687,0.0
