Frequency,S11,S11-Q,S11-Phase,S11-Phase-Q
4527198663.0,-13.410638094662966,0.0,-2.831379192039715,0.0
4527213662.9995,-13.408221394419277,0.0,-2.8503915788420784,0.0
4527228662.999,-13.413415069296661,0.0,-2.7980338827849227,0.0
4527243662.9985,-13.416499393098661,0.0,-2.8006761038960506,0.0
4527258662.998,-13.400595114396445,0.0,-2.790464606981457,0.0
4527273662.9975,-13.41024869713175,0.0,-2.8110150913238243,0.0
4527288662.997,-13.408296197908873,0.0,-2.826545739929142,0.0
4527303662.9965,-13.39815770166233,0.0,-2.8006898935803384,0.0
4527318662.996,-13.408431107333527,0.0,-2.853870873322462,0.0
4527333662.9955,-13.410078116976255,0.0,-2.833443830548703,0.0
4527348662.995,-13.400502950500229,0.0,-2.8340427426244794,0.0
4527363662.9945,-13.408315945209793,0.0,-2.8752163048463517,0.0
4527378662.994,-13.40477674243272,0.0,-2.878974260028859,0.0
4527393662.9935,-13.409466778116526,0.0,-2.829980237704351,0.0
4527408662.993,-13.407931425624014,0.0,-2.889847945038518,0.0
4527423662.9925,-13.409450605957637,0.0,-2.8821420333956773,0.0
4527438662.992,-13.403337857883212,0.0,-2.8556791488534183,0.0
4527453662.9915,-13.412452805639862,0.0,-2.8519255796641674,0.0
4527468662.991,-13.408756825129958,0.0,-2.8463427449066163,0.0
4527483662.9905,-13.412923232673483,0.0,-2.9017688605757144,0.0
4527498662.99,-13.408934902717766,0.0,-2.9060977092446296,0.0
4527513662.9895,-13.4086875994366,0.0,-2.8436616971350888,0.0
4527528662.989,-13.405892262946518,0.0,-2.9081199275351075,0.0
4527543662.9885,-13.410036493620417,0.0,-2.8966367274783527,0.0
4527558662.988,-13.407612208070299,0.0,-2.838296722463383,0.0
4527573662.9875,-13.404909718611275,0.0,-2.8912450716449225,0.0
4527588662.987,-13.413550669242928,0.0,-2.950647492586551,0.0
4527603662.9865,-13.400010366592308,0.0,-2.832188991996497,0.0
4527618662.986,-13.409599207276834,0.0,-2.917559388814153,0.0
4527633662.9855,-13.401533884947076,0.0,-2.8620876386947582,0.0
4527648662.985,-13.41146372320228,0.0,-2.945188714519706,0.0
4527663662.9845,-13.413624242728996,0.0,-2.8680735778942634,0.0
4527678662.984,-13.409724734062888,0.0,-2.8683691345394537,0.0
4527693662.9835,-13.409291598297086,0.0,-2.886465329179937,0.0
4527708662.983,-13.40283435726026,0.0,-2.8488251495173365,0.0
4527723662.9825,-13.408956683532221,0.0,-2.943141289690919,0.0
4527738662.982,-13.407100914031735,0.0,-2.9632156831284835,0.0
4527753662.9815,-13.409713602276996,0.0,-2.8801256982146755,0.0
4527768662.981,-13.40914061061233,0.0,-2.952048312226157,0.0
4527783662.9805,-13.41537596218618,0.0,-2.931470063612087,0.0
4527798662.98,-13.400133421487944,0.0,-2.903316935016765,0.0
4527813662.9795,-13.409548355823592,0.0,-2.976556942225578,0.0
4527828662.979,-13.400208142793469,0.0,-2.9272229807511136,0.0
4527843662.9785,-13.405642892927208,0.0,-2.940787958379612,0.0
4527858662.978,-13.407216652015336,0.0,-2.9308319421485707,0.0
4527873662.9775,-13.415233239875397,0.0,-2.9779500476645318,0.0
4527888662.977,-13.407296183976648,0.0,-2.9518399663561503,0.0
4527903662.9765,-13.40992026653086,0.0,-2.9292250268278552,0.0
4527918662.976,-13.410249653767671,0.0,-2.95806936540365,0.0
4527933662.9755,-13.413264099767554,0.0,-2.9141162793726108,0.0
4527948662.975,-13.408959116288395,0.0,-2.913979372707851,0.0
4527963662.9745,-13.404395103407559,0.0,-2.982573533355121,0.0
4527978662.974,-13.40956575860453,0.0,-2.992520228723906,0.0
4527993662.9735,-13.411441390765686,0.0,-2.961563806074633,0.0
4528008662.973,-13.413569550444533,0.0,-2.96326154154458,0.0
4528023662.9725,-13.401021653660525,0.0,-3.007474840230349,0.0
4528038662.972,-13.410643027055322,0.0,-2.9835825989744156,0.0
4528053662.9715,-13.416396166538364,0.0,-2.972245119250351,0.0
4528068662.971,-13.406798076799664,0.0,-2.991085790137676,0.0
4528083662.9705,-13.397368061442412,0.0,-2.960073654063246,0.0
4528098662.97,-13.413853534869167,0.0,-2.974100095353958,0.0
4528113662.9695,-13.408943417859922,0.0,-2.949639709226752,0.0
4528128662.969,-13.41049468600531,0.0,-2.9502377736488152,0.0
4528143662.9685,-13.413278394704221,0.0,-3.0238069927109454,0.0
4528158662.968,-13.403224237667022,0.0,-2.9987447974899903,0.0
4528173662.9675,-13.402030075897457,0.0,-3.0210702917403482,0.0
4528188662.967,-13.410553916642833,0.0,-3.0040178596162077,0.0
4528203662.9665,-13.40611965856225,0.0,-2.9315936983337014,0.0
4528218662.966,-13.418609093186335,0.0,-3.0097929120514535,0.0
4528233662.9655,-13.410421265762336,0.0,-2.9661155604592975,0.0
4528248662.965,-13.418409427160775,0.0,-3.0295726729600823,0.0
4528263662.9645,-13.399828076169339,0.0,-3.0299954221353236,0.0
4528278662.964,-13.414777706463052,0.0,-2.997192261013358,0.0
4528293662.9635,-13.4148324002767,0.0,-3.0427246829606402,0.0
4528308662.963,-13.40895964860861,0.0,-3.031516736464861,0.0
4528323662.9625,-13.400300564000805,0.0,-3.0104194012488255,0.0
4528338662.962,-13.415553401982729,0.0,-2.99061446797595,0.0
4528353662.9615,-13.4108432600901,0.0,-3.0155801264403634,0.0
4528368662.961,-13.410299470966532,0.0,-3.020139399040855,0.0
4528383662.9605,-13.407385993457954,0.0,-3.0091929361885046,0.0
4528398662.96,-13.417924347057411,0.0,-2.9946467205850027,0.0
4528413662.9595,-13.407502931724977,0.0,-2.9973146887688205,0.0
4528428662.959,-13.412975067197443,0.0,-2.9297713157955454,0.0
4528443662.9585,-13.409727432258636,0.0,-3.0687084625009207,0.0
4528458662.958,-13.412156946385087,0.0,-3.1174354422703296,0.0
4528473662.9575,-13.403154717536568,0.0,-3.0446599310986526,0.0
4528488662.957,-13.41058413035893,0.0,-3.007344145681785,0.0
4528503662.9565,-13.412361643017833,0.0,-3.0731334875450713,0.0
4528518662.956,-13.416484608174784,0.0,-3.010654903023204,0.0
4528533662.9555,-13.407783475184225,0.0,-3.051271518199128,0.0
4528548662.955,-13.408519167240932,0.0,-3.0008214573515275,0.0
4528563662.9545,-13.41423925691517,0.0,-3.02360875564873,0.0
4528578662.954,-13.411344199604436,0.0,-3.0140522556164266,0.0
4528593662.9535,-13.410803394169697,0.0,-3.0239387121492056,0.0
4528608662.953,-13.412360521247265,0.0,-3.0343893196200744,0.0
4528623662.9525,-13.402332724627827,0.0,-3.0470043033411174,0.0
4528638662.952,-13.413029378538068,0.0,-3.098174009219144,0.0
4528653662.9515,-13.40344582105526,0.0,-3.0687685190389034,0.0
4528668662.951,-13.403905456431687,0.0,-2.998377221272087,0.0
4528683662.9505,-13.406508397735982,0.0,-3.0302377233875992,0.0
4528698662.95,-13.411760196885755,0.0,-3.0599018061201746,0.0
4528713662.9495,-13.420427803890263,0.0,-3.025026758548201,0.0
4528728662.949,-13.404497769047946,0.0,-3.1419637561811946,0.0
4528743662.9485,-13.412230683795158,0.0,-3.140262272301901,0.0
4528758662.948,-13.402809479259599,0.0,-3.1189404026125906,0.0
4528773662.9475,-13.41730277239671,0.0,-3.082201251793995,0.0
4528788662.947,-13.408751570135252,0.0,-3.12363918451685,0.0
4528803662.9465,-13.418263658639301,0.0,-3.0999092536104467,0.0
4528818662.946,-13.414230475636908,0.0,-3.0853131033507326,0.0
4528833662.9455,-13.400362085581714,0.0,-3.119635677102161,0.0
4528848662.945,-13.41371994758764,0.0,-3.125407151912631,0.0
4528863662.9445,-13.417611868173429,0.0,-3.078802824934104,0.0
4528878662.944,-13.414782747507521,0.0,-3.1219729849638522,0.0
4528893662.9435,-13.410171617915774,0.0,-3.10970805273972,0.0
4528908662.943,-13.415327411416184,0.0,-3.1236377962815105,0.0
4528923662.9425,-13.40964263887096,0.0,-3.1259764077595698,0.0
4528938662.942,-13.41986450079889,0.0,-3.1500571389845735,0.0
4528953662.9415,-13.417147996127872,0.0,-3.099769018337853,0.0
4528968662.941,-13.416344593996499,0.0,-3.11039347166849,0.0
4528983662.9405,-13.414681487272432,0.0,-3.1374485689214975,0.0
4528998662.94,-13.41111800262601,0.0,-3.118103428816807,0.0
4529013662.9395,-13.412822309674063,0.0,-3.1571115379852106,0.0
4529028662.939,-13.409997705379052,0.0,-3.1592064239848052,0.0
4529043662.9385,-13.401466894297464,0.0,-3.1173509049766346,0.0
4529058662.938,-13.422219369133998,0.0,-3.126725073836074,0.0
4529073662.9375,-13.417509988780266,0.0,-3.1410579204270284,0.0
4529088662.937,-13.417709202604511,0.0,-3.12590937291067,0.0
4529103662.9365,-13.408919073326338,0.0,-3.139680648488591,0.0
4529118662.936,-13.406853049989817,0.0,-3.1137646371490053,0.0
4529133662.9355,-13.410240188334878,0.0,-3.1358803465983778,0.0
4529148662.935,-13.418979080122234,0.0,-3.0816362779867434,0.0
4529163662.9345,-13.404719832182062,0.0,-3.170298708967377,0.0
4529178662.934,-13.422807507925478,0.0,-3.1725276861684173,0.0
4529193662.9335,-13.413383014219207,0.0,-3.148272036040947,0.0
4529208662.933,-13.4117409079928,0.0,-3.1921774730835315,0.0
4529223662.9325,-13.412039831925252,0.0,-3.1039096740312266,0.0
4529238662.932,-13.409172457310776,0.0,-3.1937121312562486,0.0
4529253662.9315,-13.406379095607903,0.0,-3.123520229922834,0.0
4529268662.931,-13.40520646195668,0.0,-3.181572869158543,0.0
4529283662.9305,-13.408280255104808,0.0,-3.1751790919839857,0.0
4529298662.93,-13.412668530507649,0.0,-3.1598851924220788,0.0
4529313662.9295,-13.405115938490948,0.0,-3.21748833070995,0.0
4529328662.929,-13.414134326992952,0.0,-3.177716860990854,0.0
4529343662.9285,-13.412207296498686,0.0,-3.2512057597166866,0.0
4529358662.928,-13.41019685908898,0.0,-3.178632727221789,0.0
4529373662.9275,-13.41453708404992,0.0,-3.1921312105671866,0.0
4529388662.927,-13.409932646155795,0.0,-3.1663165992666475,0.0
4529403662.9265,-13.404550686851955,0.0,-3.242385310565472,0.0
4529418662.926,-13.40693010920817,0.0,-3.2416582309096533,0.0
4529433662.9255,-13.402029834398213,0.0,-3.2444234848956524,0.0
4529448662.925,-13.410926074582433,0.0,-3.2036199138053134,0.0
4529463662.9245,-13.404265266895475,0.0,-3.186444296844848,0.0
4529478662.924,-13.400215201080293,0.0,-3.1986299246336047,0.0
4529493662.9235,-13.416833542308392,0.0,-3.2333705132988655,0.0
4529508662.923,-13.407114026765704,0.0,-3.220724790405643,0.0
4529523662.9225,-13.404180780075002,0.0,-3.1932505666380293,0.0
4529538662.922,-13.405456777470244,0.0,-3.2341376597687623,0.0
4529553662.9215,-13.417842673956635,0.0,-3.2383213339600565,0.0
4529568662.921,-13.421626041785332,0.0,-3.258333501225408,0.0
4529583662.9205,-13.419238421081157,0.0,-3.274662515099496,0.0
4529598662.92,-13.397912172768331,0.0,-3.2342401916560197,0.0
4529613662.9195,-13.41376413531965,0.0,-3.2561398090945186,0.0
4529628662.919,-13.410793894248208,0.0,-3.265490232953824,0.0
4529643662.9185,-13.419168621880054,0.0,-3.2271018154552897,0.0
4529658662.918,-13.399780770955571,0.0,-3.258995116508624,0.0
4529673662.9175,-13.416009727870497,0.0,-3.2874312118702456,0.0
4529688662.917,-13.412897219476479,0.0,-3.2005461916921725,0.0
4529703662.9165,-13.408541858231533,0.0,-3.269326552072052,0.0
4529718662.916,-13.414476743818792,0.0,-3.2305844102343704,0.0
4529733662.9155,-13.409375851726843,0.0,-3.236554076223903,0.0
4529748662.915,-13.410176576551569,0.0,-3.27794592527964,0.0
4529763662.9145,-13.412030303658105,0.0,-3.2941272917094087,0.0
4529778662.914,-13.413194419020687,0.0,-3.281763751133212,0.0
4529793662.9135,-13.408423400878057,0.0,-3.2918205534762417,0.0
4529808662.913,-13.405606673501573,0.0,-3.269504891016468,0.0
4529823662.9125,-13.420268855564295,0.0,-3.2548769728013354,0.0
4529838662.912,-13.403136854836834,0.0,-3.254636072358684,0.0
4529853662.9115,-13.422122086535248,0.0,-3.2768983470024016,0.0
4529868662.911,-13.40781691360343,0.0,-3.30970409681657,0.0
4529883662.9105,-13.410348857008724,0.0,-3.300857317754079,0.0
4529898662.91,-13.408449754113736,0.0,-3.3103501713517125,0.0
4529913662.9095,-13.409920526504253,0.0,-3.2850508533819487,0.0
4529928662.909,-13.408092298682595,0.0,-3.268209548501703,0.0
4529943662.9085,-13.408885033002703,0.0,-3.3302388284933917,0.0
4529958662.908,-13.42174449336876,0.0,-3.2831025339872344,0.0
4529973662.9075,-13.412646510074941,0.0,-3.343188249480651,0.0
4529988662.907,-13.419439630613496,0.0,-3.36017720169235,0.0
4530003662.9065,-13.410116916584563,0.0,-3.2974559925618387,0.0
4530018662.906,-13.41331712012575,0.0,-3.3528443896425935,0.0
4530033662.9055,-13.418158863496465,0.0,-3.3158767874031234,0.0
4530048662.905,-13.42631893851739,0.0,-3.2600185428268027,0.0
4530063662.9045,-13.4182478776719,0.0,-3.338235933472277,0.0
4530078662.904,-13.414195542446683,0.0,-3.3366414528421444,0.0
4530093662.9035,-13.41524796806368,0.0,-3.3505764705834644,0.0
4530108662.903,-13.425357036383943,0.0,-3.3526805070668897,0.0
4530123662.9025,-13.411281444875609,0.0,-3.347303206597389,0.0
4530138662.902,-13.417828479101516,0.0,-3.344971738349657,0.0
4530153662.9015,-13.41898182235353,0.0,-3.38584435172285,0.0
4530168662.901,-13.405401812618019,0.0,-3.3425549273488775,0.0
4530183662.9005,-13.416591758816356,0.0,-3.345071663036095,0.0
4530198662.9,-13.410169664565908,0.0,-3.3661807736054117,0.0
4530213662.8995,-13.413142392675546,0.0,-3.316182239585992,0.0
4530228662.899,-13.417321101129398,0.0,-3.3115868766635277,0.0
4530243662.8985,-13.41674273260075,0.0,-3.386873867396883,0.0
4530258662.898,-13.41509094175076,0.0,-3.398688529994186,0.0
4530273662.8975,-13.417304473135065,0.0,-3.35831296725868,0.0
4530288662.897,-13.408656607305652,0.0,-3.399961590294631,0.0
4530303662.8965,-13.406250601482606,0.0,-3.4376388381598257,0.0
4530318662.896,-13.415934887327223,0.0,-3.4189763452449102,0.0
4530333662.8955,-13.414546457889818,0.0,-3.3797953507617864,0.0
4530348662.895,-13.41845558485282,0.0,-3.412738554473306,0.0
4530363662.8945,-13.41257307809786,0.0,-3.3212012898388616,0.0
4530378662.894,-13.4170878747629,0.0,-3.4212980255728715,0.0
4530393662.8935,-13.422602196259902,0.0,-3.4029693290338563,0.0
4530408662.893,-13.415279825618196,0.0,-3.424054629791879,0.0
4530423662.8925,-13.411584117330715,0.0,-3.4177159568612043,0.0
4530438662.892,-13.419550541489498,0.0,-3.433630758778311,0.0
4530453662.8915,-13.408455350618905,0.0,-3.3971093649651136,0.0
4530468662.891,-13.418611041965862,0.0,-3.418825644975982,0.0
4530483662.8905,-13.420019932965705,0.0,-3.37441234315982,0.0
4530498662.89,-13.4158595396006,0.0,-3.418901156675799,0.0
4530513662.8895,-13.408076628099106,0.0,-3.462410997956228,0.0
4530528662.889,-13.41356534563962,0.0,-3.4023567353434747,0.0
4530543662.8885,-13.406058407254267,0.0,-3.44436030763188,0.0
4530558662.888,-13.407286288758097,0.0,-3.4462591662036215,0.0
4530573662.8875,-13.411697590886886,0.0,-3.4528029738347406,0.0
4530588662.887,-13.416679139347774,0.0,-3.4055962044477965,0.0
4530603662.8865,-13.411183007156906,0.0,-3.427890321169882,0.0
4530618662.886,-13.412712624713647,0.0,-3.435047622082616,0.0
4530633662.8855,-13.42417395878305,0.0,-3.448413194008332,0.0
4530648662.885,-13.426640033782887,0.0,-3.4132598899961235,0.0
4530663662.8845,-13.415582624738958,0.0,-3.4033089712802402,0.0
4530678662.884,-13.419038802311125,0.0,-3.4725412521569,0.0
4530693662.8835,-13.422416417606527,0.0,-3.4527144130676675,0.0
4530708662.883,-13.421418439773571,0.0,-3.4524998552051094,0.0
4530723662.8825,-13.41740814622053,0.0,-3.455321628600249,0.0
4530738662.882,-13.40754313309932,0.0,-3.546565792519257,0.0
4530753662.8815,-13.41123114681271,0.0,-3.5056617802455823,0.0
4530768662.881,-13.41384776534471,0.0,-3.4560795148775685,0.0
4530783662.8805,-13.418705567883862,0.0,-3.440613572411833,0.0
4530798662.88,-13.414014412745034,0.0,-3.4862973161435615,0.0
4530813662.8795,-13.412930682921758,0.0,-3.5013084150254024,0.0
4530828662.879,-13.42471920667029,0.0,-3.452832982207647,0.0
4530843662.8785,-13.419700639652108,0.0,-3.479287148158454,0.0
4530858662.878,-13.421949501189731,0.0,-3.4879782974761127,0.0
4530873662.8775,-13.417485635737446,0.0,-3.559357373313992,0.0
4530888662.877,-13.416076631314539,0.0,-3.5286357609173646,0.0
4530903662.8765,-13.430341814753303,0.0,-3.4883831640513616,0.0
4530918662.876,-13.416513510891285,0.0,-3.5385589680721825,0.0
4530933662.8755,-13.417143826715513,0.0,-3.5494128373247746,0.0
4530948662.875,-13.409667225376086,0.0,-3.5129520579325053,0.0
4530963662.8745,-13.415374805897489,0.0,-3.497986136343841,0.0
4530978662.874,-13.409750378510575,0.0,-3.5298748568581897,0.0
4530993662.8735,-13.429141057310687,0.0,-3.5437219352715092,0.0
4531008662.873,-13.414874400718464,0.0,-3.45503779701176,0.0
4531023662.8725,-13.415950753317444,0.0,-3.5202241743869025,0.0
4531038662.872,-13.417147389907704,0.0,-3.55462716240194,0.0
4531053662.8715,-13.422972821375652,0.0,-3.527437644796974,0.0
4531068662.871,-13.422711143858841,0.0,-3.502129537578117,0.0
4531083662.8705,-13.423296608082183,0.0,-3.5767538822848297,0.0
4531098662.87,-13.41384943714016,0.0,-3.548277351792512,0.0
4531113662.8695,-13.417114237993907,0.0,-3.575732304728915,0.0
4531128662.869,-13.425588802824217,0.0,-3.545172507534841,0.0
4531143662.8685,-13.412024189470632,0.0,-3.595181228517861,0.0
4531158662.868,-13.420251168289944,0.0,-3.588763158200062,0.0
4531173662.8675,-13.410642916536435,0.0,-3.559332067121207,0.0
4531188662.867,-13.418335654983498,0.0,-3.5685366425096734,0.0
4531203662.8665,-13.415675931130096,0.0,-3.5829483498549624,0.0
4531218662.866,-13.419237272111983,0.0,-3.558523246097111,0.0
4531233662.8655,-13.413650698137715,0.0,-3.57448494093644,0.0
4531248662.865,-13.422268483846537,0.0,-3.558801072535412,0.0
4531263662.8645,-13.419837351823713,0.0,-3.627053244079933,0.0
4531278662.864,-13.418015343983482,0.0,-3.61163753087316,0.0
4531293662.8635,-13.41332761576693,0.0,-3.627448598303609,0.0
4531308662.863,-13.417398288693274,0.0,-3.5777081016967327,0.0
4531323662.8625,-13.418729083233465,0.0,-3.641872753462726,0.0
4531338662.862,-13.420561923367476,0.0,-3.634858520304634,0.0
4531353662.8615,-13.420481617880519,0.0,-3.5915809766402367,0.0
4531368662.861,-13.425794129943984,0.0,-3.596792808262056,0.0
4531383662.8605,-13.41588822902601,0.0,-3.6749955842887387,0.0
4531398662.86,-13.434739984250522,0.0,-3.658381419802125,0.0
4531413662.8595,-13.423540051915147,0.0,-3.5733615745591036,0.0
4531428662.859,-13.41877975485735,0.0,-3.572164622239788,0.0
4531443662.8585,-13.419006302234557,0.0,-3.623065058374268,0.0
4531458662.858,-13.422990744201211,0.0,-3.667074804262293,0.0
4531473662.8575,-13.429210037893862,0.0,-3.6255571200946957,0.0
4531488662.857,-13.426450176619444,0.0,-3.6563632490813944,0.0
4531503662.8565,-13.42512829594584,0.0,-3.7309625087073504,0.0
4531518662.856,-13.423245080458933,0.0,-3.629713302133825,0.0
4531533662.8555,-13.419307821510717,0.0,-3.7014816574346954,0.0
4531548662.855,-13.424067995283824,0.0,-3.6511327779523097,0.0
4531563662.8545,-13.415035007619558,0.0,-3.6141622848594057,0.0
4531578662.854,-13.428574267126256,0.0,-3.7243054340873316,0.0
4531593662.8535,-13.42041175253079,0.0,-3.677439589512354,0.0
4531608662.853,-13.42264374911634,0.0,-3.6662088510424127,0.0
4531623662.8525,-13.41454479364707,0.0,-3.717390184011256,0.0
4531638662.852,-13.421917358080847,0.0,-3.7252455713454977,0.0
4531653662.8515,-13.420483938318641,0.0,-3.6752651013259476,0.0
4531668662.851,-13.426369444907671,0.0,-3.690193401540081,0.0
4531683662.8505,-13.425795600340464,0.0,-3.6999579448002495,0.0
4531698662.85,-13.429341626051606,0.0,-3.750246825138045,0.0
4531713662.8495,-13.424389297595013,0.0,-3.748635975535648,0.0
4531728662.849,-13.420388084263855,0.0,-3.6880201183949963,0.0
4531743662.8485,-13.42247851710307,0.0,-3.738398565617542,0.0
4531758662.848,-13.420186387947163,0.0,-3.716768624101796,0.0
4531773662.8475,-13.418805477313354,0.0,-3.7405241922823596,0.0
4531788662.847,-13.422540521953534,0.0,-3.7116887625778223,0.0
4531803662.8465,-13.422045960262729,0.0,-3.721051455934106,0.0
4531818662.846,-13.415031406524552,0.0,-3.7210808336429233,0.0
4531833662.8455,-13.422868731719003,0.0,-3.722323967706156,0.0
4531848662.845,-13.42232142407154,0.0,-3.7841906403333927,0.0
4531863662.8445,-13.41367192323355,0.0,-3.7580956863673842,0.0
4531878662.844,-13.427592858701855,0.0,-3.7195103672653187,0.0
