Frequency,S11,S11-Q,S11-Phase,S11-Phase-Q
4527198663.0,-13.415191629453386,0.0,-2.451788247526346,0.0
4527213662.9995,-13.415270091005151,0.0,-2.3832473980254614,0.0
4527228662.999,-13.406103854507165,0.0,-2.483307282759121,0.0
4527243662.9985,-13.42016900317959,0.0,-2.4326622047035253,0.0
4527258662.998,-13.41355469275262,0.0,-2.4274841685782382,0.0
4527273662.9975,-13.409310235428837,0.0,-2.383667180612348,0.0
4527288662.997,-13.409526315914611,0.0,-2.3943694519303973,0.0
4527303662.9965,-13.41060188999297,0.0,-2.448297928734183,0.0
4527318662.996,-13.419137512106671,0.0,-2.4615479643189118,0.0
4527333662.9955,-13.40982778265128,0.0,-2.4684225461385507,0.0
4527348662.995,-13.416578809608332,0.0,-2.406376533061211,0.0
4527363662.9945,-13.416380286323426,0.0,-2.4256093496910744,0.0
4527378662.994,-13.414134674915758,0.0,-2.48382666047264,0.0
4527393662.9935,-13.409563362660302,0.0,-2.4386642312974733,0.0
4527408662.993,-13.409129504564476,0.0,-2.454488605173031,0.0
4527423662.9925,-13.414178459993789,0.0,-2.4566587380402116,0.0
4527438662.992,-13.419677371417498,0.0,-2.434252047633258,0.0
4527453662.9915,-13.415485177354737,0.0,-2.468990715105437,0.0
4527468662.991,-13.416388715029333,0.0,-2.4815456260400954,0.0
4527483662.9905,-13.408509051299674,0.0,-2.4651167558655183,0.0
4527498662.99,-13.412226526434843,0.0,-2.4721775193606694,0.0
4527513662.9895,-13.416416961000126,0.0,-2.4254264018366345,0.0
4527528662.989,-13.40060402932869,0.0,-2.468840345889817,0.0
4527543662.9885,-13.407307933280608,0.0,-2.4329719851954743,0.0
4527558662.988,-13.415968057490169,0.0,-2.439940880132554,0.0
4527573662.9875,-13.421529792662714,0.0,-2.52265848635288,0.0
4527588662.987,-13.418477446616135,0.0,-2.4928508132999303,0.0
4527603662.9865,-13.408013119531345,0.0,-2.4579135117253776,0.0
4527618662.986,-13.416015221122619,0.0,-2.526038878487072,0.0
4527633662.9855,-13.404556502613925,0.0,-2.5049748278164725,0.0
4527648662.985,-13.408763760245591,0.0,-2.4405038160055676,0.0
4527663662.9845,-13.411195544474712,0.0,-2.5055316168501665,0.0
4527678662.984,-13.429379540054176,0.0,-2.522255568672945,0.0
4527693662.9835,-13.409449045977102,0.0,-2.4136634687428193,0.0
4527708662.983,-13.406019385900168,0.0,-2.4616584726396527,0.0
4527723662.9825,-13.407462957655659,0.0,-2.4767013188294675,0.0
4527738662.982,-13.415087867754625,0.0,-2.51411690187934,0.0
4527753662.9815,-13.41189000429473,0.0,-2.4713924350686822,0.0
4527768662.981,-13.418178754133137,0.0,-2.4557626735989717,0.0
4527783662.9805,-13.414237476233435,0.0,-2.5716301334694323,0.0
4527798662.98,-13.4137338766981,0.0,-2.5225703216050355,0.0
4527813662.9795,-13.414274205082874,0.0,-2.484057060306152,0.0
4527828662.979,-13.411124920637103,0.0,-2.4773381769024145,0.0
4527843662.9785,-13.407859687733286,0.0,-2.5063977652668554,0.0
4527858662.978,-13.414505596813555,0.0,-2.4728460486805313,0.0
4527873662.9775,-13.418626957875562,0.0,-2.4583870369488925,0.0
4527888662.977,-13.414558033590637,0.0,-2.486151452787912,0.0
4527903662.9765,-13.419370088340168,0.0,-2.516052390410126,0.0
4527918662.976,-13.409795804087839,0.0,-2.5144686638568676,0.0
4527933662.9755,-13.41603380335201,0.0,-2.491706742874326,0.0
4527948662.975,-13.408796234007603,0.0,-2.5534101283706594,0.0
4527963662.9745,-13.408137558209692,0.0,-2.529628982532262,0.0
4527978662.974,-13.41483613229466,0.0,-2.529956379945548,0.0
4527993662.9735,-13.422297665247651,0.0,-2.5444553569457415,0.0
4528008662.973,-13.417597642112888,0.0,-2.5102884220548103,0.0
4528023662.9725,-13.411069016855269,0.0,-2.5127460823637224,0.0
4528038662.972,-13.412940752951084,0.0,-2.602696256552766,0.0
4528053662.9715,-13.409956974801002,0.0,-2.513988534438412,0.0
4528068662.971,-13.417443785115717,0.0,-2.5256768376064804,0.0
4528083662.9705,-13.413457806033854,0.0,-2.5307428692040514,0.0
4528098662.97,-13.417644891385859,0.0,-2.498390246802318,0.0
4528113662.9695,-13.421583125727858,0.0,-2.448966297709793,0.0
4528128662.969,-13.42371578391872,0.0,-2.5203924231001364,0.0
4528143662.9685,-13.417737684387184,0.0,-2.5631191376372313,0.0
4528158662.968,-13.409472382917961,0.0,-2.545010610193283,0.0
4528173662.9675,-13.415754023971685,0.0,-2.626904685593928,0.0
4528188662.967,-13.413799640539835,0.0,-2.5420389362040905,0.0
4528203662.9665,-13.407125132161102,0.0,-2.525811362814019,0.0
4528218662.966,-13.41870356200253,0.0,-2.577875434334769,0.0
4528233662.9655,-13.420156548251043,0.0,-2.5461802834025127,0.0
4528248662.965,-13.411175011251434,0.0,-2.5423735310145115,0.0
4528263662.9645,-13.412351696831411,0.0,-2.576108121212271,0.0
4528278662.964,-13.416499432040439,0.0,-2.536024502734583,0.0
4528293662.9635,-13.409267981452498,0.0,-2.5843221559234224,0.0
4528308662.963,-13.416470000970461,0.0,-2.532631267385734,0.0
4528323662.9625,-13.417174841529459,0.0,-2.5739210129030883,0.0
4528338662.962,-13.425709649483197,0.0,-2.571132079796262,0.0
4528353662.9615,-13.424101445506647,0.0,-2.568622835776334,0.0
4528368662.961,-13.410289305579493,0.0,-2.564408725537449,0.0
4528383662.9605,-13.41449355793215,0.0,-2.5427382245129246,0.0
4528398662.96,-13.419820900267624,0.0,-2.6014587736056125,0.0
4528413662.9595,-13.410270952613901,0.0,-2.5557922127791457,0.0
4528428662.959,-13.410605356455672,0.0,-2.4786898684630927,0.0
4528443662.9585,-13.411253329734148,0.0,-2.6291604726485867,0.0
4528458662.958,-13.410695553213785,0.0,-2.607220373409391,0.0
4528473662.9575,-13.420944272966523,0.0,-2.543184131348707,0.0
4528488662.957,-13.40745594048423,0.0,-2.5651865666391647,0.0
4528503662.9565,-13.411918785342465,0.0,-2.620709801820997,0.0
4528518662.956,-13.420473181440897,0.0,-2.697848464688035,0.0
4528533662.9555,-13.41271114168764,0.0,-2.6131488304820065,0.0
4528548662.955,-13.415526608999304,0.0,-2.5514542604698587,0.0
4528563662.9545,-13.417707872627311,0.0,-2.562170530732818,0.0
4528578662.954,-13.417587889691749,0.0,-2.627954048537663,0.0
4528593662.9535,-13.41505825574911,0.0,-2.631414278949051,0.0
4528608662.953,-13.410680155115504,0.0,-2.637798821187274,0.0
4528623662.9525,-13.418714463282,0.0,-2.5739516034716092,0.0
4528638662.952,-13.415681077767394,0.0,-2.6391915023234236,0.0
4528653662.9515,-13.409050231351907,0.0,-2.5901068503100704,0.0
4528668662.951,-13.415227688677707,0.0,-2.665202409655774,0.0
4528683662.9505,-13.41244595473709,0.0,-2.670526652990498,0.0
4528698662.95,-13.419930248259622,0.0,-2.6508059946975076,0.0
4528713662.9495,-13.410400737887652,0.0,-2.6770352753769497,0.0
4528728662.949,-13.421597314853129,0.0,-2.6181585773746643,0.0
4528743662.9485,-13.418654975028021,0.0,-2.5905462350182153,0.0
4528758662.948,-13.409439869177692,0.0,-2.5975720417678496,0.0
4528773662.9475,-13.416650846349992,0.0,-2.6269313420643403,0.0
4528788662.947,-13.411686253665021,0.0,-2.6986370773254005,0.0
4528803662.9465,-13.418572333472278,0.0,-2.65818364280628,0.0
4528818662.946,-13.413890120498138,0.0,-2.6303720370220036,0.0
4528833662.9455,-13.4111336939901,0.0,-2.6721710260426175,0.0
4528848662.945,-13.413749986079672,0.0,-2.657057706298655,0.0
4528863662.9445,-13.418018470620162,0.0,-2.729394088376095,0.0
4528878662.944,-13.416896154828725,0.0,-2.660492534610779,0.0
4528893662.9435,-13.420963147939087,0.0,-2.6619794068442424,0.0
4528908662.943,-13.419429954121863,0.0,-2.617046890236657,0.0
4528923662.9425,-13.424205206425071,0.0,-2.655770463777234,0.0
4528938662.942,-13.417672025487427,0.0,-2.743904917081227,0.0
4528953662.9415,-13.415781810881523,0.0,-2.7076310921127433,0.0
4528968662.941,-13.414983149571677,0.0,-2.671297268157928,0.0
4528983662.9405,-13.416100066215508,0.0,-2.652160478462409,0.0
4528998662.94,-13.415744965403464,0.0,-2.6456403215902187,0.0
4529013662.9395,-13.417219450510906,0.0,-2.7087787717661986,0.0
4529028662.939,-13.416270547136628,0.0,-2.697733201600008,0.0
4529043662.9385,-13.425014162435298,0.0,-2.7107433446191207,0.0
4529058662.938,-13.421373121850621,0.0,-2.699831375723466,0.0
4529073662.9375,-13.419063244946166,0.0,-2.6264983882230504,0.0
4529088662.937,-13.419844588050704,0.0,-2.719921266363824,0.0
4529103662.9365,-13.414513170685332,0.0,-2.691384326795069,0.0
4529118662.936,-13.407865001563264,0.0,-2.721832837024919,0.0
4529133662.9355,-13.422485910049389,0.0,-2.719221207603682,0.0
4529148662.935,-13.432322443958602,0.0,-2.6463393403154396,0.0
4529163662.9345,-13.416721013073765,0.0,-2.8010118924014726,0.0
4529178662.934,-13.418727834597558,0.0,-2.72507836617689,0.0
4529193662.9335,-13.417621586651038,0.0,-2.7808887760562593,0.0
4529208662.933,-13.420061028284163,0.0,-2.68725120492122,0.0
4529223662.9325,-13.416494169332926,0.0,-2.6690913671630585,0.0
4529238662.932,-13.407776994636386,0.0,-2.748855459788063,0.0
4529253662.9315,-13.420712505568684,0.0,-2.743028739812376,0.0
4529268662.931,-13.41140965288822,0.0,-2.7370420923352987,0.0
4529283662.9305,-13.416990179206387,0.0,-2.7062825484122954,0.0
4529298662.93,-13.419810953773165,0.0,-2.706562977813883,0.0
4529313662.9295,-13.416278780578716,0.0,-2.7286543468407554,0.0
4529328662.929,-13.414279130496741,0.0,-2.7435464895932093,0.0
4529343662.9285,-13.419253700590817,0.0,-2.7092787646163736,0.0
4529358662.928,-13.417924502920918,0.0,-2.716631584648041,0.0
4529373662.9275,-13.412375883416498,0.0,-2.781345991601626,0.0
4529388662.927,-13.419153884191202,0.0,-2.745072949945295,0.0
4529403662.9265,-13.41037766578853,0.0,-2.812213293226388,0.0
4529418662.926,-13.419309065126932,0.0,-2.7706336853214104,0.0
4529433662.9255,-13.425140950602731,0.0,-2.7580492458333437,0.0
4529448662.925,-13.412357581058497,0.0,-2.7183873177735847,0.0
4529463662.9245,-13.424309609333116,0.0,-2.8253141845924445,0.0
4529478662.924,-13.411635208363679,0.0,-2.7947659752903053,0.0
4529493662.9235,-13.415204152652802,0.0,-2.821133015947131,0.0
4529508662.923,-13.422117223728003,0.0,-2.8177570149228814,0.0
4529523662.9225,-13.414915852114948,0.0,-2.746573170150051,0.0
4529538662.922,-13.41268397224318,0.0,-2.8124350526913084,0.0
4529553662.9215,-13.416186579825823,0.0,-2.7668279541762826,0.0
4529568662.921,-13.419931984198818,0.0,-2.8029111778514775,0.0
4529583662.9205,-13.42155783709756,0.0,-2.8307414302510554,0.0
4529598662.92,-13.42158479966509,0.0,-2.7877347633084226,0.0
4529613662.9195,-13.419387457462994,0.0,-2.8149870866962994,0.0
4529628662.919,-13.40882746917374,0.0,-2.811105143937993,0.0
4529643662.9185,-13.41726845863408,0.0,-2.80835267956133,0.0
4529658662.918,-13.409920191000124,0.0,-2.840532760916308,0.0
4529673662.9175,-13.423299768549832,0.0,-2.7342530291731553,0.0
4529688662.917,-13.41530740825846,0.0,-2.848806563288684,0.0
4529703662.9165,-13.41875090555061,0.0,-2.7866739501299422,0.0
4529718662.916,-13.419473509746624,0.0,-2.8818469707518277,0.0
4529733662.9155,-13.419950283644113,0.0,-2.8307833917721332,0.0
4529748662.915,-13.414113599058632,0.0,-2.8482553759980176,0.0
4529763662.9145,-13.41945955842332,0.0,-2.84734978484818,0.0
4529778662.914,-13.425773637005605,0.0,-2.8157067534242373,0.0
4529793662.9135,-13.422262044718732,0.0,-2.7967361811443965,0.0
4529808662.913,-13.417117126613583,0.0,-2.8173535692240215,0.0
4529823662.9125,-13.426494794436222,0.0,-2.832138439450077,0.0
4529838662.912,-13.418596716127544,0.0,-2.8041914158085466,0.0
4529853662.9115,-13.422160789222858,0.0,-2.829919114485285,0.0
4529868662.911,-13.417442352391939,0.0,-2.880589158671876,0.0
4529883662.9105,-13.414595252991894,0.0,-2.82514849548606,0.0
4529898662.91,-13.427110659369763,0.0,-2.8358889331972175,0.0
4529913662.9095,-13.424832760786208,0.0,-2.8086876804642738,0.0
4529928662.909,-13.432249715115233,0.0,-2.8765591465628915,0.0
4529943662.9085,-13.419058425640012,0.0,-2.81378340387101,0.0
4529958662.908,-13.41839181264069,0.0,-2.8420164522335383,0.0
4529973662.9075,-13.423344989519293,0.0,-2.8322974555647504,0.0
4529988662.907,-13.420415987137837,0.0,-2.8924908604288992,0.0
4530003662.9065,-13.416098879230926,0.0,-2.8862713179679504,0.0
4530018662.906,-13.416736119104726,0.0,-2.8409209757065628,0.0
4530033662.9055,-13.416885725748742,0.0,-2.8582472263634453,0.0
4530048662.905,-13.414933485869902,0.0,-2.9099834694396,0.0
4530063662.9045,-13.422819634211443,0.0,-2.8446066087260062,0.0
4530078662.904,-13.421271780590999,0.0,-2.911622063449084,0.0
4530093662.9035,-13.418232063154429,0.0,-2.863078149998172,0.0
4530108662.903,-13.423530859427235,0.0,-2.8736248603233734,0.0
4530123662.9025,-13.414601161382498,0.0,-2.932954075426498,0.0
4530138662.902,-13.418283275044212,0.0,-2.938866393552313,0.0
4530153662.9015,-13.415166119025205,0.0,-2.8361561624982428,0.0
4530168662.901,-13.418094844203637,0.0,-2.893932489154023,0.0
4530183662.9005,-13.418597593141481,0.0,-2.844997147145539,0.0
4530198662.9,-13.418579952723084,0.0,-2.9291593337402166,0.0
4530213662.8995,-13.418777290650956,0.0,-2.8686703537517637,0.0
4530228662.899,-13.425458593239135,0.0,-2.8968441569151606,0.0
4530243662.8985,-13.420982686151126,0.0,-2.8998321294121254,0.0
4530258662.898,-13.41861981034031,0.0,-2.8705997201230753,0.0
4530273662.8975,-13.418277134506816,0.0,-2.969828001205412,0.0
4530288662.897,-13.423404441318919,0.0,-2.9097354269730666,0.0
4530303662.8965,-13.422495964482648,0.0,-2.898200171013766,0.0
4530318662.896,-13.418088229721118,0.0,-2.9424115093400167,0.0
4530333662.8955,-13.423363733585688,0.0,-2.948884919754093,0.0
4530348662.895,-13.42639605014379,0.0,-2.916788156650139,0.0
4530363662.8945,-13.420426106160427,0.0,-2.9361712380011333,0.0
4530378662.894,-13.410349631420296,0.0,-2.9840861699568326,0.0
4530393662.8935,-13.415473211593223,0.0,-2.987029535634233,0.0
4530408662.893,-13.424779562417575,0.0,-2.917833131372447,0.0
4530423662.8925,-13.425850158175752,0.0,-2.9547007960066445,0.0
4530438662.892,-13.419407950995359,0.0,-2.9457648458879993,0.0
4530453662.8915,-13.421373746445528,0.0,-2.999549971609068,0.0
4530468662.891,-13.416509404601463,0.0,-2.9423976869846915,0.0
4530483662.8905,-13.42306226516242,0.0,-2.95159214913036,0.0
4530498662.89,-13.426871254929022,0.0,-2.958062090869933,0.0
4530513662.8895,-13.425183969348113,0.0,-2.990845018478874,0.0
4530528662.889,-13.422429033345145,0.0,-3.0090503854578246,0.0
4530543662.8885,-13.424248303840507,0.0,-2.992767671468681,0.0
4530558662.888,-13.41900585281828,0.0,-2.9670861783024116,0.0
4530573662.8875,-13.420606299018022,0.0,-2.9991965657811384,0.0
4530588662.887,-13.428731771135434,0.0,-3.0244020823421796,0.0
4530603662.8865,-13.420224185300327,0.0,-2.937155443493091,0.0
4530618662.886,-13.421975750549588,0.0,-2.998938564889366,0.0
4530633662.8855,-13.427554249414113,0.0,-3.0022345748638033,0.0
4530648662.885,-13.416882666076148,0.0,-3.014803566382371,0.0
4530663662.8845,-13.428966982044008,0.0,-3.0289687218906862,0.0
4530678662.884,-13.425415666318774,0.0,-3.0371166492032975,0.0
4530693662.8835,-13.416796752070004,0.0,-2.989678011578527,0.0
4530708662.883,-13.42454463350856,0.0,-2.994750904356525,0.0
4530723662.8825,-13.412476659322932,0.0,-2.974197661550916,0.0
4530738662.882,-13.414246833474731,0.0,-3.0409938682794326,0.0
4530753662.8815,-13.417160773953356,0.0,-3.0316710707203933,0.0
4530768662.881,-13.425679165246363,0.0,-3.01449695567398,0.0
4530783662.8805,-13.427174546987121,0.0,-3.0786996928553263,0.0
4530798662.88,-13.429678571484988,0.0,-3.0429551861956776,0.0
4530813662.8795,-13.422138078727894,0.0,-3.007112720800687,0.0
4530828662.879,-13.420574492736833,0.0,-3.059119093214677,0.0
4530843662.8785,-13.429192443977032,0.0,-2.9894795886493757,0.0
4530858662.878,-13.427261450282357,0.0,-3.0928450101545515,0.0
4530873662.8775,-13.414370075959134,0.0,-3.011684997649546,0.0
4530888662.877,-13.419702021538082,0.0,-3.015927231410747,0.0
4530903662.8765,-13.415248269159935,0.0,-3.0410553643224905,0.0
4530918662.876,-13.428398819135088,0.0,-3.0623432358884344,0.0
4530933662.8755,-13.425186385537835,0.0,-3.1007835343597283,0.0
4530948662.875,-13.42748593643164,0.0,-3.0958377604640357,0.0
4530963662.8745,-13.428773444426465,0.0,-3.0948713032995294,0.0
4530978662.874,-13.431982387494429,0.0,-3.048339325296549,0.0
4530993662.8735,-13.42895536789354,0.0,-3.07407478381709,0.0
4531008662.873,-13.427861541096176,0.0,-3.0917241318066058,0.0
4531023662.8725,-13.422956847880414,0.0,-3.117843021527197,0.0
4531038662.872,-13.420672217187981,0.0,-3.0639287444609815,0.0
4531053662.8715,-13.419628457871278,0.0,-3.1185042521345014,0.0
4531068662.871,-13.419141079378935,0.0,-3.1162245920190643,0.0
4531083662.8705,-13.417514437146012,0.0,-3.0555520906757683,0.0
4531098662.87,-13.426416658072418,0.0,-3.0545353931963413,0.0
4531113662.8695,-13.429100098452034,0.0,-3.08955195104297,0.0
4531128662.869,-13.420374978705,0.0,-3.106858724316384,0.0
4531143662.8685,-13.418266765438204,0.0,-3.13340795854876,0.0
4531158662.868,-13.419336067204608,0.0,-3.1272779638583965,0.0
4531173662.8675,-13.428599628505218,0.0,-3.0512948639767945,0.0
4531188662.867,-13.417592132515324,0.0,-3.1322345999609715,0.0
4531203662.8665,-13.421565294001383,0.0,-3.1507120686155976,0.0
4531218662.866,-13.43537108432135,0.0,-3.0813019235993413,0.0
4531233662.8655,-13.416939114287434,0.0,-3.107396691638074,0.0
4531248662.865,-13.420280957149185,0.0,-3.081856866330508,0.0
4531263662.8645,-13.431720699975076,0.0,-3.191396669534512,0.0
4531278662.864,-13.418029294886338,0.0,-3.1692763635651957,0.0
4531293662.8635,-13.428059595566326,0.0,-3.1289198577176727,0.0
4531308662.863,-13.42376305245822,0.0,-3.1833225149879434,0.0
4531323662.8625,-13.420266209192986,0.0,-3.057265276190351,0.0
4531338662.862,-13.430951186756905,0.0,-3.146967741481217,0.0
4531353662.8615,-13.417589637142758,0.0,-3.1478608735102065,0.0
4531368662.861,-13.425820462333425,0.0,-3.1813299302797127,0.0
4531383662.8605,-13.425017248749402,0.0,-3.177664519299074,0.0
4531398662.86,-13.424178766831876,0.0,-3.198044445421562,0.0
4531413662.8595,-13.421245778176216,0.0,-3.208704084091278,0.0
4531428662.859,-13.419217981246415,0.0,-3.1490051997724797,0.0
4531443662.8585,-13.426357012644575,0.0,-3.1969790219435574,0.0
4531458662.858,-13.40991515337533,0.0,-3.1738906267931464,0.0
4531473662.8575,-13.424054546839344,0.0,-3.163634258545972,0.0
4531488662.857,-13.428551580051021,0.0,-3.199950020668571,0.0
4531503662.8565,-13.418754282587049,0.0,-3.191736720863187,0.0
4531518662.856,-13.41838192727426,0.0,-3.1099112574425245,0.0
4531533662.8555,-13.43116410538197,0.0,-3.216889902725597,0.0
4531548662.855,-13.422748425477229,0.0,-3.1991599180170764,0.0
4531563662.8545,-13.43058853711919,0.0,-3.2187076420615917,0.0
4531578662.854,-13.42160188614585,0.0,-3.1691260056364454,0.0
4531593662.8535,-13.414121587786392,0.0,-3.2404672756000283,0.0
4531608662.853,-13.420611839583144,0.0,-3.2697632755986232,0.0
4531623662.8525,-13.420876256814875,0.0,-3.251058438524671,0.0
4531638662.852,-13.417363708263743,0.0,-3.2390702848073833,0.0
4531653662.8515,-13.433567625935163,0.0,-3.2183486764630307,0.0
4531668662.851,-13.4226586890784,0.0,-3.2417355184404264,0.0
4531683662.8505,-13.427586626776538,0.0,-3.227873415109533,0.0
4531698662.85,-13.430032066961706,0.0,-3.2316913408569894,0.0
4531713662.8495,-13.426863758321893,0.0,-3.2396816499519914,0.0
4531728662.849,-13.429714589517342,0.0,-3.237491382398459,0.0
4531743662.8485,-13.436351426331195,0.0,-3.301840613826244,0.0
4531758662.848,-13.427782283063516,0.0,-3.334913232798236,0.0
4531773662.8475,-13.427485628574662,0.0,-3.2584198168653757,0.0
4531788662.847,-13.423397886507875,0.0,-3.267057680491305,0.0
4531803662.8465,-13.430359466042765,0.0,-3.2026896860604572,0.0
4531818662.846,-13.421052541171964,0.0,-3.2254056753209963,0.0
4531833662.8455,-13.417965723278964,0.0,-3.240321385005676,0.0
4531848662.845,-13.428374271199548,0.0,-3.231926897343782,0.0
4531863662.8445,-13.430209863492504,0.0,-3.2483022042337786,0.0
