Frequency,S11,S11-Q,S11-Phase,S11-Phase-Q
4527198663.0,-13.415726509933798,0.0,-2.909797185226398,0.0
4527213662.9995,-13.402581140556373,0.0,-2.840379819560024,0.0
4527228662.999,-13.402166467785598,0.0,-2.83213076039545,0.0
4527243662.9985,-13.397650999401758,0.0,-2.8292711047033685,0.0
4527258662.998,-13.408041722006521,0.0,-2.862095255483064,0.0
4527273662.9975,-13.41359253672929,0.0,-2.867776022141546,0.0
4527288662.997,-13.407541504187124,0.0,-2.871185909174007,0.0
4527303662.9965,-13.402808804728974,0.0,-2.842527896713361,0.0
4527318662.996,-13.41113183435493,0.0,-2.841997609671416,0.0
4527333662.9955,-13.407431529369306,0.0,-2.855084290596567,0.0
4527348662.995,-13.405864017622285,0.0,-2.8681381950673983,0.0
4527363662.9945,-13.403581918294336,0.0,-2.778543510364038,0.0
4527378662.994,-13.411635832274202,0.0,-2.835015304772533,0.0
4527393662.9935,-13.407415496421804,0.0,-2.901103696175847,0.0
4527408662.993,-13.402455653776501,0.0,-2.9186110539343915,0.0
4527423662.9925,-13.415257945552849,0.0,-2.9056426531537984,0.0
4527438662.992,-13.403308456351844,0.0,-2.847349886686085,0.0
4527453662.9915,-13.409820948210477,0.0,-2.9407428688797324,0.0
4527468662.991,-13.41865584476784,0.0,-2.929430115129019,0.0
4527483662.9905,-13.400963033445382,0.0,-2.895252612938826,0.0
4527498662.99,-13.405179911501605,0.0,-2.9109633587138513,0.0
4527513662.9895,-13.408983184910388,0.0,-2.8677303036946094,0.0
4527528662.989,-13.405599524388611,0.0,-2.8713901012848986,0.0
4527543662.9885,-13.40491738186894,0.0,-2.8714388391221286,0.0
4527558662.988,-13.406011672273623,0.0,-2.8965889627131074,0.0
4527573662.9875,-13.412166408868785,0.0,-2.928788916945371,0.0
4527588662.987,-13.406942850416605,0.0,-2.9541797571412327,0.0
4527603662.9865,-13.406578271956427,0.0,-2.9211075452666786,0.0
4527618662.986,-13.412738655529191,0.0,-2.9782566332290212,0.0
4527633662.9855,-13.402578186226688,0.0,-2.88443680052742,0.0
4527648662.985,-13.408242090315671,0.0,-2.939330622953155,0.0
4527663662.9845,-13.41407863261056,0.0,-3.010379462810783,0.0
4527678662.984,-13.40834807676397,0.0,-2.862558856639809,0.0
4527693662.9835,-13.410796409475655,0.0,-2.8695978174151704,0.0
4527708662.983,-13.412110177758175,0.0,-2.9334114027646625,0.0
4527723662.9825,-13.413354433838624,0.0,-2.887288942149839,0.0
4527738662.982,-13.42719594650749,0.0,-2.932993203124372,0.0
4527753662.9815,-13.405581100431128,0.0,-2.8916012090173377,0.0
4527768662.981,-13.400417474557223,0.0,-2.9196088511810885,0.0
4527783662.9805,-13.40874550572828,0.0,-2.9501139990907537,0.0
4527798662.98,-13.412268006942794,0.0,-2.950769119288059,0.0
4527813662.9795,-13.403442888497214,0.0,-2.9164015929500224,0.0
4527828662.979,-13.402645799693145,0.0,-2.871412868527022,0.0
4527843662.9785,-13.404586220382788,0.0,-2.8982558965789806,0.0
4527858662.978,-13.407423575975638,0.0,-2.875024405115588,0.0
4527873662.9775,-13.400910770302081,0.0,-2.950159205026405,0.0
4527888662.977,-13.41390264694229,0.0,-2.945423602853606,0.0
4527903662.9765,-13.401168034738408,0.0,-2.949010313731596,0.0
4527918662.976,-13.41144804173193,0.0,-2.947923128465693,0.0
4527933662.9755,-13.408700720182933,0.0,-2.910192606746176,0.0
4527948662.975,-13.406790123658123,0.0,-2.940224859676188,0.0
4527963662.9745,-13.407618664012892,0.0,-2.9536357082615097,0.0
4527978662.974,-13.40672567222731,0.0,-2.9821118677125287,0.0
4527993662.9735,-13.413496619661078,0.0,-2.946869190476215,0.0
4528008662.973,-13.410263697448524,0.0,-2.950494603554746,0.0
4528023662.9725,-13.405855060946577,0.0,-2.930665844736031,0.0
4528038662.972,-13.407555252899801,0.0,-2.9667755716199076,0.0
4528053662.9715,-13.403240591230814,0.0,-2.9344026523979307,0.0
4528068662.971,-13.41183982776914,0.0,-2.964764987435561,0.0
4528083662.9705,-13.400535237398536,0.0,-2.9176289915395506,0.0
4528098662.97,-13.413555238977615,0.0,-2.9559440013565284,0.0
4528113662.9695,-13.409643972241668,0.0,-2.9580815775546947,0.0
4528128662.969,-13.413858262563698,0.0,-2.96548590852766,0.0
4528143662.9685,-13.410849055404547,0.0,-2.953224137179523,0.0
4528158662.968,-13.409078703123896,0.0,-3.0395064284037625,0.0
4528173662.9675,-13.410000495469257,0.0,-2.9646342669464594,0.0
4528188662.967,-13.413107387058416,0.0,-2.968143308326552,0.0
4528203662.9665,-13.40341282208886,0.0,-3.015464005910523,0.0
4528218662.966,-13.409980022789414,0.0,-2.9696090385059715,0.0
4528233662.9655,-13.410978297923977,0.0,-2.984261830031066,0.0
4528248662.965,-13.406303526722247,0.0,-2.9918617998607964,0.0
4528263662.9645,-13.398604858598695,0.0,-2.934286845773519,0.0
4528278662.964,-13.409272201840118,0.0,-3.042171392847527,0.0
4528293662.9635,-13.409956704230597,0.0,-2.9992527942534064,0.0
4528308662.963,-13.40959228185766,0.0,-3.0202830198619144,0.0
4528323662.9625,-13.415419410089157,0.0,-3.010522964669252,0.0
4528338662.962,-13.412498826543771,0.0,-3.04321268083933,0.0
4528353662.9615,-13.409350069768617,0.0,-2.9781992566334905,0.0
4528368662.961,-13.408405513601489,0.0,-3.046249832260067,0.0
4528383662.9605,-13.406284764763324,0.0,-2.9428734343855187,0.0
4528398662.96,-13.410319432996925,0.0,-3.0185166812314845,0.0
4528413662.9595,-13.412622074032347,0.0,-3.005344601685502,0.0
4528428662.959,-13.411039371323696,0.0,-3.0392167042732585,0.0
4528443662.9585,-13.409001403518563,0.0,-2.959660020145223,0.0
4528458662.958,-13.414446760997043,0.0,-3.0417504159767352,0.0
4528473662.9575,-13.411795580561334,0.0,-3.0067078516871386,0.0
4528488662.957,-13.408694420831242,0.0,-3.0491708995372866,0.0
4528503662.9565,-13.413499960290942,0.0,-3.0588007142794122,0.0
4528518662.956,-13.411191435780625,0.0,-2.992787373616719,0.0
4528533662.9555,-13.404783164500733,0.0,-3.055981973093924,0.0
4528548662.955,-13.405848140011736,0.0,-3.111304444270475,0.0
4528563662.9545,-13.399455788860987,0.0,-3.0065614408477512,0.0
4528578662.954,-13.412458952879874,0.0,-3.0848522398543703,0.0
4528593662.9535,-13.416909166812177,0.0,-3.0264760425069315,0.0
4528608662.953,-13.409351432139317,0.0,-3.0685513779075855,0.0
4528623662.9525,-13.412938879381304,0.0,-3.002360163278192,0.0
4528638662.952,-13.396495175381517,0.0,-3.0759348525192185,0.0
4528653662.9515,-13.412474252493023,0.0,-3.05281437941862,0.0
4528668662.951,-13.412610424430584,0.0,-3.082592774189369,0.0
4528683662.9505,-13.40739702722139,0.0,-3.0824488065786286,0.0
4528698662.95,-13.414959908901134,0.0,-3.054707934805207,0.0
4528713662.9495,-13.41930515970753,0.0,-3.100604946960583,0.0
4528728662.949,-13.414071300207668,0.0,-3.0779868241809005,0.0
4528743662.9485,-13.407105955649092,0.0,-3.046380396652442,0.0
4528758662.948,-13.418183858641612,0.0,-3.126460452368407,0.0
4528773662.9475,-13.41631160609779,0.0,-3.089620073065549,0.0
4528788662.947,-13.40995110325558,0.0,-3.0698649803869777,0.0
4528803662.9465,-13.414635384848221,0.0,-3.0310430159270974,0.0
4528818662.946,-13.411871554863591,0.0,-3.063190975383176,0.0
4528833662.9455,-13.401217816690563,0.0,-3.1306147021720347,0.0
4528848662.945,-13.41566975592831,0.0,-3.1230523032694397,0.0
4528863662.9445,-13.406076097538444,0.0,-3.073394299850719,0.0
4528878662.944,-13.419808172756545,0.0,-3.053795589491915,0.0
4528893662.9435,-13.404876915587439,0.0,-3.1417465087233234,0.0
4528908662.943,-13.417292500447664,0.0,-3.099969966972534,0.0
4528923662.9425,-13.416953099214808,0.0,-3.1535401635002946,0.0
4528938662.942,-13.412845995006899,0.0,-3.1275234155593234,0.0
4528953662.9415,-13.40996905466324,0.0,-3.0625855226526335,0.0
4528968662.941,-13.413184161440608,0.0,-3.0682380426877214,0.0
4528983662.9405,-13.405103494903647,0.0,-3.0645782733442704,0.0
4528998662.94,-13.413915323609277,0.0,-3.148431369628282,0.0
4529013662.9395,-13.417015233000583,0.0,-3.0947599579235407,0.0
4529028662.939,-13.413430284856176,0.0,-3.1458520440640996,0.0
4529043662.9385,-13.415796060984515,0.0,-3.1155966806097446,0.0
4529058662.938,-13.408824615114817,0.0,-3.1304018728341725,0.0
4529073662.9375,-13.413472048887717,0.0,-3.1711331581651594,0.0
4529088662.937,-13.41718416052175,0.0,-3.11276980513046,0.0
4529103662.9365,-13.410189742138385,0.0,-3.1777238588337045,0.0
4529118662.936,-13.407590745182423,0.0,-3.207929428144834,0.0
4529133662.9355,-13.404825540572137,0.0,-3.131464490375194,0.0
4529148662.935,-13.41435884803679,0.0,-3.1109773056837535,0.0
4529163662.9345,-13.412853358277719,0.0,-3.154194553469896,0.0
4529178662.934,-13.404753470535475,0.0,-3.1016396368539016,0.0
4529193662.9335,-13.408114874202788,0.0,-3.109627688290094,0.0
4529208662.933,-13.410898050996593,0.0,-3.2278931767552574,0.0
4529223662.9325,-13.416280690540338,0.0,-3.153312999317637,0.0
4529238662.932,-13.408371619465285,0.0,-3.1783310227814616,0.0
4529253662.9315,-13.411476896151164,0.0,-3.126298159776798,0.0
4529268662.931,-13.412616961598689,0.0,-3.158436803770254,0.0
4529283662.9305,-13.407823744799494,0.0,-3.1779727918830925,0.0
4529298662.93,-13.40287710635806,0.0,-3.174487183480487,0.0
4529313662.9295,-13.39977461665539,0.0,-3.0785391897927683,0.0
4529328662.929,-13.405740082908103,0.0,-3.250856530222609,0.0
4529343662.9285,-13.412353620720808,0.0,-3.1774943344455258,0.0
4529358662.928,-13.407227954242689,0.0,-3.164321295261766,0.0
4529373662.9275,-13.408057979503116,0.0,-3.131703121644093,0.0
4529388662.927,-13.415225960704728,0.0,-3.1972256994043633,0.0
4529403662.9265,-13.416463911913286,0.0,-3.1681045674283146,0.0
4529418662.926,-13.41874547326578,0.0,-3.2172039619600783,0.0
4529433662.9255,-13.406810084505956,0.0,-3.1994187989577214,0.0
4529448662.925,-13.418451274199928,0.0,-3.2705707961923522,0.0
4529463662.9245,-13.416587521460057,0.0,-3.1499728187850344,0.0
4529478662.924,-13.412778240829418,0.0,-3.177858869727708,0.0
4529493662.9235,-13.412587868389013,0.0,-3.22040804566477,0.0
4529508662.923,-13.405468124155737,0.0,-3.2608173113214955,0.0
4529523662.9225,-13.416860437432147,0.0,-3.193841780492864,0.0
4529538662.922,-13.413150830416479,0.0,-3.196924168179841,0.0
4529553662.9215,-13.420243735985526,0.0,-3.2731786114681194,0.0
4529568662.921,-13.408378373713814,0.0,-3.2802814984294524,0.0
4529583662.9205,-13.401165061665948,0.0,-3.2880574039315467,0.0
4529598662.92,-13.412875834695111,0.0,-3.2255172594344153,0.0
4529613662.9195,-13.406219236275486,0.0,-3.267280620694638,0.0
4529628662.919,-13.41009723780536,0.0,-3.27279278647412,0.0
4529643662.9185,-13.402166684977605,0.0,-3.246960772601849,0.0
4529658662.918,-13.409746870725638,0.0,-3.252364527029864,0.0
4529673662.9175,-13.414907463218197,0.0,-3.2870829925855727,0.0
4529688662.917,-13.414984196724408,0.0,-3.2760765014747957,0.0
4529703662.9165,-13.418666332706824,0.0,-3.300515180262813,0.0
4529718662.916,-13.402920765816495,0.0,-3.2570853729214853,0.0
4529733662.9155,-13.408697387717147,0.0,-3.305845165933807,0.0
4529748662.915,-13.417545126110713,0.0,-3.2725189717546828,0.0
4529763662.9145,-13.420096476360959,0.0,-3.250901131065202,0.0
4529778662.914,-13.407664751639661,0.0,-3.299636558661102,0.0
4529793662.9135,-13.421885325361469,0.0,-3.2181897313111105,0.0
4529808662.913,-13.421282115560482,0.0,-3.275787329214172,0.0
4529823662.9125,-13.411752591571238,0.0,-3.276658321053841,0.0
4529838662.912,-13.413489772078751,0.0,-3.280808691259515,0.0
4529853662.9115,-13.416312910788564,0.0,-3.2833085083988247,0.0
4529868662.911,-13.415215500005084,0.0,-3.247122500384464,0.0
4529883662.9105,-13.428395106930234,0.0,-3.3193782488089094,0.0
4529898662.91,-13.414055850909193,0.0,-3.329544645173784,0.0
4529913662.9095,-13.417850956010762,0.0,-3.2578485860674364,0.0
4529928662.909,-13.409237651990743,0.0,-3.2688195633234245,0.0
4529943662.9085,-13.417302490650219,0.0,-3.2426342068265326,0.0
4529958662.908,-13.421044246177452,0.0,-3.315988518494617,0.0
4529973662.9075,-13.415382030887635,0.0,-3.340354932834892,0.0
4529988662.907,-13.412505605613132,0.0,-3.324939111986036,0.0
4530003662.9065,-13.423106945798875,0.0,-3.2881595838904913,0.0
4530018662.906,-13.413406125050695,0.0,-3.3164805943733326,0.0
4530033662.9055,-13.419545711887652,0.0,-3.31985322268156,0.0
4530048662.905,-13.4180208123723,0.0,-3.299270486975061,0.0
4530063662.9045,-13.41708113879009,0.0,-3.3057466004091394,0.0
4530078662.904,-13.41462045573916,0.0,-3.3355044029998675,0.0
4530093662.9035,-13.413171588113533,0.0,-3.3198984042866666,0.0
4530108662.903,-13.41729996610278,0.0,-3.3336573342430857,0.0
4530123662.9025,-13.409908336402019,0.0,-3.414088057509548,0.0
4530138662.902,-13.409881632442973,0.0,-3.3632590078044884,0.0
4530153662.9015,-13.418859549960011,0.0,-3.338974903385037,0.0
4530168662.901,-13.408206657292334,0.0,-3.251660094729776,0.0
4530183662.9005,-13.414340400735805,0.0,-3.3716852878306622,0.0
4530198662.9,-13.41234817861798,0.0,-3.4368274335873297,0.0
4530213662.8995,-13.405951605079558,0.0,-3.3972335301138386,0.0
4530228662.899,-13.410628476938975,0.0,-3.364467386805518,0.0
4530243662.8985,-13.4079745054371,0.0,-3.4086585186590197,0.0
4530258662.898,-13.41327071846802,0.0,-3.33591659246861,0.0
4530273662.8975,-13.411840410445215,0.0,-3.336469336258564,0.0
4530288662.897,-13.41960956669918,0.0,-3.4186807037153146,0.0
4530303662.8965,-13.423097850261609,0.0,-3.375496434347576,0.0
4530318662.896,-13.410059141199302,0.0,-3.377624902348984,0.0
4530333662.8955,-13.417167455415676,0.0,-3.400532460958398,0.0
4530348662.895,-13.41485163525081,0.0,-3.346795555861352,0.0
4530363662.8945,-13.411838811723008,0.0,-3.4230449817169273,0.0
4530378662.894,-13.412844379947195,0.0,-3.3786777565646102,0.0
4530393662.8935,-13.411767812215656,0.0,-3.437252630634691,0.0
4530408662.893,-13.411441431493001,0.0,-3.384666934298108,0.0
4530423662.8925,-13.414732225429278,0.0,-3.3397929201765364,0.0
4530438662.892,-13.412172082906093,0.0,-3.3922306024227997,0.0
4530453662.8915,-13.417196532939737,0.0,-3.4060187111925155,0.0
4530468662.891,-13.418954800260238,0.0,-3.429626239785554,0.0
4530483662.8905,-13.41077248246593,0.0,-3.3534868516226584,0.0
4530498662.89,-13.421881828008619,0.0,-3.4381142028094422,0.0
4530513662.8895,-13.414751614988297,0.0,-3.3996264348007457,0.0
4530528662.889,-13.416398626565922,0.0,-3.416505508899893,0.0
4530543662.8885,-13.420012623289422,0.0,-3.4250605211655447,0.0
4530558662.888,-13.415277540958378,0.0,-3.445689310024319,0.0
4530573662.8875,-13.422573183505257,0.0,-3.4105987372286477,0.0
4530588662.887,-13.420881862080233,0.0,-3.4679580544928292,0.0
4530603662.8865,-13.416626188852234,0.0,-3.4281839805072845,0.0
4530618662.886,-13.40676089606933,0.0,-3.4371826620422827,0.0
4530633662.8855,-13.414946784214267,0.0,-3.439759156138064,0.0
4530648662.885,-13.415709961132587,0.0,-3.523841603970712,0.0
4530663662.8845,-13.414191907371757,0.0,-3.474342780375374,0.0
4530678662.884,-13.418076551670799,0.0,-3.504297668752055,0.0
4530693662.8835,-13.4202397258723,0.0,-3.433726915967552,0.0
4530708662.883,-13.422383945224443,0.0,-3.477382923314912,0.0
4530723662.8825,-13.42177460670429,0.0,-3.4406795174767226,0.0
4530738662.882,-13.421580744636113,0.0,-3.500960812722586,0.0
4530753662.8815,-13.41874460980742,0.0,-3.4993878462621204,0.0
4530768662.881,-13.428666950134554,0.0,-3.4838304693854782,0.0
4530783662.8805,-13.418687039673502,0.0,-3.469502080657351,0.0
4530798662.88,-13.409260821230127,0.0,-3.471872814707289,0.0
4530813662.8795,-13.418315731194228,0.0,-3.461407528881979,0.0
4530828662.879,-13.427290739907082,0.0,-3.5554078836695315,0.0
4530843662.8785,-13.419422657361489,0.0,-3.511299439863512,0.0
4530858662.878,-13.408249701755947,0.0,-3.5028447860150576,0.0
4530873662.8775,-13.420594063666233,0.0,-3.5732197348958623,0.0
4530888662.877,-13.425935358544942,0.0,-3.577560684148375,0.0
4530903662.8765,-13.424511831625388,0.0,-3.5445560271576455,0.0
4530918662.876,-13.41942776810263,0.0,-3.5463649983764363,0.0
4530933662.8755,-13.419142871265803,0.0,-3.4983967995916743,0.0
4530948662.875,-13.418997672999753,0.0,-3.507523751738142,0.0
4530963662.8745,-13.415212414673608,0.0,-3.5510242279667374,0.0
4530978662.874,-13.417563182668102,0.0,-3.5387799413923227,0.0
4530993662.8735,-13.418533727879973,0.0,-3.4803835379800567,0.0
4531008662.873,-13.417157911984724,0.0,-3.496483929929856,0.0
4531023662.8725,-13.421309819774834,0.0,-3.527872944866751,0.0
4531038662.872,-13.419946591859048,0.0,-3.525955510223419,0.0
4531053662.8715,-13.42334868663325,0.0,-3.558167114092064,0.0
4531068662.871,-13.421175066325555,0.0,-3.521982756445179,0.0
4531083662.8705,-13.418210257660546,0.0,-3.5567282092548043,0.0
4531098662.87,-13.42705188632301,0.0,-3.5580324764762947,0.0
4531113662.8695,-13.417178409094348,0.0,-3.551468464671,0.0
4531128662.869,-13.405605610673328,0.0,-3.50620266485118,0.0
4531143662.8685,-13.418983575634645,0.0,-3.6385838399951314,0.0
4531158662.868,-13.412548186727065,0.0,-3.5643463969442437,0.0
4531173662.8675,-13.417027858118109,0.0,-3.63290382097144,0.0
4531188662.867,-13.416234564853402,0.0,-3.5485941942110166,0.0
4531203662.8665,-13.421505970597886,0.0,-3.6289490476390385,0.0
4531218662.866,-13.419328594657568,0.0,-3.5746968938558163,0.0
4531233662.8655,-13.41843309965329,0.0,-3.5649210267183,0.0
4531248662.865,-13.417221459112232,0.0,-3.5969185532008616,0.0
4531263662.8645,-13.418244322679092,0.0,-3.5917517663202694,0.0
4531278662.864,-13.414744723370504,0.0,-3.574026514437271,0.0
4531293662.8635,-13.41692906666278,0.0,-3.6003239969215968,0.0
4531308662.863,-13.425970688441884,0.0,-3.597319173518699,0.0
4531323662.8625,-13.418070804069085,0.0,-3.6538435817178305,0.0
4531338662.862,-13.4212525865136,0.0,-3.6180833974073905,0.0
4531353662.8615,-13.421418325672272,0.0,-3.6104393855492574,0.0
4531368662.861,-13.422794728309206,0.0,-3.663010270959055,0.0
4531383662.8605,-13.42671203311883,0.0,-3.6458846946757806,0.0
4531398662.86,-13.41427614285979,0.0,-3.6164676855966658,0.0
4531413662.8595,-13.419290682392873,0.0,-3.6404502286662686,0.0
4531428662.859,-13.419561813354555,0.0,-3.6364805052595517,0.0
4531443662.8585,-13.417697963382695,0.0,-3.671770606831827,0.0
4531458662.858,-13.419401089750044,0.0,-3.690381762983358,0.0
4531473662.8575,-13.419014345186058,0.0,-3.685048000176405,0.0
4531488662.857,-13.419388602849448,0.0,-3.721628196778246,0.0
4531503662.8565,-13.420648495151376,0.0,-3.6491558327177147,0.0
4531518662.856,-13.422433175306043,0.0,-3.6621874164956614,0.0
4531533662.8555,-13.418631891205152,0.0,-3.666756732819823,0.0
4531548662.855,-13.415364826944945,0.0,-3.705483972991072,0.0
4531563662.8545,-13.417988954289086,0.0,-3.6839587057885166,0.0
4531578662.854,-13.421772550992062,0.0,-3.7107761613561046,0.0
4531593662.8535,-13.415738249052339,0.0,-3.7067589459725525,0.0
4531608662.853,-13.422018954278341,0.0,-3.6413784319225457,0.0
4531623662.8525,-13.4163062347819,0.0,-3.7202004572458893,0.0
4531638662.852,-13.423022987233644,0.0,-3.7065449275109614,0.0
4531653662.8515,-13.422541139134763,0.0,-3.675476494306909,0.0
4531668662.851,-13.427747961677445,0.0,-3.7215181403123054,0.0
4531683662.8505,-13.418816074190389,0.0,-3.710564988142795,0.0
4531698662.85,-13.423581993631812,0.0,-3.7124729349866827,0.0
4531713662.8495,-13.427359860841811,0.0,-3.6798474386022733,0.0
4531728662.849,-13.42586741483732,0.0,-3.801183028458603,0.0
4531743662.8485,-13.428668243898452,0.0,-3.691555839003358,0.0
4531758662.848,-13.416610376440374,0.0,-3.75022559423456,0.0
4531773662.8475,-13.427845627674508,0.0,-3.7749464277322757,0.0
4531788662.847,-13.418534755816626,0.0,-3.7055136259445396,0.0
4531803662.8465,-13.41702674473355,0.0,-3.7330073642247155,0.0
4531818662.846,-13.416526369726236,0.0,-3.7693792495514034,0.0
4531833662.8455,-13.420199551672207,0.0,-3.8095523922109074,0.0
4531848662.845,-13.42539884854389,0.0,-3.7578788030501036,0.0
4531863662.8445,-13.419532520337846,0.0,-3.7276962218445777,0.0
4531878662.844,-13.432079347625724,0.0,-3.773863931783881,0.0
