Frequency,S11,S11-Q,S11-Phase,S11-Phase-Q
4527198663.0,-13.415379494268926,0.0,-2.3734134718099815,0.0
4527213662.9995,-13.41019989901084,0.0,-2.4120515418836916,0.0
4527228662.999,-13.412152539275588,0.0,-2.4455860101704268,0.0
4527243662.9985,-13.417513941658498,0.0,-2.4149655896371973,0.0
4527258662.998,-13.40595821535723,0.0,-2.385430324245072,0.0
4527273662.9975,-13.414263225959626,0.0,-2.418697888327878,0.0
4527288662.997,-13.418199964546755,0.0,-2.375432236240134,0.0
4527303662.9965,-13.406400793922518,0.0,-2.4049087920579675,0.0
4527318662.996,-13.40655307934717,0.0,-2.442892191326222,0.0
4527333662.9955,-13.41884625883495,0.0,-2.4107050765838243,0.0
4527348662.995,-13.408368050262354,0.0,-2.4440805182566554,0.0
4527363662.9945,-13.412457339401174,0.0,-2.459249162527337,0.0
4527378662.994,-13.412564925359638,0.0,-2.442573807915724,0.0
4527393662.9935,-13.412129123932852,0.0,-2.4332256870217854,0.0
4527408662.993,-13.405190370101055,0.0,-2.472389763823059,0.0
4527423662.9925,-13.408161692961698,0.0,-2.4559339232056936,0.0
4527438662.992,-13.407996331950045,0.0,-2.409974349696486,0.0
4527453662.9915,-13.413747061592094,0.0,-2.425510835508981,0.0
4527468662.991,-13.415969903049827,0.0,-2.4644593599659728,0.0
4527483662.9905,-13.41107600763525,0.0,-2.4572011477999953,0.0
4527498662.99,-13.409429686883048,0.0,-2.5103191044842874,0.0
4527513662.9895,-13.413756835247735,0.0,-2.482117209574581,0.0
4527528662.989,-13.409406132533041,0.0,-2.442297117715868,0.0
4527543662.9885,-13.40170812963741,0.0,-2.4666469980673513,0.0
4527558662.988,-13.410883049826536,0.0,-2.453796243760942,0.0
4527573662.9875,-13.410864265650428,0.0,-2.5181357576018324,0.0
4527588662.987,-13.403417326060737,0.0,-2.527173772704509,0.0
4527603662.9865,-13.409713304725638,0.0,-2.4915357666579725,0.0
4527618662.986,-13.42134652828605,0.0,-2.5182852440013046,0.0
4527633662.9855,-13.401028737569003,0.0,-2.4814616764699147,0.0
4527648662.985,-13.41543691528158,0.0,-2.437880884196579,0.0
4527663662.9845,-13.417717527271941,0.0,-2.4348282328419857,0.0
4527678662.984,-13.405739630197957,0.0,-2.503929562248434,0.0
4527693662.9835,-13.413726076649574,0.0,-2.4727213189568613,0.0
4527708662.983,-13.41375242707619,0.0,-2.436978465769466,0.0
4527723662.9825,-13.412331424974512,0.0,-2.4587514671001323,0.0
4527738662.982,-13.4165776067404,0.0,-2.4798934491235656,0.0
4527753662.9815,-13.415557979862491,0.0,-2.523785829355956,0.0
4527768662.981,-13.403912522623004,0.0,-2.5097475034731502,0.0
4527783662.9805,-13.404132156283108,0.0,-2.538535286354734,0.0
4527798662.98,-13.411064164974025,0.0,-2.5329174882063397,0.0
4527813662.9795,-13.406733410079376,0.0,-2.481409510743863,0.0
4527828662.979,-13.407452196202442,0.0,-2.4885334019352996,0.0
4527843662.9785,-13.41093092170931,0.0,-2.4756707622173053,0.0
4527858662.978,-13.410641583089433,0.0,-2.4979639801241915,0.0
4527873662.9775,-13.408709960691185,0.0,-2.518704835201856,0.0
4527888662.977,-13.411936903231119,0.0,-2.507526644894168,0.0
4527903662.9765,-13.402293970909756,0.0,-2.533521298584965,0.0
4527918662.976,-13.407754447762951,0.0,-2.5434086890957484,0.0
4527933662.9755,-13.40751532415599,0.0,-2.510338549081894,0.0
4527948662.975,-13.400637088014234,0.0,-2.5133382932670933,0.0
4527963662.9745,-13.407219728527966,0.0,-2.5404391076213373,0.0
4527978662.974,-13.411998269839788,0.0,-2.5471089909111804,0.0
4527993662.9735,-13.416347413980013,0.0,-2.5648291341011884,0.0
4528008662.973,-13.417057910198487,0.0,-2.525446256894169,0.0
4528023662.9725,-13.42031641144523,0.0,-2.5001172956516675,0.0
4528038662.972,-13.40345237865522,0.0,-2.5391773964592033,0.0
4528053662.9715,-13.414855464205885,0.0,-2.4984394566919312,0.0
4528068662.971,-13.412559015477827,0.0,-2.6096721464787445,0.0
4528083662.9705,-13.4151673864442,0.0,-2.4714298196355218,0.0
4528098662.97,-13.42084944574217,0.0,-2.600927283600416,0.0
4528113662.9695,-13.407745672130805,0.0,-2.556036143923067,0.0
4528128662.969,-13.414831328945354,0.0,-2.590755958449801,0.0
4528143662.9685,-13.410973715951242,0.0,-2.604953568014516,0.0
4528158662.968,-13.411838366192605,0.0,-2.509900929890688,0.0
4528173662.9675,-13.402725145020577,0.0,-2.60583986797766,0.0
4528188662.967,-13.413927060857189,0.0,-2.546023270081853,0.0
4528203662.9665,-13.41104326108856,0.0,-2.551654208190927,0.0
4528218662.966,-13.41507624961077,0.0,-2.5525552044123563,0.0
4528233662.9655,-13.417056316888885,0.0,-2.563801949646473,0.0
4528248662.965,-13.409880773741873,0.0,-2.547695973272396,0.0
4528263662.9645,-13.414195704180738,0.0,-2.555841120668912,0.0
4528278662.964,-13.404834406991919,0.0,-2.5825460220358796,0.0
4528293662.9635,-13.417670528874616,0.0,-2.55157939749044,0.0
4528308662.963,-13.410259786486264,0.0,-2.550104065477331,0.0
4528323662.9625,-13.418090813729556,0.0,-2.51651708094798,0.0
4528338662.962,-13.412972935950025,0.0,-2.5757343394915564,0.0
4528353662.9615,-13.414754806754486,0.0,-2.572091449975763,0.0
4528368662.961,-13.415406278966737,0.0,-2.6176478201708986,0.0
4528383662.9605,-13.412527998415984,0.0,-2.625368784378279,0.0
4528398662.96,-13.410102372991384,0.0,-2.5818552010051476,0.0
4528413662.9595,-13.404882774785614,0.0,-2.597205817626244,0.0
4528428662.959,-13.405787940155616,0.0,-2.6362499405664805,0.0
4528443662.9585,-13.413496425480622,0.0,-2.6213911590091095,0.0
4528458662.958,-13.419502198457137,0.0,-2.6163358918724797,0.0
4528473662.9575,-13.405217854949939,0.0,-2.6071662639849644,0.0
4528488662.957,-13.419534346154398,0.0,-2.6086892730676117,0.0
4528503662.9565,-13.410688038794165,0.0,-2.522610021220862,0.0
4528518662.956,-13.408751836006035,0.0,-2.675243581748314,0.0
4528533662.9555,-13.40643444576945,0.0,-2.5538929695413737,0.0
4528548662.955,-13.424810688249087,0.0,-2.5815343596126756,0.0
4528563662.9545,-13.405588465294638,0.0,-2.6017213184316916,0.0
4528578662.954,-13.417783977211498,0.0,-2.564529368529091,0.0
4528593662.9535,-13.416439671398697,0.0,-2.6215814759411153,0.0
4528608662.953,-13.411552638992323,0.0,-2.603025884575167,0.0
4528623662.9525,-13.41733166312318,0.0,-2.626423244763107,0.0
4528638662.952,-13.405741732641498,0.0,-2.6691453015512154,0.0
4528653662.9515,-13.40874913967335,0.0,-2.607064331778461,0.0
4528668662.951,-13.41451221176259,0.0,-2.6266509406764245,0.0
4528683662.9505,-13.417837524167233,0.0,-2.6768458023445785,0.0
4528698662.95,-13.410009368723976,0.0,-2.6643871753677235,0.0
4528713662.9495,-13.412951639867357,0.0,-2.598805653062249,0.0
4528728662.949,-13.413864110367847,0.0,-2.6412301597309837,0.0
4528743662.9485,-13.40737823244822,0.0,-2.616437087221088,0.0
4528758662.948,-13.417534365336564,0.0,-2.637325007627419,0.0
4528773662.9475,-13.410720959106786,0.0,-2.635491809866865,0.0
4528788662.947,-13.419031289629643,0.0,-2.6368274446003404,0.0
4528803662.9465,-13.410887613099916,0.0,-2.6370949948232694,0.0
4528818662.946,-13.416171196714892,0.0,-2.6371197250659297,0.0
4528833662.9455,-13.423770011987685,0.0,-2.6809876840488878,0.0
4528848662.945,-13.41727391937355,0.0,-2.654984987386631,0.0
4528863662.9445,-13.419204620258807,0.0,-2.620436286824118,0.0
4528878662.944,-13.413408337860304,0.0,-2.62456177279357,0.0
4528893662.9435,-13.411164411921206,0.0,-2.6350209723088622,0.0
4528908662.943,-13.411790761778473,0.0,-2.680467873368973,0.0
4528923662.9425,-13.407058841836204,0.0,-2.671508285741184,0.0
4528938662.942,-13.418726696003828,0.0,-2.649585928327939,0.0
4528953662.9415,-13.414171707852605,0.0,-2.689918098215977,0.0
4528968662.941,-13.419701439143692,0.0,-2.8089950706035705,0.0
4528983662.9405,-13.407669731338459,0.0,-2.693289953286718,0.0
4528998662.94,-13.412729882214498,0.0,-2.654317390256444,0.0
4529013662.9395,-13.41345575883362,0.0,-2.7051280246309863,0.0
4529028662.939,-13.41704071431592,0.0,-2.67619372042049,0.0
4529043662.9385,-13.415661682184073,0.0,-2.661763528887271,0.0
4529058662.938,-13.41451279951112,0.0,-2.70428720763906,0.0
4529073662.9375,-13.418209746697823,0.0,-2.689372171166113,0.0
4529088662.937,-13.41141077190257,0.0,-2.660044688888671,0.0
4529103662.9365,-13.406121403120085,0.0,-2.670842305312954,0.0
4529118662.936,-13.415555742178082,0.0,-2.7341006972854993,0.0
4529133662.9355,-13.417368814520497,0.0,-2.6706952276342992,0.0
4529148662.935,-13.417875216170065,0.0,-2.7063635528307257,0.0
4529163662.9345,-13.40599444874364,0.0,-2.672970982533156,0.0
4529178662.934,-13.419200714330957,0.0,-2.6650798960222417,0.0
4529193662.9335,-13.412812577060613,0.0,-2.7078982971325614,0.0
4529208662.933,-13.414380510624717,0.0,-2.712384668836514,0.0
4529223662.9325,-13.415041745113284,0.0,-2.75107096816331,0.0
4529238662.932,-13.420290350854508,0.0,-2.7498789943526045,0.0
4529253662.9315,-13.410349296581845,0.0,-2.6502803837009856,0.0
4529268662.931,-13.418577505000314,0.0,-2.7361564770263187,0.0
4529283662.9305,-13.413728108823273,0.0,-2.74170782463313,0.0
4529298662.93,-13.406813573347453,0.0,-2.764505435756898,0.0
4529313662.9295,-13.403382618622038,0.0,-2.767030042451111,0.0
4529328662.929,-13.410715146308403,0.0,-2.7343107543249587,0.0
4529343662.9285,-13.407616634644462,0.0,-2.7099914321923007,0.0
4529358662.928,-13.41225889760345,0.0,-2.7438885305434626,0.0
4529373662.9275,-13.413966460349052,0.0,-2.71773338433892,0.0
4529388662.927,-13.421094933361172,0.0,-2.753799834339079,0.0
4529403662.9265,-13.411169359366715,0.0,-2.704512570621457,0.0
4529418662.926,-13.404421649516578,0.0,-2.748911597045629,0.0
4529433662.9255,-13.412170189887425,0.0,-2.8183772650996186,0.0
4529448662.925,-13.415999358651195,0.0,-2.7772996566241894,0.0
4529463662.9245,-13.409992857224964,0.0,-2.7753337323336496,0.0
4529478662.924,-13.412525722597309,0.0,-2.7341505388167575,0.0
4529493662.9235,-13.418705011746535,0.0,-2.7121861991884235,0.0
4529508662.923,-13.41342895518409,0.0,-2.779421883524772,0.0
4529523662.9225,-13.407699950064469,0.0,-2.7604907669983216,0.0
4529538662.922,-13.406241017682936,0.0,-2.8117704465649993,0.0
4529553662.9215,-13.412897799675312,0.0,-2.7441932970997738,0.0
4529568662.921,-13.415414154851067,0.0,-2.835740180838171,0.0
4529583662.9205,-13.422256770940297,0.0,-2.7850263920890637,0.0
4529598662.92,-13.410733262041292,0.0,-2.765731951146833,0.0
4529613662.9195,-13.41475604918898,0.0,-2.764402573429742,0.0
4529628662.919,-13.412276034834967,0.0,-2.8023552809366388,0.0
4529643662.9185,-13.419186942712752,0.0,-2.7980249274737097,0.0
4529658662.918,-13.417679259800781,0.0,-2.856755049283589,0.0
4529673662.9175,-13.410819774771273,0.0,-2.8653377795863357,0.0
4529688662.917,-13.412605301897099,0.0,-2.8064725847067407,0.0
4529703662.9165,-13.412631128561483,0.0,-2.7802032093701707,0.0
4529718662.916,-13.419232875814508,0.0,-2.842143194022991,0.0
4529733662.9155,-13.411753591287955,0.0,-2.774196430772079,0.0
4529748662.915,-13.406009118853564,0.0,-2.816277972957715,0.0
4529763662.9145,-13.41476459433715,0.0,-2.7977435655861496,0.0
4529778662.914,-13.425940545707157,0.0,-2.8528258298391425,0.0
4529793662.9135,-13.410908657567592,0.0,-2.8585774274739584,0.0
4529808662.913,-13.416149983647951,0.0,-2.875161787077916,0.0
4529823662.9125,-13.420243539074946,0.0,-2.886725402994416,0.0
4529838662.912,-13.41223725331323,0.0,-2.892699665455413,0.0
4529853662.9115,-13.419862587277683,0.0,-2.8227676080249466,0.0
4529868662.911,-13.41174067137439,0.0,-2.8425803410683677,0.0
4529883662.9105,-13.419955824752659,0.0,-2.838280448622872,0.0
4529898662.91,-13.415873486075927,0.0,-2.804251938536577,0.0
4529913662.9095,-13.42076469770493,0.0,-2.7805346837006946,0.0
4529928662.909,-13.416303966250293,0.0,-2.833664553416215,0.0
4529943662.9085,-13.413710105757822,0.0,-2.843613769942111,0.0
4529958662.908,-13.41167897305142,0.0,-2.844160004850516,0.0
4529973662.9075,-13.417607883804452,0.0,-2.9221379226090867,0.0
4529988662.907,-13.417326730815855,0.0,-2.8692488283187023,0.0
4530003662.9065,-13.421916805670048,0.0,-2.9055888747266736,0.0
4530018662.906,-13.42149046825435,0.0,-2.9490709323154363,0.0
4530033662.9055,-13.41735874889044,0.0,-2.896441721171114,0.0
4530048662.905,-13.41802633066192,0.0,-2.9497953850167393,0.0
4530063662.9045,-13.423556117244008,0.0,-2.888250835754039,0.0
4530078662.904,-13.416422608269167,0.0,-2.885845280591521,0.0
4530093662.9035,-13.41820127794685,0.0,-2.8599439317110837,0.0
4530108662.903,-13.427002849074071,0.0,-2.8673700168897507,0.0
4530123662.9025,-13.410043921825869,0.0,-2.9183168846429655,0.0
4530138662.902,-13.407104738129558,0.0,-2.8585761071193847,0.0
4530153662.9015,-13.414763620761462,0.0,-2.877998123997433,0.0
4530168662.901,-13.420061626965277,0.0,-2.8763858159955125,0.0
4530183662.9005,-13.416281583086406,0.0,-2.8441246218726564,0.0
4530198662.9,-13.419613570293627,0.0,-2.9382231322400814,0.0
4530213662.8995,-13.418975835838868,0.0,-2.8972530174142017,0.0
4530228662.899,-13.417187266533686,0.0,-2.956609243985494,0.0
4530243662.8985,-13.412235594635353,0.0,-2.9115361750089157,0.0
4530258662.898,-13.41097850002922,0.0,-2.9102140508770242,0.0
4530273662.8975,-13.427218471056253,0.0,-2.90510287800429,0.0
4530288662.897,-13.41705316601756,0.0,-2.9384710798198146,0.0
4530303662.8965,-13.415583395908978,0.0,-2.9580075695904027,0.0
4530318662.896,-13.421566641731477,0.0,-2.9884227020362437,0.0
4530333662.8955,-13.416701116407925,0.0,-2.938796995084929,0.0
4530348662.895,-13.430981351769365,0.0,-2.9030616994318907,0.0
4530363662.8945,-13.409589320996812,0.0,-2.9503191779180873,0.0
4530378662.894,-13.41651397873921,0.0,-2.9605704010362786,0.0
4530393662.8935,-13.420505400449311,0.0,-2.913298160800518,0.0
4530408662.893,-13.413387099069784,0.0,-2.966405826642336,0.0
4530423662.8925,-13.413369713255733,0.0,-2.9431316380277535,0.0
4530438662.892,-13.412733769930057,0.0,-2.966918616510572,0.0
4530453662.8915,-13.421356576530316,0.0,-2.876320637605003,0.0
4530468662.891,-13.41291806507462,0.0,-2.9640480442466903,0.0
4530483662.8905,-13.425175378894652,0.0,-3.0093490373564706,0.0
4530498662.89,-13.41702249116137,0.0,-2.9406690445336117,0.0
4530513662.8895,-13.412787230522632,0.0,-3.0260280589064963,0.0
4530528662.889,-13.41755599280801,0.0,-2.96802513324694,0.0
4530543662.8885,-13.414881610412635,0.0,-2.9881252204341506,0.0
4530558662.888,-13.416577159297159,0.0,-2.993715417392934,0.0
4530573662.8875,-13.422310321957344,0.0,-2.9946258943412287,0.0
4530588662.887,-13.41767707495556,0.0,-3.0148868317655535,0.0
4530603662.8865,-13.418829698575863,0.0,-3.059482182485556,0.0
4530618662.886,-13.422579280599523,0.0,-2.96108821610086,0.0
4530633662.8855,-13.413031793606285,0.0,-3.0012479098741136,0.0
4530648662.885,-13.4185848608921,0.0,-2.971350756379363,0.0
4530663662.8845,-13.418737037948272,0.0,-2.976875560957912,0.0
4530678662.884,-13.418273441302137,0.0,-3.034551128723528,0.0
4530693662.8835,-13.43008292458945,0.0,-3.0104045031794024,0.0
4530708662.883,-13.435868117931486,0.0,-3.038446915986419,0.0
4530723662.8825,-13.417018478799596,0.0,-2.9986398624488166,0.0
4530738662.882,-13.41143265721924,0.0,-3.0073811455699233,0.0
4530753662.8815,-13.410620791901382,0.0,-3.1100731834155027,0.0
4530768662.881,-13.419043595144428,0.0,-3.0462767758447025,0.0
4530783662.8805,-13.42255383584903,0.0,-2.9998158185784294,0.0
4530798662.88,-13.42469551380275,0.0,-3.1262038061343826,0.0
4530813662.8795,-13.41644748213195,0.0,-3.0574827326816676,0.0
4530828662.879,-13.421611360096115,0.0,-3.113819126044159,0.0
4530843662.8785,-13.417949459166746,0.0,-3.008102674924874,0.0
4530858662.878,-13.42352130801958,0.0,-3.0810694245350474,0.0
4530873662.8775,-13.417611835598013,0.0,-3.04545910594047,0.0
4530888662.877,-13.419853891812185,0.0,-3.061650235120846,0.0
4530903662.8765,-13.41122183588041,0.0,-3.0583530598937925,0.0
4530918662.876,-13.425981848323136,0.0,-3.044868736603203,0.0
4530933662.8755,-13.417293997926475,0.0,-3.0332927795371254,0.0
4530948662.875,-13.42687660821635,0.0,-3.0061440423472927,0.0
4530963662.8745,-13.430328503987742,0.0,-3.038733272759832,0.0
4530978662.874,-13.416198791065954,0.0,-3.075862743620598,0.0
4530993662.8735,-13.420006155687236,0.0,-3.06145648964736,0.0
4531008662.873,-13.418638829205031,0.0,-3.1279106796560754,0.0
4531023662.8725,-13.418451937052449,0.0,-3.070161301254642,0.0
4531038662.872,-13.419399581206466,0.0,-3.067199524132709,0.0
4531053662.8715,-13.423887986828513,0.0,-3.03698949316235,0.0
4531068662.871,-13.419533206426735,0.0,-3.0532459500032543,0.0
4531083662.8705,-13.425568334944252,0.0,-3.081395894415122,0.0
4531098662.87,-13.423936744590979,0.0,-3.0658044347314406,0.0
4531113662.8695,-13.421679914266257,0.0,-3.083746377120217,0.0
4531128662.869,-13.421724318378075,0.0,-3.0954450675985448,0.0
4531143662.8685,-13.421678606378915,0.0,-3.144876447644152,0.0
4531158662.868,-13.417828441471428,0.0,-3.184678364579536,0.0
4531173662.8675,-13.41966719994119,0.0,-3.150843173802501,0.0
4531188662.867,-13.429733320153524,0.0,-3.105501554948424,0.0
4531203662.8665,-13.421919769873798,0.0,-3.042492325615827,0.0
4531218662.866,-13.42531568315766,0.0,-3.1372555285181356,0.0
4531233662.8655,-13.425602677941091,0.0,-3.12975132092725,0.0
4531248662.865,-13.42433856789655,0.0,-3.177731010034815,0.0
4531263662.8645,-13.426953292278958,0.0,-3.0982478641658533,0.0
4531278662.864,-13.425937046104961,0.0,-3.102572186168324,0.0
4531293662.8635,-13.419508551677847,0.0,-3.093194596151466,0.0
4531308662.863,-13.421245819515462,0.0,-3.165195204782347,0.0
4531323662.8625,-13.421889675003516,0.0,-3.138423979478419,0.0
4531338662.862,-13.421918017214354,0.0,-3.120000123105945,0.0
4531353662.8615,-13.425341671308132,0.0,-3.115740201683095,0.0
4531368662.861,-13.4250652303779,0.0,-3.1855916117391976,0.0
4531383662.8605,-13.4167180412894,0.0,-3.1385034927427964,0.0
4531398662.86,-13.425215422667467,0.0,-3.198653712388876,0.0
4531413662.8595,-13.424466760821659,0.0,-3.208391177599571,0.0
4531428662.859,-13.421979531141652,0.0,-3.209842361799129,0.0
4531443662.8585,-13.42683678885198,0.0,-3.1574585212983273,0.0
4531458662.858,-13.43242897634341,0.0,-3.2014065920645485,0.0
4531473662.8575,-13.426638685636616,0.0,-3.204035070659017,0.0
4531488662.857,-13.416579745764878,0.0,-3.228539991876325,0.0
4531503662.8565,-13.42609648496424,0.0,-3.219967271482495,0.0
4531518662.856,-13.427515154301899,0.0,-3.186715742942642,0.0
4531533662.8555,-13.419355591386084,0.0,-3.181165103145444,0.0
4531548662.855,-13.416970884851603,0.0,-3.1610972199788594,0.0
4531563662.8545,-13.420894439301755,0.0,-3.2712997823323104,0.0
4531578662.854,-13.420788040077456,0.0,-3.196092437097638,0.0
4531593662.8535,-13.417632131843838,0.0,-3.2428862367050804,0.0
4531608662.853,-13.426842216380592,0.0,-3.1949948441438214,0.0
4531623662.8525,-13.418430885169405,0.0,-3.234916418659623,0.0
4531638662.852,-13.42985649344133,0.0,-3.171864058973271,0.0
4531653662.8515,-13.425428799877224,0.0,-3.2832622928095523,0.0
4531668662.851,-13.432622421818168,0.0,-3.29774747632849,0.0
4531683662.8505,-13.419919853521545,0.0,-3.2155710291941437,0.0
4531698662.85,-13.435575478900256,0.0,-3.2767288907555785,0.0
4531713662.8495,-13.428490029922774,0.0,-3.214161399336843,0.0
4531728662.849,-13.427779286599941,0.0,-3.2393908409591226,0.0
4531743662.8485,-13.43115103389287,0.0,-3.2182676478353103,0.0
4531758662.848,-13.427801544305487,0.0,-3.2761063246123507,0.0
4531773662.8475,-13.427581253381977,0.0,-3.2810823237223063,0.0
4531788662.847,-13.422779500954755,0.0,-3.2340204635577834,0.0
4531803662.8465,-13.424280965100827,0.0,-3.311664806932287,0.0
4531818662.846,-13.420762150827901,0.0,-3.2920407886043734,0.0
4531833662.8455,-13.417569443324737,0.0,-3.2597747427788146,0.0
4531848662.845,-13.42918483998507,0.0,-3.2602100898566717,0.0
4531863662.8445,-13.423040689737359,0.0,-3.2674405932571147,0.0
4531878662.844,-13.421213366509248,0.0,-3.2965688363830767,0.0
