Frequency,S11,S11-Q,S11-Phase,S11-Phase-Q
4527198663.0,-13.566276240244324,0.0,-2.8337952370655732,0.0
4527213662.9995,-13.563036165947244,0.0,-2.900273217178737,0.0
4527228662.999,-13.562411366549345,0.0,-2.8918937601515746,0.0
4527243662.9985,-13.561143655702592,0.0,-2.901875485111169,0.0
4527258662.998,-13.565236835713081,0.0,-2.8689566930433568,0.0
4527273662.9975,-13.564588113237958,0.0,-2.9463919539965873,0.0
4527288662.997,-13.56107094284628,0.0,-2.890741875460591,0.0
4527303662.9965,-13.551548861230543,0.0,-2.8909180726311834,0.0
4527318662.996,-13.571871212795894,0.0,-2.809309871413228,0.0
4527333662.9955,-13.566831809499671,0.0,-2.906769091617731,0.0
4527348662.995,-13.566750316462638,0.0,-2.9043221994189867,0.0
4527363662.9945,-13.562051607785259,0.0,-2.8846441763418484,0.0
4527378662.994,-13.57086486698689,0.0,-2.8341032859119806,0.0
4527393662.9935,-13.567768962235006,0.0,-2.9185597387234377,0.0
4527408662.993,-13.574017226522708,0.0,-2.891594275998632,0.0
4527423662.9925,-13.573740289203151,0.0,-2.8802149714209437,0.0
4527438662.992,-13.578627393940291,0.0,-2.8381136193356795,0.0
4527453662.9915,-13.578749734591932,0.0,-2.898648919789055,0.0
4527468662.991,-13.574166943729995,0.0,-2.908801510200889,0.0
4527483662.9905,-13.574816146375785,0.0,-2.8938673024022745,0.0
4527498662.99,-13.574058078838544,0.0,-2.8402303600958283,0.0
4527513662.9895,-13.57686705799004,0.0,-2.8979944944934486,0.0
4527528662.989,-13.581787462254947,0.0,-2.860917645078436,0.0
4527543662.9885,-13.572329561837774,0.0,-2.91459991266268,0.0
4527558662.988,-13.57253810623504,0.0,-2.842085642397453,0.0
4527573662.9875,-13.582019708999269,0.0,-2.9343806944002333,0.0
4527588662.987,-13.593163146197815,0.0,-2.9361782907218994,0.0
4527603662.9865,-13.585955319068733,0.0,-2.876067306085783,0.0
4527618662.986,-13.58115887465962,0.0,-2.908102274160036,0.0
4527633662.9855,-13.574441015737357,0.0,-2.877718889142672,0.0
4527648662.985,-13.568528981984917,0.0,-2.878559188085394,0.0
4527663662.9845,-13.588251103874995,0.0,-2.936425239565608,0.0
4527678662.984,-13.584114700855011,0.0,-2.874058042243155,0.0
4527693662.9835,-13.579093846453826,0.0,-2.837205213649514,0.0
4527708662.983,-13.576124925789719,0.0,-2.892542964684155,0.0
4527723662.9825,-13.589266432832252,0.0,-2.8476346449044683,0.0
4527738662.982,-13.58836816282132,0.0,-2.8497909544629856,0.0
4527753662.9815,-13.587292503885012,0.0,-2.909157192090309,0.0
4527768662.981,-13.587696779516442,0.0,-2.8459133987773346,0.0
4527783662.9805,-13.58448811807375,0.0,-2.905312932029848,0.0
4527798662.98,-13.587223207159553,0.0,-2.8689950839552214,0.0
4527813662.9795,-13.592498760835543,0.0,-2.8951640713684044,0.0
4527828662.979,-13.599133481369163,0.0,-2.849019837675865,0.0
4527843662.9785,-13.594214485904569,0.0,-2.897203056204225,0.0
4527858662.978,-13.587170917192804,0.0,-2.908765318063866,0.0
4527873662.9775,-13.590577828746213,0.0,-2.8652695721104853,0.0
4527888662.977,-13.591867128305136,0.0,-2.8465346921050103,0.0
4527903662.9765,-13.603310835322693,0.0,-2.8675732620430856,0.0
4527918662.976,-13.586326395334913,0.0,-2.848899579804525,0.0
4527933662.9755,-13.596439894736951,0.0,-2.8569590656510204,0.0
4527948662.975,-13.598427868317023,0.0,-2.835603890470628,0.0
4527963662.9745,-13.58690008729248,0.0,-2.7832171554496425,0.0
4527978662.974,-13.595873919470469,0.0,-2.8219239868579606,0.0
4527993662.9735,-13.599014247667412,0.0,-2.8538739119028804,0.0
4528008662.973,-13.609870031261194,0.0,-2.843467576263382,0.0
4528023662.9725,-13.592731476587936,0.0,-2.8170549488991483,0.0
4528038662.972,-13.609589985246535,0.0,-2.8200008436226827,0.0
4528053662.9715,-13.594770277472355,0.0,-2.8874376827293418,0.0
4528068662.971,-13.610210032549714,0.0,-2.8192232512962385,0.0
4528083662.9705,-13.599779031840907,0.0,-2.8227286578641726,0.0
4528098662.97,-13.607967138984808,0.0,-2.814371847706543,0.0
4528113662.9695,-13.602909707102334,0.0,-2.79680572531212,0.0
4528128662.969,-13.618717518443347,0.0,-2.803082383479666,0.0
4528143662.9685,-13.603079955462228,0.0,-2.872985845296404,0.0
4528158662.968,-13.612140058792985,0.0,-2.8614922999723853,0.0
4528173662.9675,-13.60575915492306,0.0,-2.86428406359276,0.0
4528188662.967,-13.599255205780945,0.0,-2.796464183030546,0.0
4528203662.9665,-13.608689789521137,0.0,-2.874686137367971,0.0
4528218662.966,-13.618907038243162,0.0,-2.828446033474865,0.0
4528233662.9655,-13.612070486874472,0.0,-2.7814428082173768,0.0
4528248662.965,-13.614569603759483,0.0,-2.8182009307493874,0.0
4528263662.9645,-13.612542412054172,0.0,-2.840271403866383,0.0
4528278662.964,-13.610522292460027,0.0,-2.876894690594134,0.0
4528293662.9635,-13.609787125268936,0.0,-2.848567341238582,0.0
4528308662.963,-13.611628125490574,0.0,-2.792696801072889,0.0
4528323662.9625,-13.606796230471478,0.0,-2.8183682271586448,0.0
4528338662.962,-13.624213865564958,0.0,-2.781675998000405,0.0
4528353662.9615,-13.624219064888532,0.0,-2.8281564460605466,0.0
4528368662.961,-13.615863306507181,0.0,-2.760690255412677,0.0
4528383662.9605,-13.609640440589242,0.0,-2.8621788187930637,0.0
4528398662.96,-13.615065857915951,0.0,-2.7582659816412525,0.0
4528413662.9595,-13.618909965098087,0.0,-2.76878188458054,0.0
4528428662.959,-13.623738997379649,0.0,-2.786962140538576,0.0
4528443662.9585,-13.608315183645978,0.0,-2.728305569308088,0.0
4528458662.958,-13.617381225546726,0.0,-2.7507591070540616,0.0
4528473662.9575,-13.627601731424136,0.0,-2.7238942672902056,0.0
4528488662.957,-13.620516440337731,0.0,-2.786286556511251,0.0
4528503662.9565,-13.612601860698213,0.0,-2.7653268823671593,0.0
4528518662.956,-13.620075496335232,0.0,-2.8012894634397454,0.0
4528533662.9555,-13.61619119928843,0.0,-2.7202421963686367,0.0
4528548662.955,-13.620814644608725,0.0,-2.776100452491023,0.0
4528563662.9545,-13.619661052739435,0.0,-2.7612575689644254,0.0
4528578662.954,-13.617044414720754,0.0,-2.700389631033789,0.0
4528593662.9535,-13.636775510070171,0.0,-2.722587112830475,0.0
4528608662.953,-13.612413048078444,0.0,-2.792298626483069,0.0
4528623662.9525,-13.629556543530413,0.0,-2.7142059435684067,0.0
4528638662.952,-13.62868932239376,0.0,-2.7169248723569708,0.0
4528653662.9515,-13.625154820835494,0.0,-2.706550819978839,0.0
4528668662.951,-13.625946716169349,0.0,-2.7451268301038905,0.0
4528683662.9505,-13.628469630867725,0.0,-2.750671712213513,0.0
4528698662.95,-13.626937960733175,0.0,-2.7537572631211367,0.0
4528713662.9495,-13.635974281323948,0.0,-2.7320451196885287,0.0
4528728662.949,-13.628700816280555,0.0,-2.779645402997446,0.0
4528743662.9485,-13.629423656984196,0.0,-2.728756156586026,0.0
4528758662.948,-13.633910948545719,0.0,-2.667760277408255,0.0
4528773662.9475,-13.622915713015285,0.0,-2.6926615576666326,0.0
4528788662.947,-13.619774162028882,0.0,-2.7003909543647975,0.0
4528803662.9465,-13.62873016211897,0.0,-2.7325916984798093,0.0
4528818662.946,-13.627488607489697,0.0,-2.6921124066038273,0.0
4528833662.9455,-13.621389625754157,0.0,-2.6714330649776907,0.0
4528848662.945,-13.636131715062387,0.0,-2.6585343264333896,0.0
4528863662.9445,-13.62630172628143,0.0,-2.6159633208939357,0.0
4528878662.944,-13.640674987599136,0.0,-2.726800476140237,0.0
4528893662.9435,-13.630125827692854,0.0,-2.633768904167826,0.0
4528908662.943,-13.623878036345536,0.0,-2.6519094257218336,0.0
4528923662.9425,-13.629791165757377,0.0,-2.6455844663061447,0.0
4528938662.942,-13.635537179054369,0.0,-2.6174099426260957,0.0
4528953662.9415,-13.637812568581019,0.0,-2.6563074312221984,0.0
4528968662.941,-13.628670435709477,0.0,-2.6164182874549153,0.0
4528983662.9405,-13.636182066911315,0.0,-2.6779275849832325,0.0
4528998662.94,-13.644438016884543,0.0,-2.6459274160985724,0.0
4529013662.9395,-13.631749009533165,0.0,-2.6169564063642587,0.0
4529028662.939,-13.632294883751658,0.0,-2.6234137248548417,0.0
4529043662.9385,-13.63560083076977,0.0,-2.6191296471078505,0.0
4529058662.938,-13.641021629688446,0.0,-2.636809584060426,0.0
4529073662.9375,-13.63809366938374,0.0,-2.69841865115019,0.0
4529088662.937,-13.636428956321803,0.0,-2.580112235886316,0.0
4529103662.9365,-13.62926461752739,0.0,-2.5883274290266898,0.0
4529118662.936,-13.635645323279757,0.0,-2.610547388924638,0.0
4529133662.9355,-13.63791593172621,0.0,-2.600274299495405,0.0
4529148662.935,-13.644844706235219,0.0,-2.5579067205897448,0.0
4529163662.9345,-13.639652914600667,0.0,-2.5982669559372056,0.0
4529178662.934,-13.645722083852263,0.0,-2.613397336847257,0.0
4529193662.9335,-13.635044545039554,0.0,-2.5778370192531264,0.0
4529208662.933,-13.631630349656135,0.0,-2.615673133666716,0.0
4529223662.9325,-13.631881661088785,0.0,-2.5634723288307866,0.0
4529238662.932,-13.642922767214792,0.0,-2.619240931545746,0.0
4529253662.9315,-13.63499694085018,0.0,-2.6246598665242264,0.0
4529268662.931,-13.639532578786993,0.0,-2.559696310268693,0.0
4529283662.9305,-13.63290954979924,0.0,-2.540414402608738,0.0
4529298662.93,-13.633927290108314,0.0,-2.585159534412525,0.0
4529313662.9295,-13.636818370180848,0.0,-2.5456577355788395,0.0
4529328662.929,-13.63527142810661,0.0,-2.5067143793528355,0.0
4529343662.9285,-13.645977632679614,0.0,-2.5608784481674087,0.0
4529358662.928,-13.647186383876145,0.0,-2.5377118127713096,0.0
4529373662.9275,-13.634769224122625,0.0,-2.6041903190296862,0.0
4529388662.927,-13.649922612183207,0.0,-2.4670011809877037,0.0
4529403662.9265,-13.643701370653307,0.0,-2.5564462180738823,0.0
4529418662.926,-13.642620437737087,0.0,-2.595900980176797,0.0
4529433662.9255,-13.63529278773074,0.0,-2.576075218920067,0.0
4529448662.925,-13.643355490138509,0.0,-2.5479711376583136,0.0
4529463662.9245,-13.636425872268934,0.0,-2.506802133366739,0.0
4529478662.924,-13.641905351210312,0.0,-2.578269201269539,0.0
4529493662.9235,-13.638237344926223,0.0,-2.5572568629098322,0.0
4529508662.923,-13.643110570862465,0.0,-2.502107142207848,0.0
4529523662.9225,-13.641358758892814,0.0,-2.498166562001631,0.0
4529538662.922,-13.641044076981473,0.0,-2.501501877262069,0.0
4529553662.9215,-13.6410932712504,0.0,-2.5301223774758106,0.0
4529568662.921,-13.639870563030247,0.0,-2.5368495639010704,0.0
4529583662.9205,-13.643400747038344,0.0,-2.516607377378274,0.0
4529598662.92,-13.640742866985265,0.0,-2.5063686277489676,0.0
4529613662.9195,-13.651067852111378,0.0,-2.4508056779274034,0.0
4529628662.919,-13.638059211547473,0.0,-2.5124987238851677,0.0
4529643662.9185,-13.652485909977194,0.0,-2.446214077058102,0.0
4529658662.918,-13.637523855097417,0.0,-2.4641413832685317,0.0
4529673662.9175,-13.643729430166871,0.0,-2.405205687316634,0.0
4529688662.917,-13.645077694822803,0.0,-2.492852699052156,0.0
4529703662.9165,-13.643845627019026,0.0,-2.521939515723824,0.0
4529718662.916,-13.646932673271483,0.0,-2.4750316382886317,0.0
4529733662.9155,-13.644017423938703,0.0,-2.452077034370467,0.0
4529748662.915,-13.643427605604707,0.0,-2.446264625575623,0.0
4529763662.9145,-13.644841975087745,0.0,-2.4435609008162165,0.0
4529778662.914,-13.642899203659377,0.0,-2.435177442074462,0.0
4529793662.9135,-13.635766972797,0.0,-2.4755194562471043,0.0
4529808662.913,-13.641941499766109,0.0,-2.4576478781677067,0.0
4529823662.9125,-13.64335918321261,0.0,-2.4616082970961712,0.0
4529838662.912,-13.634832715952927,0.0,-2.4850309816280967,0.0
4529853662.9115,-13.641819343416689,0.0,-2.416346926461477,0.0
4529868662.911,-13.637696266780406,0.0,-2.445081819529991,0.0
4529883662.9105,-13.641931115104686,0.0,-2.4721934110371877,0.0
4529898662.91,-13.646638306673115,0.0,-2.3953908402667956,0.0
4529913662.9095,-13.642148567118277,0.0,-2.4129978442378808,0.0
4529928662.909,-13.642400838281901,0.0,-2.412704949003042,0.0
4529943662.9085,-13.645164986068872,0.0,-2.4317505932065924,0.0
4529958662.908,-13.636582308220778,0.0,-2.4073316697123,0.0
4529973662.9075,-13.638475500569335,0.0,-2.4058438537670392,0.0
4529988662.907,-13.647284191591407,0.0,-2.4640162042951346,0.0
4530003662.9065,-13.651425122685803,0.0,-2.4022360903818956,0.0
4530018662.906,-13.632481586958454,0.0,-2.389945794043001,0.0
4530033662.9055,-13.634917427265378,0.0,-2.4194997498426942,0.0
4530048662.905,-13.642132990583313,0.0,-2.3938376788033358,0.0
4530063662.9045,-13.647311985581403,0.0,-2.3579594853332404,0.0
4530078662.904,-13.649290998978573,0.0,-2.431618756627539,0.0
4530093662.9035,-13.637186594717187,0.0,-2.3640561691661923,0.0
4530108662.903,-13.640881757345362,0.0,-2.4317618162696872,0.0
4530123662.9025,-13.6368572490768,0.0,-2.3929497259738555,0.0
4530138662.902,-13.638033675820187,0.0,-2.3711843103577803,0.0
4530153662.9015,-13.637909195154705,0.0,-2.3804160482940633,0.0
4530168662.901,-13.642739413789073,0.0,-2.3360619359899877,0.0
4530183662.9005,-13.641679637428979,0.0,-2.4369186017102242,0.0
4530198662.9,-13.638015122900871,0.0,-2.3891599415413736,0.0
4530213662.8995,-13.638071420030318,0.0,-2.29846297547744,0.0
4530228662.899,-13.63159354948616,0.0,-2.3820131926935555,0.0
4530243662.8985,-13.640612412961296,0.0,-2.3667269208893003,0.0
4530258662.898,-13.640300048186162,0.0,-2.3643478966122538,0.0
4530273662.8975,-13.644900483694016,0.0,-2.3360437152170817,0.0
4530288662.897,-13.63562549450174,0.0,-2.4038966911898436,0.0
4530303662.8965,-13.639466298075591,0.0,-2.3282205256438426,0.0
4530318662.896,-13.638089928769212,0.0,-2.403569872444127,0.0
4530333662.8955,-13.646342834506779,0.0,-2.365882937144216,0.0
4530348662.895,-13.636908392969126,0.0,-2.3698816681373733,0.0
4530363662.8945,-13.64049746736388,0.0,-2.3127147669860233,0.0
4530378662.894,-13.643274398571615,0.0,-2.302175921000792,0.0
4530393662.8935,-13.635934110734498,0.0,-2.3802828568094814,0.0
4530408662.893,-13.633386325729106,0.0,-2.3729960525710925,0.0
4530423662.8925,-13.629408791545416,0.0,-2.365440678766643,0.0
4530438662.892,-13.6410387998972,0.0,-2.343206866501301,0.0
4530453662.8915,-13.646808692707689,0.0,-2.3665317565555304,0.0
4530468662.891,-13.636402210894158,0.0,-2.371383846115167,0.0
4530483662.8905,-13.624903284609218,0.0,-2.306738447218913,0.0
4530498662.89,-13.645101059017266,0.0,-2.3479960779247406,0.0
4530513662.8895,-13.639242908340304,0.0,-2.3288482994398603,0.0
4530528662.889,-13.636001305207648,0.0,-2.4122101052995166,0.0
4530543662.8885,-13.641920033282219,0.0,-2.3508391758035585,0.0
4530558662.888,-13.634011127731052,0.0,-2.3897268923016046,0.0
4530573662.8875,-13.637412003929423,0.0,-2.2957989758659947,0.0
4530588662.887,-13.634291922248789,0.0,-2.339543987498435,0.0
4530603662.8865,-13.634818237334505,0.0,-2.298199501489232,0.0
4530618662.886,-13.629132346351385,0.0,-2.3488138285713953,0.0
4530633662.8855,-13.630812945258876,0.0,-2.292685495850737,0.0
4530648662.885,-13.631833459375075,0.0,-2.3285221704720134,0.0
4530663662.8845,-13.633455628532701,0.0,-2.320553986637905,0.0
4530678662.884,-13.638625913265287,0.0,-2.38017911285276,0.0
4530693662.8835,-13.631353675914202,0.0,-2.2890126158697433,0.0
4530708662.883,-13.63734120050609,0.0,-2.3124127782595796,0.0
4530723662.8825,-13.64921579627168,0.0,-2.2862716830726124,0.0
4530738662.882,-13.638852362566148,0.0,-2.3661458152335584,0.0
4530753662.8815,-13.630788926192812,0.0,-2.3898114207285044,0.0
4530768662.881,-13.636505121241084,0.0,-2.298923270047429,0.0
4530783662.8805,-13.63333598844601,0.0,-2.3348508306817326,0.0
4530798662.88,-13.634561258733084,0.0,-2.266679500249806,0.0
4530813662.8795,-13.639469823042544,0.0,-2.2623087569873754,0.0
4530828662.879,-13.63260890446531,0.0,-2.263785929756276,0.0
4530843662.8785,-13.636171295659384,0.0,-2.2279336102678533,0.0
4530858662.878,-13.629587957532344,0.0,-2.26616450192023,0.0
4530873662.8775,-13.630076926424756,0.0,-2.230268158213848,0.0
4530888662.877,-13.627382553087063,0.0,-2.3424421278937104,0.0
4530903662.8765,-13.641968561544447,0.0,-2.3326127836234365,0.0
4530918662.876,-13.62608132710735,0.0,-2.2768343932382855,0.0
4530933662.8755,-13.634505415394493,0.0,-2.2799245351239303,0.0
4530948662.875,-13.625048811073505,0.0,-2.19613117936342,0.0
4530963662.8745,-13.630974406688907,0.0,-2.2901826361432227,0.0
4530978662.874,-13.620621573800484,0.0,-2.275717809986463,0.0
4530993662.8735,-13.631020394899746,0.0,-2.285144149550179,0.0
4531008662.873,-13.626412470001185,0.0,-2.364220193620763,0.0
4531023662.8725,-13.62863446007664,0.0,-2.2631555308094415,0.0
4531038662.872,-13.629901109020903,0.0,-2.283671073701503,0.0
4531053662.8715,-13.62611248950875,0.0,-2.2731873506210416,0.0
4531068662.871,-13.620984149904665,0.0,-2.272286655474762,0.0
4531083662.8705,-13.63300314679747,0.0,-2.2326002941080767,0.0
4531098662.87,-13.61919463901934,0.0,-2.2670888967472136,0.0
4531113662.8695,-13.61890620643323,0.0,-2.3110797242747574,0.0
4531128662.869,-13.62816914250091,0.0,-2.2717240920702504,0.0
4531143662.8685,-13.622673589747274,0.0,-2.201575763394927,0.0
4531158662.868,-13.620735379555649,0.0,-2.248216680634052,0.0
4531173662.8675,-13.62921017618348,0.0,-2.299233022843232,0.0
4531188662.867,-13.621573357962431,0.0,-2.295767195324549,0.0
4531203662.8665,-13.62017374908,0.0,-2.279890248620035,0.0
4531218662.866,-13.620764826028026,0.0,-2.2377342235885496,0.0
4531233662.8655,-13.618379889253,0.0,-2.2014394139266193,0.0
4531248662.865,-13.61897491692418,0.0,-2.3065774048491248,0.0
4531263662.8645,-13.629950838898834,0.0,-2.292485636997328,0.0
4531278662.864,-13.62823176388769,0.0,-2.2701017827782772,0.0
4531293662.8635,-13.623908089959453,0.0,-2.298566317673366,0.0
4531308662.863,-13.62359172392489,0.0,-2.3043628556592592,0.0
4531323662.8625,-13.617625821697173,0.0,-2.300593448578639,0.0
4531338662.862,-13.636056930089502,0.0,-2.2819196953180616,0.0
4531353662.8615,-13.632056487548216,0.0,-2.241362962626222,0.0
4531368662.861,-13.622533082330541,0.0,-2.263585092851116,0.0
4531383662.8605,-13.624676858476823,0.0,-2.331625424467859,0.0
4531398662.86,-13.625228832462593,0.0,-2.29677190196978,0.0
4531413662.8595,-13.621216896200888,0.0,-2.2528952891897345,0.0
4531428662.859,-13.620143515336348,0.0,-2.266190990928552,0.0
4531443662.8585,-13.621465761325764,0.0,-2.250083764926181,0.0
4531458662.858,-13.622638441641326,0.0,-2.2738124032127716,0.0
4531473662.8575,-13.625650384993907,0.0,-2.272203291705818,0.0
4531488662.857,-13.62023013349125,0.0,-2.257354973253726,0.0
4531503662.8565,-13.623162957292543,0.0,-2.2708765657463297,0.0
4531518662.856,-13.62107905805421,0.0,-2.272259560165018,0.0
4531533662.8555,-13.6292379952524,0.0,-2.279247277816081,0.0
4531548662.855,-13.610931318799581,0.0,-2.2561116651750295,0.0
4531563662.8545,-13.61195453566548,0.0,-2.2755222935310706,0.0
4531578662.854,-13.614417678463901,0.0,-2.2417906434362873,0.0
4531593662.8535,-13.62128922932223,0.0,-2.230008651571093,0.0
4531608662.853,-13.618594557679826,0.0,-2.253671324335235,0.0
4531623662.8525,-13.62485016250298,0.0,-2.257546677446917,0.0
4531638662.852,-13.620225783991298,0.0,-2.2678062698282027,0.0
4531653662.8515,-13.61099380848599,0.0,-2.3267076295181,0.0
4531668662.851,-13.621316545672318,0.0,-2.291461237844578,0.0
4531683662.8505,-13.610181915381151,0.0,-2.1746849690698915,0.0
4531698662.85,-13.607989194243878,0.0,-2.306053043142675,0.0
4531713662.8495,-13.611122471482187,0.0,-2.2713004725838286,0.0
4531728662.849,-13.620933819601735,0.0,-2.2902466813522895,0.0
4531743662.8485,-13.614918332847095,0.0,-2.2311447171242835,0.0
4531758662.848,-13.603783085107498,0.0,-2.2527070085993413,0.0
4531773662.8475,-13.608920729570094,0.0,-2.3056079193839505,0.0
4531788662.847,-13.616304268820157,0.0,-2.282738693078139,0.0
4531803662.8465,-13.61969686327021,0.0,-2.293886234218694,0.0
4531818662.846,-13.61379254962366,0.0,-2.2729411262985515,0.0
4531833662.8455,-13.619457818141075,0.0,-2.327486420383087,0.0
4531848662.845,-13.615460051927686,0.0,-2.220947225721032,0.0
4531863662.8445,-13.613898465695591,0.0,-2.310157160032997,0.0
4531878662.844,-13.615925823867132,0.0,-2.327280172060733,0.0
