Frequency,S11,S11-Q,S11-Phase,S11-Phase-Q
4527198663.0,-13.42424666943158,0.0,-2.595780639248352,0.0
4527213662.9995,-13.417564161900588,0.0,-2.559410142141868,0.0
4527228662.999,-13.43504301346995,0.0,-2.5260974694623703,0.0
4527243662.9985,-13.421944621723021,0.0,-2.5631938966047914,0.0
4527258662.998,-13.414867557175096,0.0,-2.5458469040070972,0.0
4527273662.9975,-13.427277897949972,0.0,-2.558097885709567,0.0
4527288662.997,-13.41991720523952,0.0,-2.5608771971369255,0.0
4527303662.9965,-13.433922600883148,0.0,-2.6058898684241507,0.0
4527318662.996,-13.42384813004809,0.0,-2.5682961753284603,0.0
4527333662.9955,-13.436536192246582,0.0,-2.615025061565332,0.0
4527348662.995,-13.429971038159756,0.0,-2.5901900246048437,0.0
4527363662.9945,-13.428917778851021,0.0,-2.5795672730283186,0.0
4527378662.994,-13.426487161734538,0.0,-2.581525250536983,0.0
4527393662.9935,-13.43381142087319,0.0,-2.5783088924444404,0.0
4527408662.993,-13.42445674887365,0.0,-2.5433585663252227,0.0
4527423662.9925,-13.422574038819748,0.0,-2.5735470451430995,0.0
4527438662.992,-13.426933880084766,0.0,-2.5418739969131434,0.0
4527453662.9915,-13.418007402542651,0.0,-2.56670446714534,0.0
4527468662.991,-13.428973176329425,0.0,-2.641846598335362,0.0
4527483662.9905,-13.429480844933668,0.0,-2.632840960256885,0.0
4527498662.99,-13.437700960334876,0.0,-2.5884100687415805,0.0
4527513662.9895,-13.426368524903044,0.0,-2.6200569359726,0.0
4527528662.989,-13.431331085474788,0.0,-2.6767746660862,0.0
4527543662.9885,-13.426729616626268,0.0,-2.5705365259021695,0.0
4527558662.988,-13.426979534401946,0.0,-2.6700685270344056,0.0
4527573662.9875,-13.426217177218733,0.0,-2.5754459107586967,0.0
4527588662.987,-13.425822942437264,0.0,-2.5996093748703837,0.0
4527603662.9865,-13.434767420881057,0.0,-2.5817947818316567,0.0
4527618662.986,-13.431884022318082,0.0,-2.6549884388622003,0.0
4527633662.9855,-13.4310794577815,0.0,-2.582738091763537,0.0
4527648662.985,-13.429027046317977,0.0,-2.585670609119528,0.0
4527663662.9845,-13.430190941404877,0.0,-2.6301082869589893,0.0
4527678662.984,-13.424012621051356,0.0,-2.6256667782132768,0.0
4527693662.9835,-13.421960376837232,0.0,-2.6615776138365743,0.0
4527708662.983,-13.420854537429484,0.0,-2.6565337222670284,0.0
4527723662.9825,-13.420913284607035,0.0,-2.6416565199691466,0.0
4527738662.982,-13.428231776661129,0.0,-2.5959286196382143,0.0
4527753662.9815,-13.428224933915036,0.0,-2.6808604899428157,0.0
4527768662.981,-13.422251174465739,0.0,-2.6271071107801753,0.0
4527783662.9805,-13.434057727363562,0.0,-2.6116064214691344,0.0
4527798662.98,-13.423427614627679,0.0,-2.6350509321077653,0.0
4527813662.9795,-13.428530513398357,0.0,-2.678593694730274,0.0
4527828662.979,-13.426816660523851,0.0,-2.681596077581383,0.0
4527843662.9785,-13.43244874571474,0.0,-2.6647797278690004,0.0
4527858662.978,-13.429370691896594,0.0,-2.6719825247282243,0.0
4527873662.9775,-13.435155925391856,0.0,-2.71855182544676,0.0
4527888662.977,-13.42055524033425,0.0,-2.6863291090511225,0.0
4527903662.9765,-13.433877307815223,0.0,-2.678078442062782,0.0
4527918662.976,-13.416498779370142,0.0,-2.6410764361985604,0.0
4527933662.9755,-13.431998688379732,0.0,-2.654835821778488,0.0
4527948662.975,-13.428457781410456,0.0,-2.6970977121522304,0.0
4527963662.9745,-13.424983429465637,0.0,-2.649366063714873,0.0
4527978662.974,-13.428885526440217,0.0,-2.647952544579632,0.0
4527993662.9735,-13.428184878576072,0.0,-2.689695204996911,0.0
4528008662.973,-13.434747343946075,0.0,-2.76852745571765,0.0
4528023662.9725,-13.425805488065816,0.0,-2.711648604675129,0.0
4528038662.972,-13.430696467335858,0.0,-2.713662266548149,0.0
4528053662.9715,-13.429479099644313,0.0,-2.692357056124595,0.0
4528068662.971,-13.430097827122001,0.0,-2.6966392966535113,0.0
4528083662.9705,-13.427220893030828,0.0,-2.6279873764451946,0.0
4528098662.97,-13.4268377196031,0.0,-2.683638759878888,0.0
4528113662.9695,-13.425106814691649,0.0,-2.679392980051851,0.0
4528128662.969,-13.422468133902036,0.0,-2.690642984575939,0.0
4528143662.9685,-13.424078061221234,0.0,-2.6722089880622906,0.0
4528158662.968,-13.424011961566043,0.0,-2.7144554213604004,0.0
4528173662.9675,-13.428682001136318,0.0,-2.7197653543679783,0.0
4528188662.967,-13.432149918577693,0.0,-2.6880082791355715,0.0
4528203662.9665,-13.42153963304651,0.0,-2.6928382871765457,0.0
4528218662.966,-13.421408780320663,0.0,-2.7082992836185795,0.0
4528233662.9655,-13.435336830370058,0.0,-2.683826099374145,0.0
4528248662.965,-13.423644477486722,0.0,-2.759711628164019,0.0
4528263662.9645,-13.420929309169622,0.0,-2.695002740187985,0.0
4528278662.964,-13.434142163955523,0.0,-2.6721610360036094,0.0
4528293662.9635,-13.437220969552845,0.0,-2.757349074925061,0.0
4528308662.963,-13.42602530597855,0.0,-2.7535634982392887,0.0
4528323662.9625,-13.426768929939142,0.0,-2.750047349028468,0.0
4528338662.962,-13.421084326480191,0.0,-2.7603979698755925,0.0
4528353662.9615,-13.428238445447654,0.0,-2.6761944310213877,0.0
4528368662.961,-13.429714354163062,0.0,-2.723794775442673,0.0
4528383662.9605,-13.42581960495995,0.0,-2.7260623216429622,0.0
4528398662.96,-13.436219463051277,0.0,-2.6909382760124076,0.0
4528413662.9595,-13.434836658772902,0.0,-2.729193857467622,0.0
4528428662.959,-13.432380874553205,0.0,-2.722036632731087,0.0
4528443662.9585,-13.437022354769612,0.0,-2.8208558739112415,0.0
4528458662.958,-13.426029384568302,0.0,-2.8006218312258238,0.0
4528473662.9575,-13.423616958191644,0.0,-2.7524426230610683,0.0
4528488662.957,-13.433315724206166,0.0,-2.756770954773541,0.0
4528503662.9565,-13.42645000401605,0.0,-2.811460689183474,0.0
4528518662.956,-13.425145839742164,0.0,-2.7306173056487895,0.0
4528533662.9555,-13.42816177512827,0.0,-2.81254708189143,0.0
4528548662.955,-13.430814986310601,0.0,-2.7828038789538683,0.0
4528563662.9545,-13.424110156562275,0.0,-2.779107104719044,0.0
4528578662.954,-13.425170624619508,0.0,-2.760809290356526,0.0
4528593662.9535,-13.435958887316584,0.0,-2.7446400275161116,0.0
4528608662.953,-13.430529150688873,0.0,-2.809877670947158,0.0
4528623662.9525,-13.430295324093844,0.0,-2.812874503653458,0.0
4528638662.952,-13.436730916896506,0.0,-2.7158034936092865,0.0
4528653662.9515,-13.431251544459741,0.0,-2.7902984957178107,0.0
4528668662.951,-13.423883229480772,0.0,-2.7588818913319497,0.0
4528683662.9505,-13.429942613842908,0.0,-2.778617622435727,0.0
4528698662.95,-13.429472537616117,0.0,-2.7921114305548724,0.0
4528713662.9495,-13.425486587455246,0.0,-2.8602403724251175,0.0
4528728662.949,-13.43045632287458,0.0,-2.7777734124189397,0.0
4528743662.9485,-13.425393501417751,0.0,-2.776518894317475,0.0
4528758662.948,-13.431020596586535,0.0,-2.776040217037235,0.0
4528773662.9475,-13.422568383732216,0.0,-2.827578172297825,0.0
4528788662.947,-13.432785981322304,0.0,-2.8160584415538095,0.0
4528803662.9465,-13.427254466539868,0.0,-2.878991090737777,0.0
4528818662.946,-13.428513420743531,0.0,-2.8316462017732937,0.0
4528833662.9455,-13.433390405669028,0.0,-2.764910459966236,0.0
4528848662.945,-13.43103051674035,0.0,-2.811310720728347,0.0
4528863662.9445,-13.432754112797031,0.0,-2.8908643562007006,0.0
4528878662.944,-13.42536908142975,0.0,-2.8494674991079,0.0
4528893662.9435,-13.416685899354277,0.0,-2.779782126343373,0.0
4528908662.943,-13.421972340304062,0.0,-2.8526945759405735,0.0
4528923662.9425,-13.433789878622749,0.0,-2.7968874489781315,0.0
4528938662.942,-13.429590024101437,0.0,-2.8173420475071005,0.0
4528953662.9415,-13.439097807125805,0.0,-2.932294746085618,0.0
4528968662.941,-13.437040891586351,0.0,-2.885776344296895,0.0
4528983662.9405,-13.426960501154863,0.0,-2.8369236748856967,0.0
4528998662.94,-13.429536465893005,0.0,-2.8471322201623996,0.0
4529013662.9395,-13.425894270529275,0.0,-2.8672997779530904,0.0
4529028662.939,-13.424846694132347,0.0,-2.879601129464938,0.0
4529043662.9385,-13.434392551905848,0.0,-2.8242362040738045,0.0
4529058662.938,-13.429936443962113,0.0,-2.8490127054682457,0.0
4529073662.9375,-13.429280673814807,0.0,-2.8884784265362415,0.0
4529088662.937,-13.429573422385117,0.0,-2.8943420230166943,0.0
4529103662.9365,-13.42897159661959,0.0,-2.931769629442802,0.0
4529118662.936,-13.43703592552327,0.0,-2.866419090483539,0.0
4529133662.9355,-13.43212151950506,0.0,-2.934591351466626,0.0
4529148662.935,-13.435768380973448,0.0,-2.855131069233052,0.0
4529163662.9345,-13.435401040283727,0.0,-2.8884011810521764,0.0
4529178662.934,-13.440758747488907,0.0,-2.9234722808097193,0.0
4529193662.9335,-13.433775786377389,0.0,-2.9118375952303803,0.0
4529208662.933,-13.432606060112972,0.0,-2.9641263343749027,0.0
4529223662.9325,-13.428116078283761,0.0,-2.9450624096583238,0.0
4529238662.932,-13.43009281903484,0.0,-2.9181859416967986,0.0
4529253662.9315,-13.43290359767057,0.0,-2.8957189391368514,0.0
4529268662.931,-13.42732377748796,0.0,-2.847688616932624,0.0
4529283662.9305,-13.433312496596379,0.0,-2.9307749612051173,0.0
4529298662.93,-13.433984754272048,0.0,-2.961264104933128,0.0
4529313662.9295,-13.424667112514284,0.0,-2.925078627613577,0.0
4529328662.929,-13.432446563437617,0.0,-2.956616424031941,0.0
4529343662.9285,-13.433318368602972,0.0,-2.9670611517478296,0.0
4529358662.928,-13.432839227538416,0.0,-2.8946840462555183,0.0
4529373662.9275,-13.434413524734929,0.0,-2.884779426709677,0.0
4529388662.927,-13.427764710485523,0.0,-2.903088702310141,0.0
4529403662.9265,-13.43709708310502,0.0,-2.9605108984527186,0.0
4529418662.926,-13.42307243108294,0.0,-2.8740321968587046,0.0
4529433662.9255,-13.432201888553372,0.0,-2.953929988701811,0.0
4529448662.925,-13.420436270797317,0.0,-2.9101984966006613,0.0
4529463662.9245,-13.429609885121142,0.0,-2.9329809650218897,0.0
4529478662.924,-13.42279347236383,0.0,-2.9465352547748873,0.0
4529493662.9235,-13.432675686966233,0.0,-2.9559195807870178,0.0
4529508662.923,-13.416996374974007,0.0,-2.9940489651156192,0.0
4529523662.9225,-13.42977640453952,0.0,-3.020528055161591,0.0
4529538662.922,-13.424502343619672,0.0,-3.0089413930661872,0.0
4529553662.9215,-13.432087583846544,0.0,-2.947429115583013,0.0
4529568662.921,-13.436751813840022,0.0,-2.9901762387449238,0.0
4529583662.9205,-13.433156466032417,0.0,-3.0298557701371447,0.0
4529598662.92,-13.428009332750415,0.0,-2.980648382140197,0.0
4529613662.9195,-13.433813623872092,0.0,-2.973780271980477,0.0
4529628662.919,-13.441655313729427,0.0,-2.952193961411962,0.0
4529643662.9185,-13.428123477439264,0.0,-2.929822313683517,0.0
4529658662.918,-13.42998864935862,0.0,-2.9989879544993423,0.0
4529673662.9175,-13.439354048722558,0.0,-3.03053351517043,0.0
4529688662.917,-13.4356570493393,0.0,-2.98796434579395,0.0
4529703662.9165,-13.432175068055301,0.0,-3.011276361868013,0.0
4529718662.916,-13.431182135115613,0.0,-3.0378350773147664,0.0
4529733662.9155,-13.430950506414936,0.0,-2.9972340087047487,0.0
4529748662.915,-13.435637744482348,0.0,-3.0290515905425095,0.0
4529763662.9145,-13.426736955318027,0.0,-3.0367084917126976,0.0
4529778662.914,-13.435403258809531,0.0,-2.9357941144919883,0.0
4529793662.9135,-13.426146160375914,0.0,-3.036495371729029,0.0
4529808662.913,-13.440546428647895,0.0,-2.998455530703132,0.0
4529823662.9125,-13.440197812823222,0.0,-3.0303932896459713,0.0
4529838662.912,-13.421924754254588,0.0,-2.9844123364698754,0.0
4529853662.9115,-13.425424908496398,0.0,-3.0197485505222637,0.0
4529868662.911,-13.430183150286613,0.0,-3.0082166876293415,0.0
4529883662.9105,-13.438692286315348,0.0,-3.040498210338223,0.0
4529898662.91,-13.435439125886885,0.0,-3.0448535932704988,0.0
4529913662.9095,-13.441381705507569,0.0,-3.1058322896997956,0.0
4529928662.909,-13.433335200614493,0.0,-3.0182911845172145,0.0
4529943662.9085,-13.437928502054167,0.0,-2.99033812436901,0.0
4529958662.908,-13.440164994183485,0.0,-3.0214043511018467,0.0
4529973662.9075,-13.435376844904338,0.0,-3.0122445749008455,0.0
4529988662.907,-13.434862178026997,0.0,-3.0888332602201443,0.0
4530003662.9065,-13.433713763398174,0.0,-3.0109053931611043,0.0
4530018662.906,-13.436150740219208,0.0,-3.0263298197889834,0.0
4530033662.9055,-13.431277879261307,0.0,-3.0590663112646252,0.0
4530048662.905,-13.436718552044875,0.0,-3.1183450246155395,0.0
4530063662.9045,-13.430150281775246,0.0,-3.1192817458628443,0.0
4530078662.904,-13.434691253426678,0.0,-3.1023973750427327,0.0
4530093662.9035,-13.436635895691126,0.0,-3.0718690005916556,0.0
4530108662.903,-13.432813448860587,0.0,-3.0701408225416857,0.0
4530123662.9025,-13.436200369584988,0.0,-3.067624592999191,0.0
4530138662.902,-13.439426989642618,0.0,-3.131050404479433,0.0
4530153662.9015,-13.426549786660672,0.0,-3.1799993863360583,0.0
4530168662.901,-13.438294057491225,0.0,-3.1354715566904163,0.0
4530183662.9005,-13.44237374104795,0.0,-3.059224162275319,0.0
4530198662.9,-13.442729020421647,0.0,-3.1330999565908475,0.0
4530213662.8995,-13.43800434917031,0.0,-3.1284292188083445,0.0
4530228662.899,-13.445084876508249,0.0,-3.1075426547220237,0.0
4530243662.8985,-13.433313906043946,0.0,-3.059975379551396,0.0
4530258662.898,-13.431172202587211,0.0,-3.0957669975495916,0.0
4530273662.8975,-13.435287676166801,0.0,-3.1407961603275836,0.0
4530288662.897,-13.433964408562073,0.0,-3.212327586016831,0.0
4530303662.8965,-13.431118172220158,0.0,-3.133492207818477,0.0
4530318662.896,-13.434173992596277,0.0,-3.1455550594144714,0.0
4530333662.8955,-13.439937251153895,0.0,-3.1346400193029376,0.0
4530348662.895,-13.433645019762398,0.0,-3.1616428549706295,0.0
4530363662.8945,-13.441805809430843,0.0,-3.1072173898661815,0.0
4530378662.894,-13.438564342791663,0.0,-3.117386150815394,0.0
4530393662.8935,-13.442820035887097,0.0,-3.164599991821787,0.0
4530408662.893,-13.439685864144506,0.0,-3.1665957174947246,0.0
4530423662.8925,-13.433399647288972,0.0,-3.2126723613589614,0.0
4530438662.892,-13.444104596951728,0.0,-3.128648417289405,0.0
4530453662.8915,-13.439255567647974,0.0,-3.170970922051394,0.0
4530468662.891,-13.43923514662631,0.0,-3.1648137745367557,0.0
4530483662.8905,-13.436536052501571,0.0,-3.210812204533574,0.0
4530498662.89,-13.425946087000398,0.0,-3.162469617915619,0.0
4530513662.8895,-13.433667583202677,0.0,-3.166835833065259,0.0
4530528662.889,-13.439212552046193,0.0,-3.2037475892322322,0.0
4530543662.8885,-13.429797521300618,0.0,-3.1931134013203972,0.0
4530558662.888,-13.43670653221573,0.0,-3.2348471820727176,0.0
4530573662.8875,-13.431587395929114,0.0,-3.208994434135995,0.0
4530588662.887,-13.435923890154196,0.0,-3.1887681463275106,0.0
4530603662.8865,-13.436408841082862,0.0,-3.1804527961640505,0.0
4530618662.886,-13.429428412624375,0.0,-3.214404923690502,0.0
4530633662.8855,-13.432596482619976,0.0,-3.2163531873922557,0.0
4530648662.885,-13.444080682763815,0.0,-3.2286880777048768,0.0
4530663662.8845,-13.440320470423417,0.0,-3.242396075265417,0.0
4530678662.884,-13.422446780709407,0.0,-3.212275943503578,0.0
4530693662.8835,-13.432725307846606,0.0,-3.212697705812909,0.0
4530708662.883,-13.445591916113408,0.0,-3.187651852631593,0.0
4530723662.8825,-13.439040275268558,0.0,-3.1854146932213854,0.0
4530738662.882,-13.434020955575914,0.0,-3.2284570156178476,0.0
4530753662.8815,-13.433790568109234,0.0,-3.276063479028523,0.0
4530768662.881,-13.431593888619615,0.0,-3.251772974712186,0.0
4530783662.8805,-13.43269531615546,0.0,-3.2342399471839802,0.0
4530798662.88,-13.439963681027201,0.0,-3.242462911463557,0.0
4530813662.8795,-13.433323435162965,0.0,-3.199240952033578,0.0
4530828662.879,-13.438336351717957,0.0,-3.2270895644720863,0.0
4530843662.8785,-13.438389116380732,0.0,-3.233955020194633,0.0
4530858662.878,-13.427883251619887,0.0,-3.276204400368891,0.0
4530873662.8775,-13.439674423326704,0.0,-3.223487709543063,0.0
4530888662.877,-13.44111402615638,0.0,-3.3192867067902445,0.0
4530903662.8765,-13.441312843990225,0.0,-3.284038562607362,0.0
4530918662.876,-13.43634699199427,0.0,-3.240688120995023,0.0
4530933662.8755,-13.43127295954834,0.0,-3.2958838977189453,0.0
4530948662.875,-13.43070531577073,0.0,-3.2254872397101293,0.0
4530963662.8745,-13.436702675720245,0.0,-3.320318331907889,0.0
4530978662.874,-13.432457627088361,0.0,-3.284037895047453,0.0
4530993662.8735,-13.440904266226859,0.0,-3.316688500657169,0.0
4531008662.873,-13.443509640073508,0.0,-3.3066012714939452,0.0
4531023662.8725,-13.446383626056516,0.0,-3.3138977739660596,0.0
4531038662.872,-13.434462800056084,0.0,-3.3643320590219425,0.0
4531053662.8715,-13.433590259048326,0.0,-3.3355008849677947,0.0
4531068662.871,-13.440746915042006,0.0,-3.3641070164945237,0.0
4531083662.8705,-13.44649082981524,0.0,-3.2940379199512155,0.0
4531098662.87,-13.442274774921938,0.0,-3.3354535893313693,0.0
4531113662.8695,-13.431371482170277,0.0,-3.343278066274842,0.0
4531128662.869,-13.438091095956391,0.0,-3.318736436633704,0.0
4531143662.8685,-13.429087146317277,0.0,-3.36505487567507,0.0
4531158662.868,-13.447403891734142,0.0,-3.3361722857671032,0.0
4531173662.8675,-13.43861670311572,0.0,-3.3793630028704316,0.0
4531188662.867,-13.437113381642249,0.0,-3.290857836280648,0.0
4531203662.8665,-13.435913099770895,0.0,-3.364501759259041,0.0
4531218662.866,-13.440428506401467,0.0,-3.3522954039751607,0.0
4531233662.8655,-13.441630774354367,0.0,-3.373103863400746,0.0
4531248662.865,-13.443300452028469,0.0,-3.375472675813804,0.0
4531263662.8645,-13.437723148225606,0.0,-3.4089605796940994,0.0
4531278662.864,-13.436748127088334,0.0,-3.3728606762274174,0.0
4531293662.8635,-13.437437768009115,0.0,-3.403612365936571,0.0
4531308662.863,-13.444321203756433,0.0,-3.3526203462331283,0.0
4531323662.8625,-13.441345230895632,0.0,-3.324109389419727,0.0
4531338662.862,-13.437582317449241,0.0,-3.357008016499994,0.0
4531353662.8615,-13.432273056980526,0.0,-3.342318696272985,0.0
4531368662.861,-13.440571879758338,0.0,-3.3925424106197517,0.0
4531383662.8605,-13.44196833711428,0.0,-3.373689036195413,0.0
4531398662.86,-13.430085743629082,0.0,-3.4193329198122724,0.0
4531413662.8595,-13.43507062928079,0.0,-3.419740538144912,0.0
4531428662.859,-13.43092857937458,0.0,-3.3504027901197158,0.0
4531443662.8585,-13.444008360132575,0.0,-3.4469187827512875,0.0
4531458662.858,-13.43343731061311,0.0,-3.4136960905269103,0.0
4531473662.8575,-13.438019527332264,0.0,-3.4167562625238017,0.0
4531488662.857,-13.447424921390049,0.0,-3.4209166315363606,0.0
4531503662.8565,-13.444979615216003,0.0,-3.402810727144003,0.0
4531518662.856,-13.443340906400776,0.0,-3.3738483321364,0.0
4531533662.8555,-13.443676513846217,0.0,-3.4642699685485225,0.0
4531548662.855,-13.443627986260552,0.0,-3.5238216499426818,0.0
4531563662.8545,-13.446375254601797,0.0,-3.449668226901306,0.0
4531578662.854,-13.450873858815163,0.0,-3.4068285031903645,0.0
4531593662.8535,-13.436604530812781,0.0,-3.4799518721541904,0.0
4531608662.853,-13.437126069684805,0.0,-3.515953640373691,0.0
4531623662.8525,-13.43965346019493,0.0,-3.4768453872027143,0.0
4531638662.852,-13.429693731585786,0.0,-3.4556473732903674,0.0
4531653662.8515,-13.438848952530513,0.0,-3.478382307125165,0.0
4531668662.851,-13.447058368313062,0.0,-3.5241668382895095,0.0
4531683662.8505,-13.435880452868656,0.0,-3.4612969992284173,0.0
4531698662.85,-13.43450243907114,0.0,-3.4001686299157647,0.0
4531713662.8495,-13.441515059718219,0.0,-3.4890543976902175,0.0
4531728662.849,-13.448354171516234,0.0,-3.5101677707130055,0.0
4531743662.8485,-13.445316998088304,0.0,-3.546808859415867,0.0
4531758662.848,-13.453781793092801,0.0,-3.480956491477076,0.0
4531773662.8475,-13.447719862524556,0.0,-3.5333785631322603,0.0
4531788662.847,-13.439788702251384,0.0,-3.554233746666425,0.0
4531803662.8465,-13.446108224517035,0.0,-3.539158475668712,0.0
4531818662.846,-13.4360934256774,0.0,-3.4799112452800847,0.0
4531833662.8455,-13.446309423850913,0.0,-3.4723098042460214,0.0
4531848662.845,-13.44122693564887,0.0,-3.5545486476042503,0.0
4531863662.8445,-13.443462368862358,0.0,-3.5352252910836914,0.0
