Frequency,S11,S11-Q,S11-Phase,S11-Phase-Q
4527198663.0,-13.417310987908952,0.0,-2.399608208798069,0.0
4527213662.9995,-13.41697143405054,0.0,-2.449504440966439,0.0
4527228662.999,-13.41562738812318,0.0,-2.4212203668550765,0.0
4527243662.9985,-13.419736873533267,0.0,-2.426903485366817,0.0
4527258662.998,-13.412895091500882,0.0,-2.3640246306146486,0.0
4527273662.9975,-13.42140725983667,0.0,-2.4314404750619985,0.0
4527288662.997,-13.42605308015101,0.0,-2.4226530827281207,0.0
4527303662.9965,-13.41719685463736,0.0,-2.4285694070928927,0.0
4527318662.996,-13.415069046324327,0.0,-2.4583066680557573,0.0
4527333662.9955,-13.420408071418308,0.0,-2.4190914163249198,0.0
4527348662.995,-13.421236195153696,0.0,-2.4068971446816425,0.0
4527363662.9945,-13.416597816347448,0.0,-2.4239926515418797,0.0
4527378662.994,-13.4158167158108,0.0,-2.3751345701680036,0.0
4527393662.9935,-13.412896554661648,0.0,-2.482158331485106,0.0
4527408662.993,-13.413718807166447,0.0,-2.4411783520019803,0.0
4527423662.9925,-13.418117065387776,0.0,-2.4222999716321545,0.0
4527438662.992,-13.42151678720443,0.0,-2.4818361371560487,0.0
4527453662.9915,-13.421696160214939,0.0,-2.4295923973248392,0.0
4527468662.991,-13.421264743978101,0.0,-2.510117104498369,0.0
4527483662.9905,-13.417290695221098,0.0,-2.4927010158703906,0.0
4527498662.99,-13.418430588411852,0.0,-2.4674179330495423,0.0
4527513662.9895,-13.411933262051253,0.0,-2.4674579435492086,0.0
4527528662.989,-13.418579523601784,0.0,-2.4177930936442498,0.0
4527543662.9885,-13.415187545622345,0.0,-2.446693374193102,0.0
4527558662.988,-13.42578515481241,0.0,-2.457632100297743,0.0
4527573662.9875,-13.417630710167511,0.0,-2.4543396674916687,0.0
4527588662.987,-13.41580984834071,0.0,-2.475407491867318,0.0
4527603662.9865,-13.409779798978306,0.0,-2.453248981632143,0.0
4527618662.986,-13.41537167852465,0.0,-2.492676570312577,0.0
4527633662.9855,-13.419971423831239,0.0,-2.4925850417334696,0.0
4527648662.985,-13.416289043563907,0.0,-2.4992991537495066,0.0
4527663662.9845,-13.415778541581462,0.0,-2.4676718636456827,0.0
4527678662.984,-13.414159527576162,0.0,-2.51202106625441,0.0
4527693662.9835,-13.411384389623393,0.0,-2.4731162428712845,0.0
4527708662.983,-13.421442341628095,0.0,-2.476647437837273,0.0
4527723662.9825,-13.422728590038835,0.0,-2.4997361109290064,0.0
4527738662.982,-13.421624230174436,0.0,-2.457542661813092,0.0
4527753662.9815,-13.424218985258364,0.0,-2.514628996843855,0.0
4527768662.981,-13.418997058788705,0.0,-2.4611806341833606,0.0
4527783662.9805,-13.41424180567802,0.0,-2.4876356779541546,0.0
4527798662.98,-13.417973373535567,0.0,-2.4841326217506237,0.0
4527813662.9795,-13.419524897289568,0.0,-2.5031196594294207,0.0
4527828662.979,-13.420383203774913,0.0,-2.460560340248242,0.0
4527843662.9785,-13.417357743505034,0.0,-2.540317623171125,0.0
4527858662.978,-13.425072701592434,0.0,-2.4812710170076753,0.0
4527873662.9775,-13.411465284563706,0.0,-2.535702459888269,0.0
4527888662.977,-13.4253342069834,0.0,-2.4946791873476277,0.0
4527903662.9765,-13.413008625843235,0.0,-2.4877668201977596,0.0
4527918662.976,-13.416382573966082,0.0,-2.4669131152743926,0.0
4527933662.9755,-13.410748459343438,0.0,-2.533812505162678,0.0
4527948662.975,-13.413703189656577,0.0,-2.5051696841409825,0.0
4527963662.9745,-13.419434013865422,0.0,-2.5187450484993343,0.0
4527978662.974,-13.428162713696796,0.0,-2.5166899950359074,0.0
4527993662.9735,-13.428340149763187,0.0,-2.5382446996001824,0.0
4528008662.973,-13.419412171110352,0.0,-2.5741698759584613,0.0
4528023662.9725,-13.413232322376611,0.0,-2.4510379122786583,0.0
4528038662.972,-13.413909947612318,0.0,-2.511147985502771,0.0
4528053662.9715,-13.419393647515479,0.0,-2.5210105954121236,0.0
4528068662.971,-13.41762031660165,0.0,-2.518660789988556,0.0
4528083662.9705,-13.428507048216822,0.0,-2.5371193110806916,0.0
4528098662.97,-13.42549485026996,0.0,-2.570634035878228,0.0
4528113662.9695,-13.422999850208166,0.0,-2.470070862955824,0.0
4528128662.969,-13.430349090541572,0.0,-2.523254342940691,0.0
4528143662.9685,-13.408912872212017,0.0,-2.570370351564845,0.0
4528158662.968,-13.415662406717237,0.0,-2.534879750456886,0.0
4528173662.9675,-13.414931168416306,0.0,-2.567606824989512,0.0
4528188662.967,-13.417080989381098,0.0,-2.536130622185123,0.0
4528203662.9665,-13.419365284567846,0.0,-2.5167861062490196,0.0
4528218662.966,-13.415183715541394,0.0,-2.599258552020717,0.0
4528233662.9655,-13.42183447506522,0.0,-2.5674006135102627,0.0
4528248662.965,-13.4253236301757,0.0,-2.599973939043076,0.0
4528263662.9645,-13.411952036978569,0.0,-2.5827489685855887,0.0
4528278662.964,-13.414890513752953,0.0,-2.558054387321259,0.0
4528293662.9635,-13.417312010806135,0.0,-2.6087600690680817,0.0
4528308662.963,-13.422489479470377,0.0,-2.603865342505059,0.0
4528323662.9625,-13.415725736377418,0.0,-2.6053351949535175,0.0
4528338662.962,-13.416303610108876,0.0,-2.608102728174214,0.0
4528353662.9615,-13.424679358711167,0.0,-2.6108310829607326,0.0
4528368662.961,-13.416965860294736,0.0,-2.5985188714991434,0.0
4528383662.9605,-13.420827190343488,0.0,-2.5518064268289584,0.0
4528398662.96,-13.420345415508233,0.0,-2.5932123077074865,0.0
4528413662.9595,-13.417712421467012,0.0,-2.591137656859267,0.0
4528428662.959,-13.427954893664726,0.0,-2.625660502642891,0.0
4528443662.9585,-13.417231685734293,0.0,-2.5923997665734158,0.0
4528458662.958,-13.417534264878594,0.0,-2.618895262154622,0.0
4528473662.9575,-13.41651758108693,0.0,-2.6321372840041746,0.0
4528488662.957,-13.414112732240906,0.0,-2.638427852389803,0.0
4528503662.9565,-13.423002224815566,0.0,-2.4990964003805245,0.0
4528518662.956,-13.420993709592482,0.0,-2.637415140475564,0.0
4528533662.9555,-13.42585450367963,0.0,-2.59829907194915,0.0
4528548662.955,-13.41911499931533,0.0,-2.622657687709304,0.0
4528563662.9545,-13.43150389507571,0.0,-2.6358194893829556,0.0
4528578662.954,-13.410947784782813,0.0,-2.59204530714828,0.0
4528593662.9535,-13.417748531658331,0.0,-2.5951918166456966,0.0
4528608662.953,-13.417007926403386,0.0,-2.6558546933980995,0.0
4528623662.9525,-13.424719140097219,0.0,-2.5870170274775393,0.0
4528638662.952,-13.410193943843039,0.0,-2.5694978483399975,0.0
4528653662.9515,-13.41753725740826,0.0,-2.632931631392057,0.0
4528668662.951,-13.42498028451365,0.0,-2.6642174048438503,0.0
4528683662.9505,-13.416472781299865,0.0,-2.69643142156965,0.0
4528698662.95,-13.42089330787292,0.0,-2.6551232212754536,0.0
4528713662.9495,-13.41700331905573,0.0,-2.658799026581322,0.0
4528728662.949,-13.417485883337987,0.0,-2.6256377168440417,0.0
4528743662.9485,-13.412664799735253,0.0,-2.6204914988323953,0.0
4528758662.948,-13.421049665497755,0.0,-2.6310097336565317,0.0
4528773662.9475,-13.424218404749315,0.0,-2.5817386082488865,0.0
4528788662.947,-13.419354574018747,0.0,-2.6529443208363146,0.0
4528803662.9465,-13.420821806847524,0.0,-2.6283819653836793,0.0
4528818662.946,-13.416407333991895,0.0,-2.666246998413063,0.0
4528833662.9455,-13.419023074328614,0.0,-2.6520438556994064,0.0
4528848662.945,-13.418629336179823,0.0,-2.655202021556823,0.0
4528863662.9445,-13.422958815098326,0.0,-2.6749329340783614,0.0
4528878662.944,-13.422863584138323,0.0,-2.6202492314623864,0.0
4528893662.9435,-13.412993378075853,0.0,-2.672943650826379,0.0
4528908662.943,-13.421697362246594,0.0,-2.6709362356255744,0.0
4528923662.9425,-13.411475518970784,0.0,-2.694930213731433,0.0
4528938662.942,-13.419284555191835,0.0,-2.750081556994284,0.0
4528953662.9415,-13.420466440244535,0.0,-2.700245116479064,0.0
4528968662.941,-13.428666628832262,0.0,-2.650264362583185,0.0
4528983662.9405,-13.41915740791418,0.0,-2.615119084042933,0.0
4528998662.94,-13.42183725880853,0.0,-2.706336550769561,0.0
4529013662.9395,-13.414805476677554,0.0,-2.620103479719786,0.0
4529028662.939,-13.422076054975726,0.0,-2.6581378079447915,0.0
4529043662.9385,-13.417967481741615,0.0,-2.6455711608636854,0.0
4529058662.938,-13.422351633030981,0.0,-2.653611538272879,0.0
4529073662.9375,-13.421447934892445,0.0,-2.718567044459949,0.0
4529088662.937,-13.424522442709218,0.0,-2.689101397960608,0.0
4529103662.9365,-13.426683946782257,0.0,-2.724193071063148,0.0
4529118662.936,-13.412854030026526,0.0,-2.7721353486561497,0.0
4529133662.9355,-13.423669320421947,0.0,-2.6867785119809877,0.0
4529148662.935,-13.417497123480766,0.0,-2.737219034356791,0.0
4529163662.9345,-13.41270747884854,0.0,-2.697287814647174,0.0
4529178662.934,-13.42332809271183,0.0,-2.712266582219661,0.0
4529193662.9335,-13.430933853718503,0.0,-2.719347121838559,0.0
4529208662.933,-13.428893675392677,0.0,-2.742273578607702,0.0
4529223662.9325,-13.428943997986554,0.0,-2.7285230664209585,0.0
4529238662.932,-13.423634756475238,0.0,-2.734357935824973,0.0
4529253662.9315,-13.420817064147508,0.0,-2.725948483351214,0.0
4529268662.931,-13.419054765896568,0.0,-2.723752914674468,0.0
4529283662.9305,-13.434779937307944,0.0,-2.756756670240846,0.0
4529298662.93,-13.42163626499633,0.0,-2.7142652064297903,0.0
4529313662.9295,-13.418822325042202,0.0,-2.7376798735493737,0.0
4529328662.929,-13.421665539750649,0.0,-2.74811703269409,0.0
4529343662.9285,-13.427744867425284,0.0,-2.748138689458365,0.0
4529358662.928,-13.41974770111355,0.0,-2.736174932450008,0.0
4529373662.9275,-13.429035639451532,0.0,-2.75732584147716,0.0
4529388662.927,-13.428017925859148,0.0,-2.745136077258691,0.0
4529403662.9265,-13.413539718052746,0.0,-2.714867082088063,0.0
4529418662.926,-13.430730491354815,0.0,-2.7804007260106642,0.0
4529433662.9255,-13.427753800234106,0.0,-2.756696435254276,0.0
4529448662.925,-13.423791683433382,0.0,-2.752124314048819,0.0
4529463662.9245,-13.420186898035062,0.0,-2.8303509975631833,0.0
4529478662.924,-13.420019948435984,0.0,-2.7441972607731313,0.0
4529493662.9235,-13.41529742337556,0.0,-2.7676092229982867,0.0
4529508662.923,-13.428935515604135,0.0,-2.7809719842387963,0.0
4529523662.9225,-13.427515237063778,0.0,-2.7903787121897525,0.0
4529538662.922,-13.417346855273287,0.0,-2.7395502725331893,0.0
4529553662.9215,-13.429360987736466,0.0,-2.72085103880323,0.0
4529568662.921,-13.414991013554916,0.0,-2.8036970994717088,0.0
4529583662.9205,-13.423102632455826,0.0,-2.757719911182176,0.0
4529598662.92,-13.421562264838636,0.0,-2.8033784306770957,0.0
4529613662.9195,-13.419137868599169,0.0,-2.798264959273664,0.0
4529628662.919,-13.418978746984802,0.0,-2.7991307874873863,0.0
4529643662.9185,-13.428026299687767,0.0,-2.7571276425832814,0.0
4529658662.918,-13.427425259904798,0.0,-2.7925185647678528,0.0
4529673662.9175,-13.430397777440199,0.0,-2.8036114414541022,0.0
4529688662.917,-13.42134529579594,0.0,-2.8246086748592316,0.0
4529703662.9165,-13.423257363202996,0.0,-2.830467009947453,0.0
4529718662.916,-13.424713732103442,0.0,-2.822685610614226,0.0
4529733662.9155,-13.423185764293786,0.0,-2.796772929483704,0.0
4529748662.915,-13.429819948723441,0.0,-2.755789822591369,0.0
4529763662.9145,-13.427000772491265,0.0,-2.861442885878463,0.0
4529778662.914,-13.430280073056636,0.0,-2.8270517772241934,0.0
4529793662.9135,-13.42119185321809,0.0,-2.7764575653777097,0.0
4529808662.913,-13.431720488348393,0.0,-2.8501431527293906,0.0
4529823662.9125,-13.426354915278388,0.0,-2.854567386002878,0.0
4529838662.912,-13.432904658135183,0.0,-2.864243657333404,0.0
4529853662.9115,-13.424756807489597,0.0,-2.8447401617105514,0.0
4529868662.911,-13.419324813762296,0.0,-2.862806150593218,0.0
4529883662.9105,-13.421757485541699,0.0,-2.872813616775095,0.0
4529898662.91,-13.425091177127895,0.0,-2.8674380655573706,0.0
4529913662.9095,-13.421818737403648,0.0,-2.8548529294727762,0.0
4529928662.909,-13.424762118518409,0.0,-2.829948731600256,0.0
4529943662.9085,-13.425222656893897,0.0,-2.852367227102388,0.0
4529958662.908,-13.416018172939115,0.0,-2.8421394564656337,0.0
4529973662.9075,-13.428790851311872,0.0,-2.9088802572076324,0.0
4529988662.907,-13.425084498102484,0.0,-2.8254327650106816,0.0
4530003662.9065,-13.428077741453247,0.0,-2.9240707258022787,0.0
4530018662.906,-13.424546533846817,0.0,-2.8603039833744632,0.0
4530033662.9055,-13.426263470561835,0.0,-2.8967263832613033,0.0
4530048662.905,-13.428310275706458,0.0,-2.842791817777571,0.0
4530063662.9045,-13.419961842796111,0.0,-2.8644978396283536,0.0
4530078662.904,-13.429990030126834,0.0,-2.8677819518056005,0.0
4530093662.9035,-13.423786913376768,0.0,-2.8741046146306424,0.0
4530108662.903,-13.425803588170313,0.0,-2.8837556093374346,0.0
4530123662.9025,-13.420571685905466,0.0,-2.9015867528279395,0.0
4530138662.902,-13.423199005545568,0.0,-2.8323462701400652,0.0
4530153662.9015,-13.421327037478887,0.0,-2.923225863873031,0.0
4530168662.901,-13.425300990173493,0.0,-2.9111544412225174,0.0
4530183662.9005,-13.430419113352215,0.0,-2.9387655075662775,0.0
4530198662.9,-13.423773896337533,0.0,-2.9139962200365743,0.0
4530213662.8995,-13.420949764965304,0.0,-2.8721096071300236,0.0
4530228662.899,-13.424189726998703,0.0,-2.9611005709879192,0.0
4530243662.8985,-13.42660346240983,0.0,-2.8877904325644064,0.0
4530258662.898,-13.43046525863561,0.0,-2.905736607538284,0.0
4530273662.8975,-13.422442431255792,0.0,-2.901385897415434,0.0
4530288662.897,-13.424734429056688,0.0,-2.9481969886713384,0.0
4530303662.8965,-13.424616039963851,0.0,-2.908593939057865,0.0
4530318662.896,-13.430745543373968,0.0,-2.901368914162987,0.0
4530333662.8955,-13.418423067657688,0.0,-2.921360356430534,0.0
4530348662.895,-13.424759041697577,0.0,-2.9609260187002366,0.0
4530363662.8945,-13.435588243933376,0.0,-2.9807153706091998,0.0
4530378662.894,-13.426535168512487,0.0,-2.9332697389324323,0.0
4530393662.8935,-13.427334073690961,0.0,-2.9968390355751535,0.0
4530408662.893,-13.431852522836191,0.0,-2.958966049565255,0.0
4530423662.8925,-13.422820986039694,0.0,-3.011704054682762,0.0
4530438662.892,-13.422128294565995,0.0,-2.8932386177873863,0.0
4530453662.8915,-13.431330134881197,0.0,-2.9893901409242876,0.0
4530468662.891,-13.422244653899092,0.0,-2.90995669887169,0.0
4530483662.8905,-13.41155385747159,0.0,-2.923949983438386,0.0
4530498662.89,-13.429705870407808,0.0,-2.9465435273356313,0.0
4530513662.8895,-13.42755713481598,0.0,-3.0067155675242554,0.0
4530528662.889,-13.423298005631015,0.0,-3.0142613796146858,0.0
4530543662.8885,-13.429276201621159,0.0,-3.0186436208994745,0.0
4530558662.888,-13.431900599329083,0.0,-2.9913066504188035,0.0
4530573662.8875,-13.43037712759661,0.0,-2.974024670992608,0.0
4530588662.887,-13.419891410230447,0.0,-2.9740041857161725,0.0
4530603662.8865,-13.427370683089002,0.0,-3.027926343749857,0.0
4530618662.886,-13.42127986691376,0.0,-2.9683247896703095,0.0
4530633662.8855,-13.423151312447102,0.0,-3.010495646085959,0.0
4530648662.885,-13.43111056711598,0.0,-2.994713242263864,0.0
4530663662.8845,-13.423604868932731,0.0,-3.012891842968702,0.0
4530678662.884,-13.428043121807212,0.0,-2.9785536895009215,0.0
4530693662.8835,-13.422377801551502,0.0,-2.970786264347543,0.0
4530708662.883,-13.430614326635217,0.0,-2.989318010810234,0.0
4530723662.8825,-13.427194941520945,0.0,-3.0404945235775775,0.0
4530738662.882,-13.425473445850775,0.0,-3.0256837074117184,0.0
4530753662.8815,-13.430803154034173,0.0,-3.0459597642459317,0.0
4530768662.881,-13.427669056421967,0.0,-3.001881384956241,0.0
4530783662.8805,-13.428561841719151,0.0,-3.079123052941526,0.0
4530798662.88,-13.433481712161983,0.0,-2.9955690034867493,0.0
4530813662.8795,-13.428142790874332,0.0,-3.027908393091659,0.0
4530828662.879,-13.43173984736916,0.0,-3.0142918417060214,0.0
4530843662.8785,-13.42901777997267,0.0,-3.0217688370238527,0.0
4530858662.878,-13.433252551754943,0.0,-3.039913985161377,0.0
4530873662.8775,-13.420447082209094,0.0,-3.0146989054179256,0.0
4530888662.877,-13.433059610248767,0.0,-3.05451476325916,0.0
4530903662.8765,-13.43007519267731,0.0,-3.0547069679820926,0.0
4530918662.876,-13.426399924824175,0.0,-3.056081435715377,0.0
4530933662.8755,-13.428959896375286,0.0,-3.069079587978073,0.0
4530948662.875,-13.42661136790397,0.0,-3.144599524891735,0.0
4530963662.8745,-13.427925277839181,0.0,-3.0244232046882003,0.0
4530978662.874,-13.426803701694611,0.0,-3.0657730741754015,0.0
4530993662.8735,-13.435380244578731,0.0,-3.111267425541313,0.0
4531008662.873,-13.422623540131447,0.0,-3.0810165060655366,0.0
4531023662.8725,-13.426391535780986,0.0,-3.0992189084040094,0.0
4531038662.872,-13.438888452361182,0.0,-3.0691302362927493,0.0
4531053662.8715,-13.425067388714593,0.0,-3.045706590641727,0.0
4531068662.871,-13.42620737611461,0.0,-3.13346464995847,0.0
4531083662.8705,-13.439863587620497,0.0,-3.1091311057879087,0.0
4531098662.87,-13.42421744063297,0.0,-3.152849041115605,0.0
4531113662.8695,-13.426458204637349,0.0,-3.1157617377062996,0.0
4531128662.869,-13.429786845277503,0.0,-3.0296513319403826,0.0
4531143662.8685,-13.438692047103961,0.0,-3.1049629819518443,0.0
4531158662.868,-13.425640140885076,0.0,-3.092895536257729,0.0
4531173662.8675,-13.423407519339372,0.0,-3.0736161243169784,0.0
4531188662.867,-13.435421184781823,0.0,-3.147365133163826,0.0
4531203662.8665,-13.431153190898769,0.0,-3.1675593890283067,0.0
4531218662.866,-13.423687755228366,0.0,-3.157349564035729,0.0
4531233662.8655,-13.430061264220539,0.0,-3.1542956127473296,0.0
4531248662.865,-13.435217629598238,0.0,-3.1303490789187007,0.0
4531263662.8645,-13.43458708739994,0.0,-3.1057599462004792,0.0
4531278662.864,-13.428723233410944,0.0,-3.0735504326882674,0.0
4531293662.8635,-13.420861960725023,0.0,-3.1518788008424865,0.0
4531308662.863,-13.423063008836012,0.0,-3.170580172496818,0.0
4531323662.8625,-13.42714793491281,0.0,-3.203241188366631,0.0
4531338662.862,-13.431010470378279,0.0,-3.1805449664765693,0.0
4531353662.8615,-13.445662698713228,0.0,-3.179222912909593,0.0
4531368662.861,-13.43504171484161,0.0,-3.13355611378773,0.0
4531383662.8605,-13.436719287747895,0.0,-3.1521882354982864,0.0
4531398662.86,-13.442354347898943,0.0,-3.122652373839868,0.0
4531413662.8595,-13.43323144490687,0.0,-3.185991575033751,0.0
4531428662.859,-13.433707165232857,0.0,-3.109676143683272,0.0
4531443662.8585,-13.429585282792878,0.0,-3.1445946445826856,0.0
4531458662.858,-13.42530948612433,0.0,-3.1913548993047094,0.0
4531473662.8575,-13.428234445556399,0.0,-3.1781399707662974,0.0
4531488662.857,-13.435721689648899,0.0,-3.171084630114549,0.0
4531503662.8565,-13.429684789591567,0.0,-3.1685385415844802,0.0
4531518662.856,-13.433124538979307,0.0,-3.17853351307875,0.0
4531533662.8555,-13.426996271772316,0.0,-3.18216837067926,0.0
4531548662.855,-13.426523572403967,0.0,-3.251955305121122,0.0
4531563662.8545,-13.42553260748147,0.0,-3.183979355774023,0.0
4531578662.854,-13.433288777819307,0.0,-3.249803114987076,0.0
4531593662.8535,-13.426959846229101,0.0,-3.2468427012915577,0.0
4531608662.853,-13.431281988398238,0.0,-3.2194072699454734,0.0
4531623662.8525,-13.434153851429283,0.0,-3.178068046526005,0.0
4531638662.852,-13.429096079197313,0.0,-3.1634139509383856,0.0
4531653662.8515,-13.428184033558423,0.0,-3.2289906804775774,0.0
4531668662.851,-13.433324877389328,0.0,-3.2203339394245822,0.0
4531683662.8505,-13.426666256685607,0.0,-3.207538077386135,0.0
4531698662.85,-13.429627618381122,0.0,-3.3289290878251006,0.0
4531713662.8495,-13.430922866451656,0.0,-3.2799811615539034,0.0
4531728662.849,-13.425780816439731,0.0,-3.199305366001883,0.0
4531743662.8485,-13.42960691542293,0.0,-3.217434395885786,0.0
4531758662.848,-13.431596633418952,0.0,-3.271944969698722,0.0
4531773662.8475,-13.425085171117008,0.0,-3.213261231527983,0.0
4531788662.847,-13.429534098024,0.0,-3.262159502608472,0.0
4531803662.8465,-13.428101119442337,0.0,-3.214287986687357,0.0
4531818662.846,-13.42471086547851,0.0,-3.155685814618697,0.0
4531833662.8455,-13.429623921260927,0.0,-3.3156505763133173,0.0
4531848662.845,-13.426686583915906,0.0,-3.2829603604405526,0.0
4531863662.8445,-13.431050995318007,0.0,-3.1856017820147904,0.0
4531878662.844,-13.42769384711433,0.0,-3.2453004487159403,0.0
