Frequency,S11,S11-Q,S11-Phase,S11-Phase-Q
4527198663.0,-13.415249678637146,0.0,-2.408345635896005,0.0
4527213662.9995,-13.41487244471487,0.0,-2.4490379853424895,0.0
4527228662.999,-13.418789716084902,0.0,-2.4371953941879294,0.0
4527243662.9985,-13.4129989824748,0.0,-2.414376504942958,0.0
4527258662.998,-13.413507595028808,0.0,-2.4347503212609336,0.0
4527273662.9975,-13.410071302540326,0.0,-2.4241940340852297,0.0
4527288662.997,-13.411268448493134,0.0,-2.4361683280925437,0.0
4527303662.9965,-13.413605455272638,0.0,-2.3483899694591677,0.0
4527318662.996,-13.417189643562415,0.0,-2.493466069046802,0.0
4527333662.9955,-13.421216577780866,0.0,-2.3999282694306805,0.0
4527348662.995,-13.409699467594331,0.0,-2.401255430733706,0.0
4527363662.9945,-13.41527832960442,0.0,-2.413847747421115,0.0
4527378662.994,-13.415708337718268,0.0,-2.45472135083049,0.0
4527393662.9935,-13.41080475688859,0.0,-2.4751187822566094,0.0
4527408662.993,-13.41079138424094,0.0,-2.4309468328506263,0.0
4527423662.9925,-13.421648339676548,0.0,-2.415114186884441,0.0
4527438662.992,-13.407492735755241,0.0,-2.526534216061195,0.0
4527453662.9915,-13.415749959521202,0.0,-2.421314461560669,0.0
4527468662.991,-13.417487795603096,0.0,-2.4730760783288885,0.0
4527483662.9905,-13.408654361991285,0.0,-2.4231869409202056,0.0
4527498662.99,-13.415467291619317,0.0,-2.378643390542798,0.0
4527513662.9895,-13.418155536014504,0.0,-2.451362167498529,0.0
4527528662.989,-13.418369452178762,0.0,-2.4107922599710823,0.0
4527543662.9885,-13.409964069758216,0.0,-2.4720376237354476,0.0
4527558662.988,-13.422040504267752,0.0,-2.4934548873724114,0.0
4527573662.9875,-13.420412153805268,0.0,-2.447805275984369,0.0
4527588662.987,-13.422178456324332,0.0,-2.417518099524043,0.0
4527603662.9865,-13.40993812459365,0.0,-2.4651136213910894,0.0
4527618662.986,-13.422034829117312,0.0,-2.431662500813337,0.0
4527633662.9855,-13.42332364407632,0.0,-2.4581283768340474,0.0
4527648662.985,-13.417990722244113,0.0,-2.5139942432073155,0.0
4527663662.9845,-13.417163050218292,0.0,-2.499322404700468,0.0
4527678662.984,-13.412197030570272,0.0,-2.4328570700567544,0.0
4527693662.9835,-13.409606196229797,0.0,-2.459019554869219,0.0
4527708662.983,-13.417268152592055,0.0,-2.4488397963161965,0.0
4527723662.9825,-13.42519733745861,0.0,-2.434703683117881,0.0
4527738662.982,-13.416409895041149,0.0,-2.4905849348141818,0.0
4527753662.9815,-13.415879984479329,0.0,-2.454555486185858,0.0
4527768662.981,-13.414010050920604,0.0,-2.5067283268617504,0.0
4527783662.9805,-13.42026695862443,0.0,-2.553443465273565,0.0
4527798662.98,-13.412005924970549,0.0,-2.5201429887767297,0.0
4527813662.9795,-13.409731286776225,0.0,-2.4984972222913813,0.0
4527828662.979,-13.41803768078806,0.0,-2.557881089845978,0.0
4527843662.9785,-13.414059447426617,0.0,-2.429016600363829,0.0
4527858662.978,-13.410228374386142,0.0,-2.45538246752435,0.0
4527873662.9775,-13.425088512408452,0.0,-2.4997846652128675,0.0
4527888662.977,-13.419169769840467,0.0,-2.5303312139409306,0.0
4527903662.9765,-13.415029160183842,0.0,-2.519855164721608,0.0
4527918662.976,-13.414779182441677,0.0,-2.504724679066178,0.0
4527933662.9755,-13.421517052776563,0.0,-2.555148594581868,0.0
4527948662.975,-13.42283084591254,0.0,-2.524640431614639,0.0
4527963662.9745,-13.423205986641982,0.0,-2.570741572679257,0.0
4527978662.974,-13.409502928251717,0.0,-2.511778290882604,0.0
4527993662.9735,-13.419521661572931,0.0,-2.5312852408115143,0.0
4528008662.973,-13.414772904309979,0.0,-2.493417063104512,0.0
4528023662.9725,-13.420766318932031,0.0,-2.5219240276537853,0.0
4528038662.972,-13.421539752455569,0.0,-2.5188145883904505,0.0
4528053662.9715,-13.423428732059755,0.0,-2.467165174427528,0.0
4528068662.971,-13.41572139556761,0.0,-2.5466741918954416,0.0
4528083662.9705,-13.41522968124927,0.0,-2.5743243899194135,0.0
4528098662.97,-13.417157780518219,0.0,-2.507770802530176,0.0
4528113662.9695,-13.413345270787534,0.0,-2.536885776870562,0.0
4528128662.969,-13.42525650254084,0.0,-2.4982068022479824,0.0
4528143662.9685,-13.419303222465258,0.0,-2.509744458347694,0.0
4528158662.968,-13.414204577821929,0.0,-2.603708081066884,0.0
4528173662.9675,-13.423324562045236,0.0,-2.5450964039224626,0.0
4528188662.967,-13.41123146054363,0.0,-2.574312377860183,0.0
4528203662.9665,-13.414380571053073,0.0,-2.5682733081272056,0.0
4528218662.966,-13.41989790439861,0.0,-2.5261578460014693,0.0
4528233662.9655,-13.419727794177152,0.0,-2.5281759444323004,0.0
4528248662.965,-13.414357465784805,0.0,-2.568485913071481,0.0
4528263662.9645,-13.417221263645589,0.0,-2.6351753512879803,0.0
4528278662.964,-13.410292917184803,0.0,-2.5447379635936427,0.0
4528293662.9635,-13.415004365434644,0.0,-2.560582490169058,0.0
4528308662.963,-13.414738572069897,0.0,-2.611814384098497,0.0
4528323662.9625,-13.424108289429972,0.0,-2.579941844054178,0.0
4528338662.962,-13.407225163957573,0.0,-2.504287184384705,0.0
4528353662.9615,-13.430542226409369,0.0,-2.5291892544277825,0.0
4528368662.961,-13.421732483514731,0.0,-2.528047119238674,0.0
4528383662.9605,-13.417901883283712,0.0,-2.522118992159133,0.0
4528398662.96,-13.425401424110742,0.0,-2.515742431607677,0.0
4528413662.9595,-13.415090118663135,0.0,-2.5152521679305733,0.0
4528428662.959,-13.425901728302065,0.0,-2.60786850254201,0.0
4528443662.9585,-13.422628673420789,0.0,-2.555110652799692,0.0
4528458662.958,-13.415576877120854,0.0,-2.5791821890457367,0.0
4528473662.9575,-13.413775248840093,0.0,-2.5786155609758032,0.0
4528488662.957,-13.411961533012569,0.0,-2.6638462786686032,0.0
4528503662.9565,-13.421237802150909,0.0,-2.579891868823397,0.0
4528518662.956,-13.405312391738647,0.0,-2.616513190194972,0.0
4528533662.9555,-13.410314659388922,0.0,-2.5820454434899114,0.0
4528548662.955,-13.419673981443129,0.0,-2.5782017605332075,0.0
4528563662.9545,-13.417040368353476,0.0,-2.575026605974729,0.0
4528578662.954,-13.423252998951389,0.0,-2.585115447567586,0.0
4528593662.9535,-13.42058235781835,0.0,-2.5554612872719087,0.0
4528608662.953,-13.408943059788568,0.0,-2.622307589036203,0.0
4528623662.9525,-13.41558194231123,0.0,-2.6451305019940063,0.0
4528638662.952,-13.426409685491947,0.0,-2.6121914279387624,0.0
4528653662.9515,-13.41976293394055,0.0,-2.6553983079727437,0.0
4528668662.951,-13.424052859096978,0.0,-2.6124626645978455,0.0
4528683662.9505,-13.420024585205459,0.0,-2.614157562571174,0.0
4528698662.95,-13.419628694276868,0.0,-2.596786382538979,0.0
4528713662.9495,-13.419846063496648,0.0,-2.5901849566563753,0.0
4528728662.949,-13.413716514608414,0.0,-2.6519524136078374,0.0
4528743662.9485,-13.414279037144752,0.0,-2.657811510954765,0.0
4528758662.948,-13.419544481520042,0.0,-2.6600253161659735,0.0
4528773662.9475,-13.420303412244616,0.0,-2.6106745983749957,0.0
4528788662.947,-13.425702806164196,0.0,-2.6463448611416984,0.0
4528803662.9465,-13.41432828663809,0.0,-2.6159639285905283,0.0
4528818662.946,-13.41473729817719,0.0,-2.631608904673166,0.0
4528833662.9455,-13.41076507545974,0.0,-2.618956665757931,0.0
4528848662.945,-13.421461196302273,0.0,-2.558736860875462,0.0
4528863662.9445,-13.420681922106128,0.0,-2.6341512986330042,0.0
4528878662.944,-13.415253528197757,0.0,-2.676314090442674,0.0
4528893662.9435,-13.413468423659596,0.0,-2.701774504518104,0.0
4528908662.943,-13.425720942625121,0.0,-2.6540362564425033,0.0
4528923662.9425,-13.428919859836281,0.0,-2.6406127367967054,0.0
4528938662.942,-13.42291229795763,0.0,-2.704225654436743,0.0
4528953662.9415,-13.416979089828235,0.0,-2.7181738272359506,0.0
4528968662.941,-13.431241102076568,0.0,-2.677660341339872,0.0
4528983662.9405,-13.42220933199523,0.0,-2.710290092801433,0.0
4528998662.94,-13.413619678351743,0.0,-2.759646766560511,0.0
4529013662.9395,-13.421052134723894,0.0,-2.7224577533805867,0.0
4529028662.939,-13.422789734597789,0.0,-2.695387594832759,0.0
4529043662.9385,-13.427713765629512,0.0,-2.649251044644039,0.0
4529058662.938,-13.416693273788546,0.0,-2.7129680466715422,0.0
4529073662.9375,-13.413950096692929,0.0,-2.679040790043112,0.0
4529088662.937,-13.421718209819302,0.0,-2.680863728661438,0.0
4529103662.9365,-13.414962041482436,0.0,-2.6425571968623425,0.0
4529118662.936,-13.40939179317952,0.0,-2.7212701388704805,0.0
4529133662.9355,-13.418236099565156,0.0,-2.721822831815952,0.0
4529148662.935,-13.422913023613496,0.0,-2.7658444979630654,0.0
4529163662.9345,-13.429845919423002,0.0,-2.7056443487353072,0.0
4529178662.934,-13.423030837884134,0.0,-2.7565401236851965,0.0
4529193662.9335,-13.418145354995954,0.0,-2.714781944370688,0.0
4529208662.933,-13.420280500870003,0.0,-2.6824051216163403,0.0
4529223662.9325,-13.419784944262744,0.0,-2.6783495695434856,0.0
4529238662.932,-13.428462876872388,0.0,-2.7099273555257217,0.0
4529253662.9315,-13.425719806902006,0.0,-2.7391531140107164,0.0
4529268662.931,-13.421814647081991,0.0,-2.755031885636367,0.0
4529283662.9305,-13.4250495406883,0.0,-2.667588370509737,0.0
4529298662.93,-13.422682934703989,0.0,-2.6767451062341436,0.0
4529313662.9295,-13.42680322484785,0.0,-2.7036683749884953,0.0
4529328662.929,-13.423205181702906,0.0,-2.7020066066033714,0.0
4529343662.9285,-13.42719888250825,0.0,-2.7665560556121562,0.0
4529358662.928,-13.411384301201393,0.0,-2.780486077338084,0.0
4529373662.9275,-13.413666502553717,0.0,-2.801556033907141,0.0
4529388662.927,-13.420502817949396,0.0,-2.790385915208201,0.0
4529403662.9265,-13.418434620659385,0.0,-2.743335011827173,0.0
4529418662.926,-13.423110032990557,0.0,-2.767560709431345,0.0
4529433662.9255,-13.425848239238851,0.0,-2.7809534230170243,0.0
4529448662.925,-13.421970542599697,0.0,-2.7711201593022716,0.0
4529463662.9245,-13.418376435178416,0.0,-2.6971427814772655,0.0
4529478662.924,-13.415815074701744,0.0,-2.8097782733130945,0.0
4529493662.9235,-13.419695445689008,0.0,-2.8085858470483727,0.0
4529508662.923,-13.422828750106104,0.0,-2.7380972038889038,0.0
4529523662.9225,-13.418663252515838,0.0,-2.808250708765737,0.0
4529538662.922,-13.414327318210981,0.0,-2.7909970919000053,0.0
4529553662.9215,-13.417611178670406,0.0,-2.8506148738563404,0.0
4529568662.921,-13.412839575450024,0.0,-2.802329337927618,0.0
4529583662.9205,-13.425183492671648,0.0,-2.780969428588954,0.0
4529598662.92,-13.424156138448879,0.0,-2.8260921481940073,0.0
4529613662.9195,-13.434606280633352,0.0,-2.82988454284791,0.0
4529628662.919,-13.413611235039406,0.0,-2.7507123471792703,0.0
4529643662.9185,-13.424532087307888,0.0,-2.7715896206481783,0.0
4529658662.918,-13.422852622726742,0.0,-2.7934789545738408,0.0
4529673662.9175,-13.417859151783372,0.0,-2.8252410344183465,0.0
4529688662.917,-13.424482732543378,0.0,-2.794911163857917,0.0
4529703662.9165,-13.419205506776528,0.0,-2.7963569482677713,0.0
4529718662.916,-13.418117527352113,0.0,-2.830459067240709,0.0
4529733662.9155,-13.420875247063632,0.0,-2.824578756435808,0.0
4529748662.915,-13.422067550259523,0.0,-2.7126653761040234,0.0
4529763662.9145,-13.414701012280988,0.0,-2.843784010362956,0.0
4529778662.914,-13.417651401961578,0.0,-2.817644466099242,0.0
4529793662.9135,-13.414212677302428,0.0,-2.792378970309561,0.0
4529808662.913,-13.436522619317603,0.0,-2.7855417759035386,0.0
4529823662.9125,-13.424564908103878,0.0,-2.7937751928346364,0.0
4529838662.912,-13.423012714773419,0.0,-2.770394871630468,0.0
4529853662.9115,-13.424514082382085,0.0,-2.85554833245715,0.0
4529868662.911,-13.413694383386359,0.0,-2.8539856271421047,0.0
4529883662.9105,-13.421499485327807,0.0,-2.8135754819937064,0.0
4529898662.91,-13.418791129450991,0.0,-2.8793135069275695,0.0
4529913662.9095,-13.427873784295492,0.0,-2.8503760811162664,0.0
4529928662.909,-13.419186405277312,0.0,-2.8656335789145637,0.0
4529943662.9085,-13.416918958945638,0.0,-2.795018917223131,0.0
4529958662.908,-13.416681800948817,0.0,-2.8353514102919437,0.0
4529973662.9075,-13.422717430135053,0.0,-2.788499043158337,0.0
4529988662.907,-13.42080599333909,0.0,-2.8459547006557484,0.0
4530003662.9065,-13.41453265146362,0.0,-2.9236174325427777,0.0
4530018662.906,-13.418058713620413,0.0,-2.9148714188555607,0.0
4530033662.9055,-13.42052118078679,0.0,-2.808774547090123,0.0
4530048662.905,-13.416374870865708,0.0,-2.8037435855241157,0.0
4530063662.9045,-13.422911442510694,0.0,-2.8252025911415926,0.0
4530078662.904,-13.420493630362742,0.0,-2.8784998080010062,0.0
4530093662.9035,-13.417382340435385,0.0,-2.8260431038944964,0.0
4530108662.903,-13.414860768809397,0.0,-2.878224688581685,0.0
4530123662.9025,-13.434386011483062,0.0,-2.866624865165041,0.0
4530138662.902,-13.418728837242028,0.0,-2.844371454543211,0.0
4530153662.9015,-13.419535263390049,0.0,-2.846040421768878,0.0
4530168662.901,-13.424938142837943,0.0,-2.8744003256265946,0.0
4530183662.9005,-13.42397562125841,0.0,-2.89400465567405,0.0
4530198662.9,-13.427675916138247,0.0,-2.9237045613532,0.0
4530213662.8995,-13.42973896200787,0.0,-2.8905914887372557,0.0
4530228662.899,-13.418415333041242,0.0,-2.944975610612327,0.0
4530243662.8985,-13.428348592512386,0.0,-2.9431523141943625,0.0
4530258662.898,-13.412694911255086,0.0,-2.9186856470783,0.0
4530273662.8975,-13.423037758366622,0.0,-2.938022561022787,0.0
4530288662.897,-13.424861986267686,0.0,-2.9198328454699602,0.0
4530303662.8965,-13.418421089496027,0.0,-2.9525556620511746,0.0
4530318662.896,-13.422811553780566,0.0,-2.93435725573132,0.0
4530333662.8955,-13.426948325857076,0.0,-2.914442459217963,0.0
4530348662.895,-13.427263169898882,0.0,-2.920366709811969,0.0
4530363662.8945,-13.426742318041981,0.0,-2.9560424672698757,0.0
4530378662.894,-13.419492990620563,0.0,-2.9105454322390454,0.0
4530393662.8935,-13.42626367315004,0.0,-2.909523554721138,0.0
4530408662.893,-13.427262520567993,0.0,-2.9593226324655837,0.0
4530423662.8925,-13.428549717961761,0.0,-2.9369260617793347,0.0
4530438662.892,-13.430962054356526,0.0,-2.9427740093972306,0.0
4530453662.8915,-13.430331865303751,0.0,-2.962658358799717,0.0
4530468662.891,-13.425850657358616,0.0,-2.952400165770876,0.0
4530483662.8905,-13.422149345008812,0.0,-2.9526059782107463,0.0
4530498662.89,-13.426315763851287,0.0,-2.941871002630601,0.0
4530513662.8895,-13.42571951314981,0.0,-2.974127717802569,0.0
4530528662.889,-13.423846362730218,0.0,-2.9268364217405387,0.0
4530543662.8885,-13.43246024037006,0.0,-2.990424248482444,0.0
4530558662.888,-13.423538056942327,0.0,-2.932963668931314,0.0
4530573662.8875,-13.420853196383042,0.0,-2.9626612472690192,0.0
4530588662.887,-13.417964054514847,0.0,-2.983201970300394,0.0
4530603662.8865,-13.43235386718309,0.0,-2.9380009916317427,0.0
4530618662.886,-13.424979537706196,0.0,-3.029795655765949,0.0
4530633662.8855,-13.420663463765361,0.0,-3.0435339059798174,0.0
4530648662.885,-13.42403349941329,0.0,-2.9894562307946164,0.0
4530663662.8845,-13.419329526301588,0.0,-2.928696105147002,0.0
4530678662.884,-13.429289139134074,0.0,-2.993053907301348,0.0
4530693662.8835,-13.430922189458848,0.0,-3.0063725758636934,0.0
4530708662.883,-13.422617344392462,0.0,-2.970262316406071,0.0
4530723662.8825,-13.423959707900986,0.0,-3.0349533715921972,0.0
4530738662.882,-13.425900521580589,0.0,-3.013325034476071,0.0
4530753662.8815,-13.42555106266956,0.0,-3.0045996393987253,0.0
4530768662.881,-13.426997006669545,0.0,-3.0953764508862567,0.0
4530783662.8805,-13.428052854577784,0.0,-3.006077033779927,0.0
4530798662.88,-13.425469924643087,0.0,-3.0858149396099974,0.0
4530813662.8795,-13.41990949914768,0.0,-3.0469523203307496,0.0
4530828662.879,-13.42984994953319,0.0,-3.041228447168851,0.0
4530843662.8785,-13.428841523282076,0.0,-3.0058428275868176,0.0
4530858662.878,-13.426024156354675,0.0,-3.0469166122829527,0.0
4530873662.8775,-13.422608254771962,0.0,-3.083193547676928,0.0
4530888662.877,-13.420241162730658,0.0,-3.039954395920495,0.0
4530903662.8765,-13.42624689518807,0.0,-3.043575749390557,0.0
4530918662.876,-13.423614396899266,0.0,-3.034757646286868,0.0
4530933662.8755,-13.431709357716233,0.0,-3.00722685926241,0.0
4530948662.875,-13.427923981373107,0.0,-3.0777497959307265,0.0
4530963662.8745,-13.4263103592141,0.0,-3.091479865096457,0.0
4530978662.874,-13.43362348597326,0.0,-3.048069707244216,0.0
4530993662.8735,-13.422839189449087,0.0,-3.027600799844747,0.0
4531008662.873,-13.427190455520998,0.0,-3.1174317545050503,0.0
4531023662.8725,-13.427225000671294,0.0,-3.0483520782145814,0.0
4531038662.872,-13.430000200855297,0.0,-3.0801768568808203,0.0
4531053662.8715,-13.427504014069198,0.0,-3.0777210476689536,0.0
4531068662.871,-13.426229452787773,0.0,-3.125767676509372,0.0
4531083662.8705,-13.426654019220805,0.0,-3.0795946577905373,0.0
4531098662.87,-13.421680791621139,0.0,-3.063695115118553,0.0
4531113662.8695,-13.428938651253544,0.0,-3.134366509771353,0.0
4531128662.869,-13.424767637591756,0.0,-3.1363956329748017,0.0
4531143662.8685,-13.425708825094949,0.0,-3.1085333565968067,0.0
4531158662.868,-13.430995059546573,0.0,-3.0984003716745154,0.0
4531173662.8675,-13.425659264027079,0.0,-3.133017798718935,0.0
4531188662.867,-13.430315170736502,0.0,-3.0793882865273807,0.0
4531203662.8665,-13.428460003228384,0.0,-3.114797403661406,0.0
4531218662.866,-13.425108311274494,0.0,-3.108573682840289,0.0
4531233662.8655,-13.43278526151593,0.0,-3.1175832039772797,0.0
4531248662.865,-13.428293198603908,0.0,-3.1001253385841374,0.0
4531263662.8645,-13.42769543369715,0.0,-3.1521543284710236,0.0
4531278662.864,-13.430577481737856,0.0,-3.1362635158760597,0.0
4531293662.8635,-13.427293179033944,0.0,-3.147333140834405,0.0
4531308662.863,-13.430392560849691,0.0,-3.101595412003373,0.0
4531323662.8625,-13.42967947542996,0.0,-3.145862814078975,0.0
4531338662.862,-13.430687476634821,0.0,-3.162568235597571,0.0
4531353662.8615,-13.435254517655187,0.0,-3.125661353493282,0.0
4531368662.861,-13.428513625618674,0.0,-3.153256736484365,0.0
4531383662.8605,-13.4337329291662,0.0,-3.1374992945475704,0.0
4531398662.86,-13.42096522172743,0.0,-3.13167238002076,0.0
4531413662.8595,-13.428409285170018,0.0,-3.190647634193076,0.0
4531428662.859,-13.434904443144838,0.0,-3.179288217854172,0.0
4531443662.8585,-13.427389900627686,0.0,-3.171686614088241,0.0
4531458662.858,-13.42734751553028,0.0,-3.1858444961230514,0.0
4531473662.8575,-13.42644480983334,0.0,-3.1268619164230884,0.0
4531488662.857,-13.420620336528408,0.0,-3.1370700756715073,0.0
4531503662.8565,-13.428392079288054,0.0,-3.230326157636004,0.0
4531518662.856,-13.428424463663216,0.0,-3.2328697533532096,0.0
4531533662.8555,-13.433715736455573,0.0,-3.1439041282189435,0.0
4531548662.855,-13.431471276670084,0.0,-3.275060896438692,0.0
4531563662.8545,-13.427924551119252,0.0,-3.158444222343046,0.0
4531578662.854,-13.428617537556683,0.0,-3.1935188559329064,0.0
4531593662.8535,-13.427379443539857,0.0,-3.214327057802411,0.0
4531608662.853,-13.426391783260065,0.0,-3.221015318359893,0.0
4531623662.8525,-13.430820915772713,0.0,-3.2047683614090956,0.0
4531638662.852,-13.434817356944146,0.0,-3.2352835283013346,0.0
4531653662.8515,-13.429640385750833,0.0,-3.2612620839855975,0.0
4531668662.851,-13.430563716032855,0.0,-3.2391983289973494,0.0
4531683662.8505,-13.425258543239181,0.0,-3.169836963619183,0.0
4531698662.85,-13.428755203326189,0.0,-3.247694919247476,0.0
4531713662.8495,-13.432305680131936,0.0,-3.2185026302779196,0.0
4531728662.849,-13.432736708874858,0.0,-3.2536188356916846,0.0
4531743662.8485,-13.43412729784211,0.0,-3.199698973748946,0.0
4531758662.848,-13.430351498991051,0.0,-3.276701451103138,0.0
4531773662.8475,-13.432890627968542,0.0,-3.150933237584588,0.0
4531788662.847,-13.432818089356031,0.0,-3.226332896624732,0.0
4531803662.8465,-13.430997348885148,0.0,-3.262719871804813,0.0
4531818662.846,-13.433310753463907,0.0,-3.329828540440085,0.0
4531833662.8455,-13.432584980027219,0.0,-3.2327964667388027,0.0
4531848662.845,-13.428859950782508,0.0,-3.2953203461569327,0.0
4531863662.8445,-13.422010240680269,0.0,-3.2364800129982454,0.0
4531878662.844,-13.446234751747193,0.0,-3.208084356331451,0.0
