Frequency,S11,S11-Q,S11-Phase,S11-Phase-Q
4527198663.0,-13.420788541867605,0.0,-2.402322991915038,0.0
4527213662.9995,-13.424949067674877,0.0,-2.3591640645966168,0.0
4527228662.999,-13.41733983454693,0.0,-2.4075838534460723,0.0
4527243662.9985,-13.418220092369397,0.0,-2.4214792119923336,0.0
4527258662.998,-13.425496716905162,0.0,-2.4010555785240504,0.0
4527273662.9975,-13.41742952745943,0.0,-2.4178398960549234,0.0
4527288662.997,-13.418536229153622,0.0,-2.374228009859958,0.0
4527303662.9965,-13.423064906325745,0.0,-2.402971905621816,0.0
4527318662.996,-13.42385252780323,0.0,-2.3892768808046543,0.0
4527333662.9955,-13.421208550973558,0.0,-2.3547383665561923,0.0
4527348662.995,-13.424658624015791,0.0,-2.4815953479893853,0.0
4527363662.9945,-13.416434312222856,0.0,-2.4119606752032228,0.0
4527378662.994,-13.425936900679968,0.0,-2.404133409517094,0.0
4527393662.9935,-13.419927502500082,0.0,-2.421506188364096,0.0
4527408662.993,-13.42376442319486,0.0,-2.460740346505881,0.0
4527423662.9925,-13.41318835856578,0.0,-2.3689413118227294,0.0
4527438662.992,-13.422764048229695,0.0,-2.3973018556840056,0.0
4527453662.9915,-13.42422455904175,0.0,-2.468299795414224,0.0
4527468662.991,-13.42211942754265,0.0,-2.421201802889368,0.0
4527483662.9905,-13.423336128960699,0.0,-2.3988018252616703,0.0
4527498662.99,-13.423097636886418,0.0,-2.4509355997627758,0.0
4527513662.9895,-13.426990583875904,0.0,-2.428828786806048,0.0
4527528662.989,-13.424286141113573,0.0,-2.4443311710063553,0.0
4527543662.9885,-13.428024415277486,0.0,-2.4438510164685043,0.0
4527558662.988,-13.4244460788627,0.0,-2.4138358507437028,0.0
4527573662.9875,-13.425757465412282,0.0,-2.3586747531790424,0.0
4527588662.987,-13.421412480148804,0.0,-2.4553719701869947,0.0
4527603662.9865,-13.413180777489549,0.0,-2.415796194945393,0.0
4527618662.986,-13.422272483102152,0.0,-2.4752400495174567,0.0
4527633662.9855,-13.41120559119213,0.0,-2.4367461688735945,0.0
4527648662.985,-13.415491946042174,0.0,-2.4347856662389296,0.0
4527663662.9845,-13.421846396154526,0.0,-2.4051997835808465,0.0
4527678662.984,-13.420845704106977,0.0,-2.421885098588423,0.0
4527693662.9835,-13.420747745615893,0.0,-2.476244677262035,0.0
4527708662.983,-13.426809987600105,0.0,-2.4698044125217447,0.0
4527723662.9825,-13.423085927129623,0.0,-2.461643460728351,0.0
4527738662.982,-13.419885239608039,0.0,-2.456412052113956,0.0
4527753662.9815,-13.413535874153606,0.0,-2.472522326079823,0.0
4527768662.981,-13.419981482753053,0.0,-2.48762733972176,0.0
4527783662.9805,-13.415038367496116,0.0,-2.5480643301406043,0.0
4527798662.98,-13.428834793414318,0.0,-2.4615548452832288,0.0
4527813662.9795,-13.414239045206465,0.0,-2.4468767633282895,0.0
4527828662.979,-13.419723233555649,0.0,-2.5672005603164525,0.0
4527843662.9785,-13.424039987813263,0.0,-2.4722838776582825,0.0
4527858662.978,-13.412476045549873,0.0,-2.5274608137552192,0.0
4527873662.9775,-13.432427194742669,0.0,-2.4927206966393327,0.0
4527888662.977,-13.422574333436259,0.0,-2.4201644120527557,0.0
4527903662.9765,-13.42979110231912,0.0,-2.532007884747646,0.0
4527918662.976,-13.421890819207093,0.0,-2.4889152924617903,0.0
4527933662.9755,-13.423974861226448,0.0,-2.4920859239811595,0.0
4527948662.975,-13.413479271188377,0.0,-2.50728049930251,0.0
4527963662.9745,-13.427371077992794,0.0,-2.4907736505506417,0.0
4527978662.974,-13.425162136609998,0.0,-2.5556968211581745,0.0
4527993662.9735,-13.427314526167006,0.0,-2.4649856887913693,0.0
4528008662.973,-13.420190787282237,0.0,-2.50229388276596,0.0
4528023662.9725,-13.419099135482742,0.0,-2.5529979259345077,0.0
4528038662.972,-13.421785484393586,0.0,-2.4920186126073296,0.0
4528053662.9715,-13.419581824524426,0.0,-2.5001985611054702,0.0
4528068662.971,-13.417917453219276,0.0,-2.460566175038773,0.0
4528083662.9705,-13.418744119543977,0.0,-2.4902211694290517,0.0
4528098662.97,-13.431302723130392,0.0,-2.5515277604421005,0.0
4528113662.9695,-13.412938747571221,0.0,-2.4898448523933077,0.0
4528128662.969,-13.428487268727578,0.0,-2.4981963402715603,0.0
4528143662.9685,-13.4304448675063,0.0,-2.521876058873308,0.0
4528158662.968,-13.413921949270762,0.0,-2.5395109038435444,0.0
4528173662.9675,-13.412965220131683,0.0,-2.530284908120745,0.0
4528188662.967,-13.423795925464885,0.0,-2.565336874914254,0.0
4528203662.9665,-13.419368005079617,0.0,-2.5464613830282277,0.0
4528218662.966,-13.425920769153894,0.0,-2.5494477776967277,0.0
4528233662.9655,-13.418752455029388,0.0,-2.5211982263591617,0.0
4528248662.965,-13.41958309863962,0.0,-2.528111014233577,0.0
4528263662.9645,-13.418061695842763,0.0,-2.541214655401599,0.0
4528278662.964,-13.420482368933486,0.0,-2.5862323473502133,0.0
4528293662.9635,-13.41562953821935,0.0,-2.4984427545152257,0.0
4528308662.963,-13.417698519408685,0.0,-2.5525711964765043,0.0
4528323662.9625,-13.418393689641768,0.0,-2.5577671147744283,0.0
4528338662.962,-13.416196395909983,0.0,-2.5184992948361633,0.0
4528353662.9615,-13.416769981358437,0.0,-2.5757223080595795,0.0
4528368662.961,-13.419730061785117,0.0,-2.534539266846139,0.0
4528383662.9605,-13.420026769818614,0.0,-2.557577644484049,0.0
4528398662.96,-13.42180947475745,0.0,-2.638458858889258,0.0
4528413662.9595,-13.418838378125326,0.0,-2.546225010556501,0.0
4528428662.959,-13.415006513431889,0.0,-2.5729093622700514,0.0
4528443662.9585,-13.417317993826408,0.0,-2.5662437398661853,0.0
4528458662.958,-13.417436580756682,0.0,-2.6008211671251584,0.0
4528473662.9575,-13.428328491995817,0.0,-2.585218310431554,0.0
4528488662.957,-13.421315421700754,0.0,-2.558784841703678,0.0
4528503662.9565,-13.430510153193394,0.0,-2.537590200724915,0.0
4528518662.956,-13.42183453135003,0.0,-2.551789398504987,0.0
4528533662.9555,-13.415550021536353,0.0,-2.597915508889068,0.0
4528548662.955,-13.42047704188033,0.0,-2.5627730593965437,0.0
4528563662.9545,-13.423958930742614,0.0,-2.6343842188456845,0.0
4528578662.954,-13.416610296491365,0.0,-2.6205826757517467,0.0
4528593662.9535,-13.418721473157959,0.0,-2.5984653682741135,0.0
4528608662.953,-13.429547395086821,0.0,-2.6085979531130628,0.0
4528623662.9525,-13.414303035768977,0.0,-2.600529407683189,0.0
4528638662.952,-13.42103773722095,0.0,-2.6355310847658275,0.0
4528653662.9515,-13.421348877034575,0.0,-2.5670008820554915,0.0
4528668662.951,-13.422141287222383,0.0,-2.5779990561355652,0.0
4528683662.9505,-13.413890252709898,0.0,-2.6189847717379444,0.0
4528698662.95,-13.416653605043702,0.0,-2.631866046208914,0.0
4528713662.9495,-13.423055054413132,0.0,-2.579766208705646,0.0
4528728662.949,-13.41737270026411,0.0,-2.580177601925146,0.0
4528743662.9485,-13.418558609857559,0.0,-2.668725555467965,0.0
4528758662.948,-13.423912755900087,0.0,-2.6069965189618944,0.0
4528773662.9475,-13.422282235312494,0.0,-2.5957464449338543,0.0
4528788662.947,-13.416203485413787,0.0,-2.597718458601089,0.0
4528803662.9465,-13.418989454035511,0.0,-2.7094226264027963,0.0
4528818662.946,-13.416968276640704,0.0,-2.591827898614392,0.0
4528833662.9455,-13.413974723429028,0.0,-2.6722930918536862,0.0
4528848662.945,-13.425825277277267,0.0,-2.6122758919565676,0.0
4528863662.9445,-13.421253004568744,0.0,-2.6463696701170893,0.0
4528878662.944,-13.41764180630253,0.0,-2.671888287293809,0.0
4528893662.9435,-13.42376749027261,0.0,-2.687472966576676,0.0
4528908662.943,-13.428318891845688,0.0,-2.666431513506435,0.0
4528923662.9425,-13.428894207542704,0.0,-2.6480869965156075,0.0
4528938662.942,-13.420764598154706,0.0,-2.6927632147564093,0.0
4528953662.9415,-13.424435091413534,0.0,-2.6206758431888186,0.0
4528968662.941,-13.426893478830719,0.0,-2.6578195167620167,0.0
4528983662.9405,-13.423294870922325,0.0,-2.658383503864602,0.0
4528998662.94,-13.417372485516468,0.0,-2.628619221287847,0.0
4529013662.9395,-13.428004213539822,0.0,-2.666768494842919,0.0
4529028662.939,-13.423141148322514,0.0,-2.61143448911714,0.0
4529043662.9385,-13.425752504843405,0.0,-2.6191132631082175,0.0
4529058662.938,-13.427415370622843,0.0,-2.5918904047708318,0.0
4529073662.9375,-13.424968589637384,0.0,-2.620643754964924,0.0
4529088662.937,-13.426073934421263,0.0,-2.7388881915878804,0.0
4529103662.9365,-13.419476219967068,0.0,-2.6890699679277454,0.0
4529118662.936,-13.425037464205413,0.0,-2.670950837372611,0.0
4529133662.9355,-13.417840015791036,0.0,-2.699886393956687,0.0
4529148662.935,-13.425721313623702,0.0,-2.6717635378088684,0.0
4529163662.9345,-13.421289408152015,0.0,-2.6628336567528987,0.0
4529178662.934,-13.425171195531211,0.0,-2.662241063445514,0.0
4529193662.9335,-13.42494896142767,0.0,-2.726797705428275,0.0
4529208662.933,-13.416394877658782,0.0,-2.7289529111829824,0.0
4529223662.9325,-13.416674881933586,0.0,-2.6972669554500466,0.0
4529238662.932,-13.427267799221845,0.0,-2.7312908327379373,0.0
4529253662.9315,-13.424785775933525,0.0,-2.749432277202083,0.0
4529268662.931,-13.425289975684398,0.0,-2.72430348897278,0.0
4529283662.9305,-13.432364551177455,0.0,-2.6658277182738312,0.0
4529298662.93,-13.421252642306117,0.0,-2.7161433874427585,0.0
4529313662.9295,-13.41447698686972,0.0,-2.7431625905765373,0.0
4529328662.929,-13.42436495072947,0.0,-2.6603808573279055,0.0
4529343662.9285,-13.431853926745408,0.0,-2.683542599233013,0.0
4529358662.928,-13.419752585141268,0.0,-2.6888066118767,0.0
4529373662.9275,-13.42590562705527,0.0,-2.712943395718504,0.0
4529388662.927,-13.419395017478976,0.0,-2.7112260406697586,0.0
4529403662.9265,-13.424572069309555,0.0,-2.6677719014888597,0.0
4529418662.926,-13.423010334835022,0.0,-2.719379250391658,0.0
4529433662.9255,-13.425245013159085,0.0,-2.6863753809004094,0.0
4529448662.925,-13.428776709769746,0.0,-2.7885400266832017,0.0
4529463662.9245,-13.422018390781574,0.0,-2.769412940264815,0.0
4529478662.924,-13.428247953255877,0.0,-2.7790270414326863,0.0
4529493662.9235,-13.422269865541193,0.0,-2.705627807874607,0.0
4529508662.923,-13.422527633761858,0.0,-2.760458640811371,0.0
4529523662.9225,-13.421079872979218,0.0,-2.7483413783352053,0.0
4529538662.922,-13.41892716638522,0.0,-2.7326119561287054,0.0
4529553662.9215,-13.427793169007815,0.0,-2.7291496232003984,0.0
4529568662.921,-13.41507041617993,0.0,-2.726148505016937,0.0
4529583662.9205,-13.435559088464865,0.0,-2.7739235976234022,0.0
4529598662.92,-13.421510368462146,0.0,-2.786645445740106,0.0
4529613662.9195,-13.427747040106938,0.0,-2.791775777971112,0.0
4529628662.919,-13.4202467568522,0.0,-2.742713161676636,0.0
4529643662.9185,-13.43174978190089,0.0,-2.7500749850353614,0.0
4529658662.918,-13.42735154952662,0.0,-2.7506287506123264,0.0
4529673662.9175,-13.430015847575213,0.0,-2.705844776007361,0.0
4529688662.917,-13.42620672333852,0.0,-2.7939442413959186,0.0
4529703662.9165,-13.423317939382715,0.0,-2.7698855885672313,0.0
4529718662.916,-13.421376310625906,0.0,-2.8062313573437296,0.0
4529733662.9155,-13.42455172541037,0.0,-2.8239085652188423,0.0
4529748662.915,-13.417128005029273,0.0,-2.849222927940906,0.0
4529763662.9145,-13.423941329347699,0.0,-2.852009445654801,0.0
4529778662.914,-13.429058699196393,0.0,-2.813141720868599,0.0
4529793662.9135,-13.430689705291076,0.0,-2.753846773803685,0.0
4529808662.913,-13.425706700156548,0.0,-2.8142130899241344,0.0
4529823662.9125,-13.418505338761621,0.0,-2.753588794550275,0.0
4529838662.912,-13.4258609888019,0.0,-2.828342166576733,0.0
4529853662.9115,-13.417199348447596,0.0,-2.775024237497088,0.0
4529868662.911,-13.429500841527492,0.0,-2.7828275872984243,0.0
4529883662.9105,-13.426015778485727,0.0,-2.8154441475988166,0.0
4529898662.91,-13.425371394534618,0.0,-2.9005867707644772,0.0
4529913662.9095,-13.434288246587796,0.0,-2.7877375442886594,0.0
4529928662.909,-13.431305821437773,0.0,-2.857393033908357,0.0
4529943662.9085,-13.425612296104214,0.0,-2.803869531578107,0.0
4529958662.908,-13.417765699390456,0.0,-2.8436255949532634,0.0
4529973662.9075,-13.43047205520288,0.0,-2.8207129479204682,0.0
4529988662.907,-13.43147847703072,0.0,-2.8335245734810837,0.0
4530003662.9065,-13.42278749126804,0.0,-2.812257792885193,0.0
4530018662.906,-13.4294422090184,0.0,-2.8220413696385327,0.0
4530033662.9055,-13.433307149515013,0.0,-2.850253668114989,0.0
4530048662.905,-13.421023968062386,0.0,-2.8615180204572206,0.0
4530063662.9045,-13.423624079574964,0.0,-2.885315855095084,0.0
4530078662.904,-13.42622230636313,0.0,-2.884012446586037,0.0
4530093662.9035,-13.42552701650646,0.0,-2.7922244066232706,0.0
4530108662.903,-13.425687994651408,0.0,-2.8446052963053745,0.0
4530123662.9025,-13.425380794759093,0.0,-2.8174629430402054,0.0
4530138662.902,-13.420491180782687,0.0,-2.818636513749896,0.0
4530153662.9015,-13.424558297924884,0.0,-2.8809807396902376,0.0
4530168662.901,-13.423618979623967,0.0,-2.9139564267861373,0.0
4530183662.9005,-13.429252690705235,0.0,-2.896398085737001,0.0
4530198662.9,-13.428913764134085,0.0,-2.8662673174093434,0.0
4530213662.8995,-13.420547221363123,0.0,-2.9046184711650453,0.0
4530228662.899,-13.431349122498219,0.0,-2.904783219244007,0.0
4530243662.8985,-13.430426692449979,0.0,-2.878664900837421,0.0
4530258662.898,-13.432810302767724,0.0,-2.8367398601202916,0.0
4530273662.8975,-13.430903435494098,0.0,-2.889868775288794,0.0
4530288662.897,-13.422396024392867,0.0,-2.8636587566283755,0.0
4530303662.8965,-13.42457559933715,0.0,-2.8650222400376735,0.0
4530318662.896,-13.419099913875666,0.0,-2.8851761200763315,0.0
4530333662.8955,-13.431580625540178,0.0,-2.925607913287513,0.0
4530348662.895,-13.435322383833784,0.0,-2.829923900832689,0.0
4530363662.8945,-13.423047620493264,0.0,-2.9210284828283677,0.0
4530378662.894,-13.430966556653752,0.0,-2.875783141240692,0.0
4530393662.8935,-13.423518991795117,0.0,-2.896744476288455,0.0
4530408662.893,-13.427494476428947,0.0,-2.8854741527423435,0.0
4530423662.8925,-13.429307511546295,0.0,-2.8838733754295753,0.0
4530438662.892,-13.433113013134793,0.0,-2.906578239049427,0.0
4530453662.8915,-13.426168173449287,0.0,-3.010359602157582,0.0
4530468662.891,-13.430878667606034,0.0,-2.9409812885277344,0.0
4530483662.8905,-13.425466272887999,0.0,-2.8558563413672204,0.0
4530498662.89,-13.427549786171307,0.0,-2.891589899962608,0.0
4530513662.8895,-13.422923422086367,0.0,-2.930262011454136,0.0
4530528662.889,-13.430255058013573,0.0,-2.904270574906211,0.0
4530543662.8885,-13.421936308446714,0.0,-2.952595082407926,0.0
4530558662.888,-13.428063471711848,0.0,-2.920816768516425,0.0
4530573662.8875,-13.423855479222572,0.0,-2.933208108748315,0.0
4530588662.887,-13.423878685272218,0.0,-2.9214931936590474,0.0
4530603662.8865,-13.432349146030013,0.0,-2.9286463640073266,0.0
4530618662.886,-13.424479599814077,0.0,-2.9855142244942767,0.0
4530633662.8855,-13.435383628838702,0.0,-3.0128858526137403,0.0
4530648662.885,-13.423616861930016,0.0,-2.942084689395944,0.0
4530663662.8845,-13.43264219195894,0.0,-2.9005585951459145,0.0
4530678662.884,-13.429367854655235,0.0,-2.969565380691638,0.0
4530693662.8835,-13.428269835304585,0.0,-2.989658032095682,0.0
4530708662.883,-13.437833130055985,0.0,-2.9552495648916373,0.0
4530723662.8825,-13.428190958308257,0.0,-3.007694532849202,0.0
4530738662.882,-13.428910080595784,0.0,-2.957184643731167,0.0
4530753662.8815,-13.433038798552177,0.0,-3.009998142904806,0.0
4530768662.881,-13.428047303317182,0.0,-3.0377812636883794,0.0
4530783662.8805,-13.432394307880152,0.0,-2.973862553909646,0.0
4530798662.88,-13.422386416361913,0.0,-2.973280702474046,0.0
4530813662.8795,-13.420492383945321,0.0,-3.0682275621709354,0.0
4530828662.879,-13.426210398082013,0.0,-2.96964233520151,0.0
4530843662.8785,-13.433079688169,0.0,-2.960414780659334,0.0
4530858662.878,-13.43703240973779,0.0,-2.999979437955767,0.0
4530873662.8775,-13.421735138564054,0.0,-3.03613471863449,0.0
4530888662.877,-13.425260476710692,0.0,-3.010850013297225,0.0
4530903662.8765,-13.431278654068429,0.0,-3.0938675075175954,0.0
4530918662.876,-13.43208264010923,0.0,-3.0378996836665637,0.0
4530933662.8755,-13.422079120818378,0.0,-3.0048374578783754,0.0
4530948662.875,-13.421079941981148,0.0,-3.031351245988515,0.0
4530963662.8745,-13.424439702110764,0.0,-3.009814725248987,0.0
4530978662.874,-13.431362517414865,0.0,-3.0507778057534254,0.0
4530993662.8735,-13.433674909837073,0.0,-2.987245430988165,0.0
4531008662.873,-13.422496347430561,0.0,-2.9804326116712674,0.0
4531023662.8725,-13.424583698276853,0.0,-3.042889194088899,0.0
4531038662.872,-13.435840526968912,0.0,-3.0503030676499177,0.0
4531053662.8715,-13.432598173930844,0.0,-3.032480417601664,0.0
4531068662.871,-13.4328763766228,0.0,-3.0047626456970145,0.0
4531083662.8705,-13.433340330541572,0.0,-3.04481079985544,0.0
4531098662.87,-13.42748350794051,0.0,-3.0703026406221547,0.0
4531113662.8695,-13.4308535039338,0.0,-3.0704595269241897,0.0
4531128662.869,-13.433705881987683,0.0,-3.0819730681221675,0.0
4531143662.8685,-13.441036097833132,0.0,-3.0066166840909996,0.0
4531158662.868,-13.434382581906103,0.0,-3.0816117801716967,0.0
4531173662.8675,-13.424399138271328,0.0,-3.1167382000793116,0.0
4531188662.867,-13.431781693233445,0.0,-3.0615573113961627,0.0
4531203662.8665,-13.430889737879985,0.0,-3.092605165714758,0.0
4531218662.866,-13.434007784995998,0.0,-3.099240553910934,0.0
4531233662.8655,-13.431163644981666,0.0,-3.0709490141256564,0.0
4531248662.865,-13.442508458763667,0.0,-3.0116442456496433,0.0
4531263662.8645,-13.427942691535396,0.0,-3.190352730620837,0.0
4531278662.864,-13.428465513556144,0.0,-3.112747966599004,0.0
4531293662.8635,-13.42879983746257,0.0,-3.0928463915953985,0.0
4531308662.863,-13.427711846669634,0.0,-3.106177148002181,0.0
4531323662.8625,-13.431838428680047,0.0,-3.077613354375403,0.0
4531338662.862,-13.423630075589879,0.0,-3.1390626485727515,0.0
4531353662.8615,-13.429360787048934,0.0,-3.105408430898061,0.0
4531368662.861,-13.427310251819613,0.0,-3.0998988276322224,0.0
4531383662.8605,-13.42233061301644,0.0,-3.0889883155550564,0.0
4531398662.86,-13.425972131101378,0.0,-3.1454402803457997,0.0
4531413662.8595,-13.439235590180402,0.0,-3.173684387312022,0.0
4531428662.859,-13.43031641762473,0.0,-3.146406867248384,0.0
4531443662.8585,-13.42404556825734,0.0,-3.114548807269143,0.0
4531458662.858,-13.43762503576974,0.0,-3.1358585553777294,0.0
4531473662.8575,-13.443320556035987,0.0,-3.1333635565046776,0.0
4531488662.857,-13.43635342463594,0.0,-3.1554567222880596,0.0
4531503662.8565,-13.437584833549,0.0,-3.1447330700726632,0.0
4531518662.856,-13.43511878967428,0.0,-3.126721812811908,0.0
4531533662.8555,-13.43411827461516,0.0,-3.1842807340011037,0.0
4531548662.855,-13.437351954702256,0.0,-3.1944999408994623,0.0
4531563662.8545,-13.432629470163528,0.0,-3.1442928604085694,0.0
4531578662.854,-13.4396582329434,0.0,-3.1381438627220173,0.0
4531593662.8535,-13.424105836404587,0.0,-3.138439582431023,0.0
4531608662.853,-13.443315528026417,0.0,-3.1390309218826005,0.0
4531623662.8525,-13.442669930968329,0.0,-3.189683078315906,0.0
4531638662.852,-13.42543403640823,0.0,-3.2049177126814286,0.0
4531653662.8515,-13.428745869031689,0.0,-3.1444345109046368,0.0
4531668662.851,-13.435096898801921,0.0,-3.1992253241270676,0.0
4531683662.8505,-13.428879329492755,0.0,-3.197634806462251,0.0
4531698662.85,-13.435152398120017,0.0,-3.180046389670192,0.0
4531713662.8495,-13.443329272562409,0.0,-3.222783217918728,0.0
4531728662.849,-13.435448220160106,0.0,-3.2244763805039924,0.0
4531743662.8485,-13.439277256173641,0.0,-3.1872455824233805,0.0
4531758662.848,-13.435678440662828,0.0,-3.2076642266709587,0.0
4531773662.8475,-13.426925927782573,0.0,-3.1972692521430814,0.0
4531788662.847,-13.424729097069035,0.0,-3.2523983914257,0.0
4531803662.8465,-13.432672596254886,0.0,-3.2045123510219726,0.0
4531818662.846,-13.43734919441921,0.0,-3.2198630712630263,0.0
4531833662.8455,-13.437588878652553,0.0,-3.2704994553442224,0.0
4531848662.845,-13.430095777488738,0.0,-3.1927570405600108,0.0
4531863662.8445,-13.43362016502459,0.0,-3.223853309683355,0.0
4531878662.844,-13.432472694479403,0.0,-3.2612808393232173,0.0
