Frequency,S11,S11-Q,S11-Phase,S11-Phase-Q
4527198663.0,-13.434110229066501,0.0,-2.4576375176594687,0.0
4527213662.9995,-13.432851379962452,0.0,-2.5389448493416085,0.0
4527228662.999,-13.434974182671656,0.0,-2.4982113488894853,0.0
4527243662.9985,-13.42548474995646,0.0,-2.572268651850463,0.0
4527258662.998,-13.42404316489408,0.0,-2.5831864305513035,0.0
4527273662.9975,-13.425516685002137,0.0,-2.5160404449255513,0.0
4527288662.997,-13.429152842971675,0.0,-2.5919226024278674,0.0
4527303662.9965,-13.423004503861002,0.0,-2.5850836003301425,0.0
4527318662.996,-13.424658417930821,0.0,-2.5229754433050346,0.0
4527333662.9955,-13.4223176347112,0.0,-2.5494764337976688,0.0
4527348662.995,-13.436172969808165,0.0,-2.5739490976972204,0.0
4527363662.9945,-13.433164920153885,0.0,-2.5424344857448733,0.0
4527378662.994,-13.438985206159185,0.0,-2.5434477419903043,0.0
4527393662.9935,-13.43006902397562,0.0,-2.541129763323956,0.0
4527408662.993,-13.435685210553768,0.0,-2.5544093493117637,0.0
4527423662.9925,-13.433908045120592,0.0,-2.5717785220066016,0.0
4527438662.992,-13.416461567118745,0.0,-2.572091322208777,0.0
4527453662.9915,-13.42638361819378,0.0,-2.565951980938172,0.0
4527468662.991,-13.429401765879536,0.0,-2.5416321244485993,0.0
4527483662.9905,-13.436407948569611,0.0,-2.572107321958521,0.0
4527498662.99,-13.430803545862823,0.0,-2.540565479579452,0.0
4527513662.9895,-13.422554844292339,0.0,-2.5079247887444343,0.0
4527528662.989,-13.42872082429871,0.0,-2.6556943979447545,0.0
4527543662.9885,-13.42645911431678,0.0,-2.5728565612403247,0.0
4527558662.988,-13.419988349049497,0.0,-2.557825547473699,0.0
4527573662.9875,-13.42477429720291,0.0,-2.565691539803438,0.0
4527588662.987,-13.43507612949233,0.0,-2.5286326089683215,0.0
4527603662.9865,-13.427424228177347,0.0,-2.5881255917889265,0.0
4527618662.986,-13.425117929257768,0.0,-2.561933871133005,0.0
4527633662.9855,-13.428492872324318,0.0,-2.6127776835227396,0.0
4527648662.985,-13.427760318915599,0.0,-2.610079245043359,0.0
4527663662.9845,-13.43578131991569,0.0,-2.6605244052197996,0.0
4527678662.984,-13.420853373874603,0.0,-2.5783859558019198,0.0
4527693662.9835,-13.427956790052528,0.0,-2.5486877204732132,0.0
4527708662.983,-13.429172415044281,0.0,-2.56337047788642,0.0
4527723662.9825,-13.430601403793307,0.0,-2.60707391017186,0.0
4527738662.982,-13.43597511913468,0.0,-2.6033313577832082,0.0
4527753662.9815,-13.424174390451267,0.0,-2.577548948325978,0.0
4527768662.981,-13.419105913876809,0.0,-2.5870594459087966,0.0
4527783662.9805,-13.425787025809928,0.0,-2.701022651745494,0.0
4527798662.98,-13.422432263999521,0.0,-2.595994291370773,0.0
4527813662.9795,-13.424779262112427,0.0,-2.5887406672376825,0.0
4527828662.979,-13.431439664460683,0.0,-2.6000463210216656,0.0
4527843662.9785,-13.434294770284145,0.0,-2.594613610131877,0.0
4527858662.978,-13.428337955303487,0.0,-2.6386474037919134,0.0
4527873662.9775,-13.427482062620035,0.0,-2.5922178621270113,0.0
4527888662.977,-13.428474755460583,0.0,-2.6204967489898676,0.0
4527903662.9765,-13.428878493823792,0.0,-2.5861508922791026,0.0
4527918662.976,-13.420704136783986,0.0,-2.640640264500189,0.0
4527933662.9755,-13.422262867363582,0.0,-2.5694050794419225,0.0
4527948662.975,-13.437823409671815,0.0,-2.610914230317556,0.0
4527963662.9745,-13.42812131494771,0.0,-2.629315403044789,0.0
4527978662.974,-13.426112288455858,0.0,-2.562661513059578,0.0
4527993662.9735,-13.433979621921475,0.0,-2.61350061407315,0.0
4528008662.973,-13.434101635862898,0.0,-2.6888296778509755,0.0
4528023662.9725,-13.430023471112422,0.0,-2.6454567153688537,0.0
4528038662.972,-13.429288197770614,0.0,-2.655904474857965,0.0
4528053662.9715,-13.428990776864726,0.0,-2.666304694511634,0.0
4528068662.971,-13.424284614992548,0.0,-2.6505226456816766,0.0
4528083662.9705,-13.430793240093742,0.0,-2.6249290661507385,0.0
4528098662.97,-13.428517325553322,0.0,-2.6731518366149443,0.0
4528113662.9695,-13.427985382508203,0.0,-2.622131978761277,0.0
4528128662.969,-13.425746799664513,0.0,-2.6071180641902307,0.0
4528143662.9685,-13.428612899846282,0.0,-2.593325511005798,0.0
4528158662.968,-13.425848384645764,0.0,-2.6384869305639898,0.0
4528173662.9675,-13.421472132119058,0.0,-2.620970864197001,0.0
4528188662.967,-13.42052922157675,0.0,-2.629212422907265,0.0
4528203662.9665,-13.429966888689886,0.0,-2.626854091896132,0.0
4528218662.966,-13.424610572363019,0.0,-2.6623290940700146,0.0
4528233662.9655,-13.430996439009984,0.0,-2.62314361234591,0.0
4528248662.965,-13.438835003937,0.0,-2.687792322064856,0.0
4528263662.9645,-13.42603716154434,0.0,-2.692030794162806,0.0
4528278662.964,-13.430872571538035,0.0,-2.729615107280765,0.0
4528293662.9635,-13.437163556896705,0.0,-2.643121723105372,0.0
4528308662.963,-13.427730910984433,0.0,-2.6851616535215936,0.0
4528323662.9625,-13.42588983800903,0.0,-2.6952226820367424,0.0
4528338662.962,-13.432869428161357,0.0,-2.6849433930217383,0.0
4528353662.9615,-13.439011385229517,0.0,-2.7418447448368974,0.0
4528368662.961,-13.433308531060737,0.0,-2.6579597763006872,0.0
4528383662.9605,-13.422776821574454,0.0,-2.7147540167491457,0.0
4528398662.96,-13.433000813315235,0.0,-2.597748294117654,0.0
4528413662.9595,-13.43472656231887,0.0,-2.680851972426386,0.0
4528428662.959,-13.42729642263629,0.0,-2.6828388395970295,0.0
4528443662.9585,-13.428507087192731,0.0,-2.7489280015177693,0.0
4528458662.958,-13.431304491228973,0.0,-2.7096642125465666,0.0
4528473662.9575,-13.425208837516632,0.0,-2.700881597486703,0.0
4528488662.957,-13.429997669086028,0.0,-2.743834299261877,0.0
4528503662.9565,-13.437638812709533,0.0,-2.7138083420538166,0.0
4528518662.956,-13.432729594801414,0.0,-2.7391182689065583,0.0
4528533662.9555,-13.435534825703979,0.0,-2.6723382278265637,0.0
4528548662.955,-13.43754460167868,0.0,-2.7411309404991164,0.0
4528563662.9545,-13.420074560192724,0.0,-2.697147522783956,0.0
4528578662.954,-13.428923018222203,0.0,-2.743354585516658,0.0
4528593662.9535,-13.429375615937154,0.0,-2.778591217841687,0.0
4528608662.953,-13.431824992378589,0.0,-2.673601273438954,0.0
4528623662.9525,-13.42940318601512,0.0,-2.773994394857222,0.0
4528638662.952,-13.440603148738536,0.0,-2.7643237205443363,0.0
4528653662.9515,-13.425670007341704,0.0,-2.717969705853755,0.0
4528668662.951,-13.433986248327054,0.0,-2.7812025155820446,0.0
4528683662.9505,-13.427024756241746,0.0,-2.777432818031696,0.0
4528698662.95,-13.431038892420606,0.0,-2.7566635458829447,0.0
4528713662.9495,-13.421760229703096,0.0,-2.7740934337257106,0.0
4528728662.949,-13.426078163150352,0.0,-2.6953208719597246,0.0
4528743662.9485,-13.42899130488953,0.0,-2.80822776598872,0.0
4528758662.948,-13.436659206341321,0.0,-2.795694172486692,0.0
4528773662.9475,-13.431341134953389,0.0,-2.808540164760925,0.0
4528788662.947,-13.437077032488121,0.0,-2.8074939141792066,0.0
4528803662.9465,-13.42612886851342,0.0,-2.7880909615726557,0.0
4528818662.946,-13.435502411774216,0.0,-2.764118225766297,0.0
4528833662.9455,-13.418418156842547,0.0,-2.7589848513998456,0.0
4528848662.945,-13.427845693683945,0.0,-2.845167564420858,0.0
4528863662.9445,-13.434283742413154,0.0,-2.775880450325312,0.0
4528878662.944,-13.429670009815586,0.0,-2.7396707857772005,0.0
4528893662.9435,-13.427962934862576,0.0,-2.787671879142189,0.0
4528908662.943,-13.425897430252787,0.0,-2.800733233320607,0.0
4528923662.9425,-13.435122423361419,0.0,-2.8255041363138638,0.0
4528938662.942,-13.428311173725112,0.0,-2.8579500998842047,0.0
4528953662.9415,-13.427417078354928,0.0,-2.8352287643764833,0.0
4528968662.941,-13.432156272394938,0.0,-2.8266666337032436,0.0
4528983662.9405,-13.435224003967923,0.0,-2.8021693456555,0.0
4528998662.94,-13.430553238319824,0.0,-2.721285515246262,0.0
4529013662.9395,-13.432759661284363,0.0,-2.80916042343706,0.0
4529028662.939,-13.433301026227424,0.0,-2.869574694622937,0.0
4529043662.9385,-13.43356483618275,0.0,-2.8486528937300766,0.0
4529058662.938,-13.434999111152099,0.0,-2.8256093038587444,0.0
4529073662.9375,-13.435570408938517,0.0,-2.8252477106029787,0.0
4529088662.937,-13.428946905073031,0.0,-2.8518235559906833,0.0
4529103662.9365,-13.425085501615467,0.0,-2.8405197923571217,0.0
4529118662.936,-13.437693509232307,0.0,-2.786366596271816,0.0
4529133662.9355,-13.420168454008332,0.0,-2.874234101753475,0.0
4529148662.935,-13.432199114920472,0.0,-2.8839922818468495,0.0
4529163662.9345,-13.435124620016563,0.0,-2.827228688934052,0.0
4529178662.934,-13.43660736600242,0.0,-2.8206040075905396,0.0
4529193662.9335,-13.442432189134275,0.0,-2.836145752156265,0.0
4529208662.933,-13.428098177576949,0.0,-2.8513718367367455,0.0
4529223662.9325,-13.42986965053714,0.0,-2.8762767233392186,0.0
4529238662.932,-13.424161477044162,0.0,-2.804994679952309,0.0
4529253662.9315,-13.430401453670783,0.0,-2.8987660609159063,0.0
4529268662.931,-13.436318205793851,0.0,-2.846274988078835,0.0
4529283662.9305,-13.438996780030628,0.0,-2.900292522196034,0.0
4529298662.93,-13.436720595105244,0.0,-2.8269930157037795,0.0
4529313662.9295,-13.436659271142105,0.0,-2.8998125489920614,0.0
4529328662.929,-13.427295697317764,0.0,-2.8840455978286146,0.0
4529343662.9285,-13.42829047350833,0.0,-2.8892431795371447,0.0
4529358662.928,-13.428027280980693,0.0,-2.887175395317715,0.0
4529373662.9275,-13.426551715226939,0.0,-2.814519961332277,0.0
4529388662.927,-13.436953169141272,0.0,-2.842402182228164,0.0
4529403662.9265,-13.432647876830732,0.0,-2.838794336886715,0.0
4529418662.926,-13.431791136271062,0.0,-2.9347550190219747,0.0
4529433662.9255,-13.437745459060668,0.0,-2.937065340821646,0.0
4529448662.925,-13.431501818819607,0.0,-2.8791339332863437,0.0
4529463662.9245,-13.4416748014109,0.0,-2.877197039877521,0.0
4529478662.924,-13.425038121458194,0.0,-2.8999799562291018,0.0
4529493662.9235,-13.428461950779432,0.0,-2.95652890384709,0.0
4529508662.923,-13.427674099909945,0.0,-2.8575106708406475,0.0
4529523662.9225,-13.433050201485877,0.0,-2.9089482899299863,0.0
4529538662.922,-13.425540375511929,0.0,-2.875074389420334,0.0
4529553662.9215,-13.440386768282027,0.0,-2.912336197668829,0.0
4529568662.921,-13.440604792400073,0.0,-2.9313250084814793,0.0
4529583662.9205,-13.4333871987465,0.0,-2.8961341142531296,0.0
4529598662.92,-13.42755270611299,0.0,-2.918854311083073,0.0
4529613662.9195,-13.431808606029598,0.0,-2.9384247714064355,0.0
4529628662.919,-13.423967393585894,0.0,-2.953938626070201,0.0
4529643662.9185,-13.431369022872026,0.0,-2.884828864726994,0.0
4529658662.918,-13.439524553113905,0.0,-2.8829071836396056,0.0
4529673662.9175,-13.44031736621467,0.0,-2.908177918064611,0.0
4529688662.917,-13.440620558526497,0.0,-2.935694020692846,0.0
4529703662.9165,-13.430730094752406,0.0,-2.972241837466231,0.0
4529718662.916,-13.431659449822464,0.0,-2.9054832271097433,0.0
4529733662.9155,-13.423435437196567,0.0,-2.948344636803277,0.0
4529748662.915,-13.42091611274195,0.0,-3.020043834686927,0.0
4529763662.9145,-13.440306504795531,0.0,-2.949526121312271,0.0
4529778662.914,-13.435000819346916,0.0,-2.973842920615743,0.0
4529793662.9135,-13.427525219730466,0.0,-2.960927208773617,0.0
4529808662.913,-13.425257331378885,0.0,-3.0045317968477336,0.0
4529823662.9125,-13.443587180519255,0.0,-3.018469562882586,0.0
4529838662.912,-13.435735608277035,0.0,-3.012643391161618,0.0
4529853662.9115,-13.428748514181876,0.0,-3.022742324368103,0.0
4529868662.911,-13.431502398889146,0.0,-2.9785755034483192,0.0
4529883662.9105,-13.427883200241018,0.0,-3.0064511829845686,0.0
4529898662.91,-13.428489673942936,0.0,-3.054368995180078,0.0
4529913662.9095,-13.439564409553428,0.0,-2.9750195708388913,0.0
4529928662.909,-13.444972189456292,0.0,-2.962875729307274,0.0
4529943662.9085,-13.433539659473547,0.0,-2.9470960824162016,0.0
4529958662.908,-13.44110139995476,0.0,-2.9978537690377025,0.0
4529973662.9075,-13.43251069887603,0.0,-2.9668427948548977,0.0
4529988662.907,-13.426021546378102,0.0,-3.013844482456001,0.0
4530003662.9065,-13.42864722173616,0.0,-3.0324656595655006,0.0
4530018662.906,-13.440638140532176,0.0,-2.9957166288064916,0.0
4530033662.9055,-13.435908823238211,0.0,-3.0784354326568133,0.0
4530048662.905,-13.435659580651471,0.0,-3.0366613366986597,0.0
4530063662.9045,-13.445794444602814,0.0,-2.9622616798589148,0.0
4530078662.904,-13.448483154165267,0.0,-2.980530928395742,0.0
4530093662.9035,-13.441236626356037,0.0,-2.9638048956366907,0.0
4530108662.903,-13.431434284687693,0.0,-3.041367252544869,0.0
4530123662.9025,-13.432193182090156,0.0,-3.0344459155038312,0.0
4530138662.902,-13.435781885161129,0.0,-3.105226343225351,0.0
4530153662.9015,-13.430110879571371,0.0,-3.135989173577642,0.0
4530168662.901,-13.427112955944079,0.0,-3.019457091456467,0.0
4530183662.9005,-13.433721077491143,0.0,-3.0277175947910075,0.0
4530198662.9,-13.436162198941679,0.0,-3.070069820626213,0.0
4530213662.8995,-13.43439990483625,0.0,-3.0759351233429686,0.0
4530228662.899,-13.432718717974677,0.0,-3.050017897644021,0.0
4530243662.8985,-13.434447166897154,0.0,-3.1393853883910996,0.0
4530258662.898,-13.431838829505251,0.0,-3.030199990298073,0.0
4530273662.8975,-13.437645624817083,0.0,-3.0683472107741165,0.0
4530288662.897,-13.439794903255734,0.0,-3.1069555913585147,0.0
4530303662.8965,-13.432413301579027,0.0,-3.0097075752451974,0.0
4530318662.896,-13.437481602270235,0.0,-3.100445022503354,0.0
4530333662.8955,-13.44450987509619,0.0,-3.1056908912589556,0.0
4530348662.895,-13.44254291949213,0.0,-3.085168782542679,0.0
4530363662.8945,-13.436286442196423,0.0,-3.0444040302042894,0.0
4530378662.894,-13.439880208529216,0.0,-3.0626844886244142,0.0
4530393662.8935,-13.448965972682768,0.0,-3.0499310180617756,0.0
4530408662.893,-13.43453367143068,0.0,-3.080805616321872,0.0
4530423662.8925,-13.44430285273711,0.0,-3.181010467714264,0.0
4530438662.892,-13.431671260054717,0.0,-3.0673950200862397,0.0
4530453662.8915,-13.438545855154318,0.0,-3.1406564584593646,0.0
4530468662.891,-13.435434944683953,0.0,-3.0569570685065566,0.0
4530483662.8905,-13.434607497036717,0.0,-3.069686070683144,0.0
4530498662.89,-13.440566988797942,0.0,-3.0646940861535272,0.0
4530513662.8895,-13.442626258785868,0.0,-3.13573600420132,0.0
4530528662.889,-13.42250795148012,0.0,-3.162130963303702,0.0
4530543662.8885,-13.42806229724681,0.0,-3.1650056397832085,0.0
4530558662.888,-13.430755369590246,0.0,-3.0881170286281074,0.0
4530573662.8875,-13.433495670433327,0.0,-3.0934148698496973,0.0
4530588662.887,-13.433833246741198,0.0,-3.076414303940727,0.0
4530603662.8865,-13.437004355058988,0.0,-3.147077099390811,0.0
4530618662.886,-13.441556915925155,0.0,-3.160195876000171,0.0
4530633662.8855,-13.438779581018544,0.0,-3.1491633647493087,0.0
4530648662.885,-13.430831594558368,0.0,-3.1569800791114337,0.0
4530663662.8845,-13.426708982534127,0.0,-3.1798804933847515,0.0
4530678662.884,-13.428250979166144,0.0,-3.1303171941772847,0.0
4530693662.8835,-13.444045662923967,0.0,-3.1691861006181803,0.0
4530708662.883,-13.44792115767418,0.0,-3.172510060090413,0.0
4530723662.8825,-13.451672835988763,0.0,-3.087913764198749,0.0
4530738662.882,-13.431434628978012,0.0,-3.135726607039997,0.0
4530753662.8815,-13.43359251566387,0.0,-3.165071392840838,0.0
4530768662.881,-13.433649284264577,0.0,-3.179179546955545,0.0
4530783662.8805,-13.429880613000858,0.0,-3.1502294922230054,0.0
4530798662.88,-13.438268313789724,0.0,-3.218818945447562,0.0
4530813662.8795,-13.441097075823283,0.0,-3.256941161655558,0.0
4530828662.879,-13.440201268769487,0.0,-3.12444212844809,0.0
4530843662.8785,-13.433615702570654,0.0,-3.18458598370111,0.0
4530858662.878,-13.44410156152527,0.0,-3.1562781264884587,0.0
4530873662.8775,-13.449388901862774,0.0,-3.186517174362086,0.0
4530888662.877,-13.4415481354256,0.0,-3.2276455359107965,0.0
4530903662.8765,-13.429016752965106,0.0,-3.2614390880603175,0.0
4530918662.876,-13.427847597179074,0.0,-3.2522496637407214,0.0
4530933662.8755,-13.436940626987369,0.0,-3.221148926275906,0.0
4530948662.875,-13.43433309452562,0.0,-3.1852213370286875,0.0
4530963662.8745,-13.43138921401135,0.0,-3.2487960242515337,0.0
4530978662.874,-13.442558269931386,0.0,-3.244603009102501,0.0
4530993662.8735,-13.447122558610086,0.0,-3.237722661167075,0.0
4531008662.873,-13.442058844835811,0.0,-3.1613617965539245,0.0
4531023662.8725,-13.439377343959489,0.0,-3.199098012721895,0.0
4531038662.872,-13.445811279019352,0.0,-3.2956357630998516,0.0
4531053662.8715,-13.434664941965135,0.0,-3.318650583954302,0.0
4531068662.871,-13.438371633789071,0.0,-3.2883799077339546,0.0
4531083662.8705,-13.438796973182969,0.0,-3.210835928475577,0.0
4531098662.87,-13.440362412624921,0.0,-3.3021490203470236,0.0
4531113662.8695,-13.444174428553373,0.0,-3.2684286521676653,0.0
4531128662.869,-13.442326793319616,0.0,-3.2163845815502152,0.0
4531143662.8685,-13.430395283165097,0.0,-3.271804769549742,0.0
4531158662.868,-13.437407719840317,0.0,-3.2376816470839245,0.0
4531173662.8675,-13.432484999555125,0.0,-3.251597043119976,0.0
4531188662.867,-13.432897632436823,0.0,-3.3421116966075504,0.0
4531203662.8665,-13.445661800421787,0.0,-3.2626678368121533,0.0
4531218662.866,-13.436227036643798,0.0,-3.220359035148819,0.0
4531233662.8655,-13.446978686619055,0.0,-3.2345481250967594,0.0
4531248662.865,-13.445409535875807,0.0,-3.287586240700551,0.0
4531263662.8645,-13.443036236143282,0.0,-3.3057731935262047,0.0
4531278662.864,-13.434293088780379,0.0,-3.246209920741668,0.0
4531293662.8635,-13.431098968783854,0.0,-3.348197469767716,0.0
4531308662.863,-13.434194028588962,0.0,-3.309744976043543,0.0
4531323662.8625,-13.439312948094425,0.0,-3.3579133073134244,0.0
4531338662.862,-13.447464640217326,0.0,-3.326080777436552,0.0
4531353662.8615,-13.432398560202685,0.0,-3.262734013313316,0.0
4531368662.861,-13.450416474981232,0.0,-3.3136485923118637,0.0
4531383662.8605,-13.437795597276043,0.0,-3.2953167718111644,0.0
4531398662.86,-13.433064659487474,0.0,-3.234086345658827,0.0
4531413662.8595,-13.445139716293756,0.0,-3.4202898677257783,0.0
4531428662.859,-13.427650585028829,0.0,-3.33129651113391,0.0
4531443662.8585,-13.431332205089175,0.0,-3.330928502979501,0.0
4531458662.858,-13.440807287899707,0.0,-3.341238962106893,0.0
4531473662.8575,-13.442288086378273,0.0,-3.3529719195864494,0.0
4531488662.857,-13.444650033546093,0.0,-3.336593661538948,0.0
4531503662.8565,-13.433382137700365,0.0,-3.3749289700149148,0.0
4531518662.856,-13.44879804925908,0.0,-3.3721638670747414,0.0
4531533662.8555,-13.436703188428199,0.0,-3.390182110531231,0.0
4531548662.855,-13.445675922928814,0.0,-3.390960759936646,0.0
4531563662.8545,-13.434249789576532,0.0,-3.3894980196034417,0.0
4531578662.854,-13.431917397759355,0.0,-3.400653370061392,0.0
4531593662.8535,-13.433661819041534,0.0,-3.4054955028370304,0.0
4531608662.853,-13.446372943175986,0.0,-3.393657756628161,0.0
4531623662.8525,-13.444598350693383,0.0,-3.4516603540024504,0.0
4531638662.852,-13.448546604887897,0.0,-3.3791477214024845,0.0
4531653662.8515,-13.44345147062211,0.0,-3.4362422916543545,0.0
4531668662.851,-13.434379336005609,0.0,-3.4380087946969784,0.0
4531683662.8505,-13.440406337443028,0.0,-3.4479861694187424,0.0
4531698662.85,-13.430832071301976,0.0,-3.4310060407220804,0.0
4531713662.8495,-13.440089642168296,0.0,-3.3446491079407172,0.0
4531728662.849,-13.441191041999396,0.0,-3.386890235361905,0.0
4531743662.8485,-13.44349239387246,0.0,-3.4408728227337737,0.0
4531758662.848,-13.433982132436748,0.0,-3.3800914982224413,0.0
4531773662.8475,-13.448796745278235,0.0,-3.4027189550959793,0.0
4531788662.847,-13.448838465142476,0.0,-3.4510782329621352,0.0
4531803662.8465,-13.445356860924473,0.0,-3.4146682672905437,0.0
4531818662.846,-13.436458583130538,0.0,-3.4360321940988174,0.0
4531833662.8455,-13.42989306350066,0.0,-3.432802978084133,0.0
4531848662.845,-13.43805009865071,0.0,-3.4680419135468705,0.0
4531863662.8445,-13.456893624456164,0.0,-3.4529711062623316,0.0
4531878662.844,-13.43863750656357,0.0,-3.4349225001554946,0.0
