Frequency,S11,S11-Q,S11-Phase,S11-Phase-Q
4527198663.0,-13.408914511362195,0.0,-2.8651232020204396,0.0
4527213662.9995,-13.407843564304558,0.0,-2.8231207244737506,0.0
4527228662.999,-13.41301441362559,0.0,-2.8456702428286977,0.0
4527243662.9985,-13.40934834024962,0.0,-2.852902367845424,0.0
4527258662.998,-13.409111974029544,0.0,-2.8378720095688648,0.0
4527273662.9975,-13.403979384259344,0.0,-2.817405177784407,0.0
4527288662.997,-13.4059446904854,0.0,-2.8771190741354613,0.0
4527303662.9965,-13.404745926409474,0.0,-2.856290769133323,0.0
4527318662.996,-13.404611498459925,0.0,-2.868268276711629,0.0
4527333662.9955,-13.402581697011431,0.0,-2.8555330007717705,0.0
4527348662.995,-13.410781992401752,0.0,-2.876955691113225,0.0
4527363662.9945,-13.401856751169438,0.0,-2.8504175784425674,0.0
4527378662.994,-13.40602287364812,0.0,-2.8478233695361412,0.0
4527393662.9935,-13.402719577776157,0.0,-2.82514193305276,0.0
4527408662.993,-13.413758925517909,0.0,-2.8077938128879114,0.0
4527423662.9925,-13.402727131897773,0.0,-2.8788963609817437,0.0
4527438662.992,-13.416998538631532,0.0,-2.831861783992404,0.0
4527453662.9915,-13.417865577094666,0.0,-2.9082230718925737,0.0
4527468662.991,-13.413548231518801,0.0,-2.8409202977640677,0.0
4527483662.9905,-13.407668656633572,0.0,-2.8409516865988382,0.0
4527498662.99,-13.408228108252924,0.0,-2.861775132817148,0.0
4527513662.9895,-13.407925713071648,0.0,-2.9096065912604,0.0
4527528662.989,-13.40715629522376,0.0,-2.9289706224896035,0.0
4527543662.9885,-13.40530086400269,0.0,-2.9312742893357604,0.0
4527558662.988,-13.408024350688537,0.0,-2.8668473347329453,0.0
4527573662.9875,-13.410516548291813,0.0,-2.932038708829837,0.0
4527588662.987,-13.406076842143936,0.0,-2.942313723161761,0.0
4527603662.9865,-13.41138343859013,0.0,-2.869764514138511,0.0
4527618662.986,-13.409136059500694,0.0,-2.9385112712841814,0.0
4527633662.9855,-13.411277111445099,0.0,-2.9164031460781756,0.0
4527648662.985,-13.405730386925113,0.0,-2.9171311196403997,0.0
4527663662.9845,-13.41203646099008,0.0,-2.8888802849176485,0.0
4527678662.984,-13.410841956841363,0.0,-2.907875923967901,0.0
4527693662.9835,-13.413695826737452,0.0,-2.898164679178662,0.0
4527708662.983,-13.407968474276952,0.0,-2.9568257218825207,0.0
4527723662.9825,-13.396120942266398,0.0,-2.9032205259911947,0.0
4527738662.982,-13.403962848335102,0.0,-2.9230959635852782,0.0
4527753662.9815,-13.408618681449486,0.0,-2.923048722345878,0.0
4527768662.981,-13.412704707449034,0.0,-2.955006493266789,0.0
4527783662.9805,-13.413710034251158,0.0,-2.969089284830674,0.0
4527798662.98,-13.420680942726861,0.0,-2.9434554119516823,0.0
4527813662.9795,-13.410453691778415,0.0,-2.9729282817761784,0.0
4527828662.979,-13.401452597095043,0.0,-2.9314363095111493,0.0
4527843662.9785,-13.414307894509873,0.0,-2.9080753242837707,0.0
4527858662.978,-13.41399460172302,0.0,-2.94302193092339,0.0
4527873662.9775,-13.417970839552725,0.0,-2.9639653655184865,0.0
4527888662.977,-13.40076857573251,0.0,-2.9795653122603314,0.0
4527903662.9765,-13.413698234108239,0.0,-2.964582447503476,0.0
4527918662.976,-13.403745173578589,0.0,-2.9707107527129826,0.0
4527933662.9755,-13.412130418841766,0.0,-2.9237094314325156,0.0
4527948662.975,-13.404439679144122,0.0,-2.953567563432013,0.0
4527963662.9745,-13.418191839317963,0.0,-2.9382305495060796,0.0
4527978662.974,-13.413899568027697,0.0,-2.9583629107565668,0.0
4527993662.9735,-13.411280825127792,0.0,-2.979110605454373,0.0
4528008662.973,-13.406330171392662,0.0,-2.9717872784213495,0.0
4528023662.9725,-13.414937499956306,0.0,-2.909934930426245,0.0
4528038662.972,-13.408273926880037,0.0,-2.946233249900604,0.0
4528053662.9715,-13.411680333954788,0.0,-2.9738541990836653,0.0
4528068662.971,-13.420820775356058,0.0,-2.9475612157109348,0.0
4528083662.9705,-13.408178564142876,0.0,-2.9998547503529838,0.0
4528098662.97,-13.416860508245882,0.0,-2.9795475401646754,0.0
4528113662.9695,-13.410161875739352,0.0,-2.9863710802306516,0.0
4528128662.969,-13.412750797993233,0.0,-2.9922364054449733,0.0
4528143662.9685,-13.413810380355944,0.0,-2.9844724266270104,0.0
4528158662.968,-13.406616225303269,0.0,-3.013251885641895,0.0
4528173662.9675,-13.403359904153138,0.0,-2.9509014769618345,0.0
4528188662.967,-13.413630368212107,0.0,-3.0112382501438373,0.0
4528203662.9665,-13.417220600005304,0.0,-3.0553899912509723,0.0
4528218662.966,-13.40917025117042,0.0,-3.0105045933797943,0.0
4528233662.9655,-13.42011213658319,0.0,-3.007450726654756,0.0
4528248662.965,-13.411824621067733,0.0,-2.955967494530914,0.0
4528263662.9645,-13.417294964816605,0.0,-3.0953546508298424,0.0
4528278662.964,-13.404197487460252,0.0,-2.9635208050142214,0.0
4528293662.9635,-13.4057280155705,0.0,-3.002432519068281,0.0
4528308662.963,-13.405179881303424,0.0,-3.0252370775536765,0.0
4528323662.9625,-13.411923776679984,0.0,-3.0307552202085817,0.0
4528338662.962,-13.418410983861529,0.0,-3.000123083607402,0.0
4528353662.9615,-13.41333440114771,0.0,-3.0048472922460654,0.0
4528368662.961,-13.413897060899018,0.0,-3.029414294990045,0.0
4528383662.9605,-13.41673579072934,0.0,-3.039437469288037,0.0
4528398662.96,-13.405228861524915,0.0,-3.0327219745463094,0.0
4528413662.9595,-13.404520044401044,0.0,-2.998734834965894,0.0
4528428662.959,-13.39892762925974,0.0,-3.063313320501502,0.0
4528443662.9585,-13.409841513637721,0.0,-3.0925681970368677,0.0
4528458662.958,-13.416828352610494,0.0,-3.0205188915699566,0.0
4528473662.9575,-13.412425011420346,0.0,-3.0047833700666593,0.0
4528488662.957,-13.416793369290652,0.0,-3.0293770735640275,0.0
4528503662.9565,-13.405666617067368,0.0,-3.0304845146146104,0.0
4528518662.956,-13.411852853068176,0.0,-3.024540054865222,0.0
4528533662.9555,-13.419258056829971,0.0,-3.081022911309622,0.0
4528548662.955,-13.411036196729146,0.0,-3.001093725508228,0.0
4528563662.9545,-13.412791833844999,0.0,-3.0673798363907734,0.0
4528578662.954,-13.410653993850882,0.0,-3.052333024158693,0.0
4528593662.9535,-13.412741156395949,0.0,-3.048419609401979,0.0
4528608662.953,-13.413667941725986,0.0,-3.0880679826292488,0.0
4528623662.9525,-13.412392021333922,0.0,-3.0811643545993306,0.0
4528638662.952,-13.422418902023459,0.0,-3.069565269261516,0.0
4528653662.9515,-13.410800347495066,0.0,-3.03581314821235,0.0
4528668662.951,-13.406370392420692,0.0,-3.067757269493643,0.0
4528683662.9505,-13.410682645190345,0.0,-3.119966324843948,0.0
4528698662.95,-13.4183674784171,0.0,-3.0515743584511617,0.0
4528713662.9495,-13.415387595639931,0.0,-3.0638940240212373,0.0
4528728662.949,-13.415267761203758,0.0,-3.0804788086977983,0.0
4528743662.9485,-13.416077945255049,0.0,-3.0117887131784684,0.0
4528758662.948,-13.408710649974081,0.0,-3.075357380155519,0.0
4528773662.9475,-13.422161821935838,0.0,-3.099312575520734,0.0
4528788662.947,-13.40869335282026,0.0,-3.056066613681717,0.0
4528803662.9465,-13.406915027061695,0.0,-3.078927076087408,0.0
4528818662.946,-13.411527805936416,0.0,-3.0077238908126116,0.0
4528833662.9455,-13.415529388131338,0.0,-3.0814558964904446,0.0
4528848662.945,-13.414088311329483,0.0,-3.156012196378109,0.0
4528863662.9445,-13.413414186756555,0.0,-3.1019411581816287,0.0
4528878662.944,-13.411193339841041,0.0,-3.1384102383712844,0.0
4528893662.9435,-13.417021856687349,0.0,-3.078859420849467,0.0
4528908662.943,-13.408640513271664,0.0,-3.111071690676498,0.0
4528923662.9425,-13.414866460970494,0.0,-3.113076430757109,0.0
4528938662.942,-13.4159379546814,0.0,-3.1588249872469265,0.0
4528953662.9415,-13.419066242034791,0.0,-3.124793998162208,0.0
4528968662.941,-13.41682377227502,0.0,-3.0968884936453636,0.0
4528983662.9405,-13.417716674487238,0.0,-3.1189131536193075,0.0
4528998662.94,-13.418907623348083,0.0,-3.1764253796398805,0.0
4529013662.9395,-13.39964851090617,0.0,-3.0970991390383396,0.0
4529028662.939,-13.419025061705634,0.0,-3.09711168082101,0.0
4529043662.9385,-13.406214718095367,0.0,-3.1508413323802125,0.0
4529058662.938,-13.40731197241168,0.0,-3.176770392879396,0.0
4529073662.9375,-13.411930586040121,0.0,-3.1163210955834604,0.0
4529088662.937,-13.41069823129425,0.0,-3.175046457900746,0.0
4529103662.9365,-13.405078245381599,0.0,-3.1807912941755223,0.0
4529118662.936,-13.408979934317848,0.0,-3.2059854528187417,0.0
4529133662.9355,-13.409406958940943,0.0,-3.2035185052029758,0.0
4529148662.935,-13.41153759637345,0.0,-3.119284925755112,0.0
4529163662.9345,-13.409610055387578,0.0,-3.177834116766746,0.0
4529178662.934,-13.397884045594486,0.0,-3.1495236000024907,0.0
4529193662.9335,-13.418930929364446,0.0,-3.1588703835708567,0.0
4529208662.933,-13.417379282402944,0.0,-3.1643480824110366,0.0
4529223662.9325,-13.407377521803223,0.0,-3.1392611450930246,0.0
4529238662.932,-13.414585823009473,0.0,-3.1626624959828358,0.0
4529253662.9315,-13.411318015085483,0.0,-3.1415199856309215,0.0
4529268662.931,-13.41125087477359,0.0,-3.226733269412569,0.0
4529283662.9305,-13.416117004083201,0.0,-3.1271079375164192,0.0
4529298662.93,-13.410504026837124,0.0,-3.1191635324379505,0.0
4529313662.9295,-13.40720751952231,0.0,-3.1504173223993286,0.0
4529328662.929,-13.425665795803056,0.0,-3.1804288368162763,0.0
4529343662.9285,-13.411778658320925,0.0,-3.215112239302556,0.0
4529358662.928,-13.410708660369684,0.0,-3.324234757633447,0.0
4529373662.9275,-13.413368819367262,0.0,-3.2231687860320504,0.0
4529388662.927,-13.40787566862209,0.0,-3.1708869050009847,0.0
4529403662.9265,-13.411259985779402,0.0,-3.1932027324946413,0.0
4529418662.926,-13.410025200563204,0.0,-3.193184157148062,0.0
4529433662.9255,-13.412938036794715,0.0,-3.184936011896772,0.0
4529448662.925,-13.41808493625884,0.0,-3.1529727626658626,0.0
4529463662.9245,-13.415903940747938,0.0,-3.2301384631885273,0.0
4529478662.924,-13.415278816595567,0.0,-3.1626401491281757,0.0
4529493662.9235,-13.416636378333244,0.0,-3.2170090258241686,0.0
4529508662.923,-13.398958318033419,0.0,-3.244265612838629,0.0
4529523662.9225,-13.412876834549452,0.0,-3.196167403459999,0.0
4529538662.922,-13.41828993429479,0.0,-3.220438520329355,0.0
4529553662.9215,-13.417001745576396,0.0,-3.294605911345996,0.0
4529568662.921,-13.423566801917916,0.0,-3.2547774221662107,0.0
4529583662.9205,-13.425874150501393,0.0,-3.221532302142292,0.0
4529598662.92,-13.415015039782617,0.0,-3.2614618538961633,0.0
4529613662.9195,-13.413049248443773,0.0,-3.193383034468028,0.0
4529628662.919,-13.413905230243618,0.0,-3.2185305476034887,0.0
4529643662.9185,-13.421557200588115,0.0,-3.2186893807690415,0.0
4529658662.918,-13.406183356194273,0.0,-3.230102939754157,0.0
4529673662.9175,-13.422675372862404,0.0,-3.215377496730024,0.0
4529688662.917,-13.412101392331135,0.0,-3.1980727338332793,0.0
4529703662.9165,-13.418620814518682,0.0,-3.272902125954281,0.0
4529718662.916,-13.40585249917056,0.0,-3.2811863536906545,0.0
4529733662.9155,-13.411260792548852,0.0,-3.313870012520278,0.0
4529748662.915,-13.420293912082112,0.0,-3.2069659057892905,0.0
4529763662.9145,-13.410878384816161,0.0,-3.242129108907634,0.0
4529778662.914,-13.420931765836547,0.0,-3.312125755259949,0.0
4529793662.9135,-13.421054012385284,0.0,-3.2446499824102895,0.0
4529808662.913,-13.420361289029294,0.0,-3.2987705619171854,0.0
4529823662.9125,-13.419802897257068,0.0,-3.2990899505546625,0.0
4529838662.912,-13.412979320924114,0.0,-3.2566939987974695,0.0
4529853662.9115,-13.418557518944912,0.0,-3.3106005347008116,0.0
4529868662.911,-13.429436235761704,0.0,-3.275939101267481,0.0
4529883662.9105,-13.410930122185789,0.0,-3.318344824003838,0.0
4529898662.91,-13.414133955983104,0.0,-3.267802675040482,0.0
4529913662.9095,-13.419652995771616,0.0,-3.29803329944022,0.0
4529928662.909,-13.415408433197245,0.0,-3.274897466111692,0.0
4529943662.9085,-13.421572875449728,0.0,-3.283187166539271,0.0
4529958662.908,-13.406460867534998,0.0,-3.2680588082177016,0.0
4529973662.9075,-13.417828185943748,0.0,-3.3405201636320467,0.0
4529988662.907,-13.412558826009997,0.0,-3.3162844915969045,0.0
4530003662.9065,-13.409771563745103,0.0,-3.3543388479426657,0.0
4530018662.906,-13.415466507258538,0.0,-3.2858934297865243,0.0
4530033662.9055,-13.416350217568933,0.0,-3.2982004008372585,0.0
4530048662.905,-13.416813725650288,0.0,-3.359568695643787,0.0
4530063662.9045,-13.413016555290298,0.0,-3.346324551537864,0.0
4530078662.904,-13.425781449831389,0.0,-3.2847590011517016,0.0
4530093662.9035,-13.415320629962322,0.0,-3.262193034144732,0.0
4530108662.903,-13.413328653980152,0.0,-3.350435077738242,0.0
4530123662.9025,-13.417817311123102,0.0,-3.373880389065188,0.0
4530138662.902,-13.409223028078788,0.0,-3.3156916338355673,0.0
4530153662.9015,-13.422440315014795,0.0,-3.354072042516398,0.0
4530168662.901,-13.410155084242767,0.0,-3.3701732079910163,0.0
4530183662.9005,-13.417949542201523,0.0,-3.3456713115641694,0.0
4530198662.9,-13.417771897548418,0.0,-3.3204358805495695,0.0
4530213662.8995,-13.411243065159187,0.0,-3.325473406926489,0.0
4530228662.899,-13.415138663005546,0.0,-3.3631928543871195,0.0
4530243662.8985,-13.410151612588805,0.0,-3.370952136766367,0.0
4530258662.898,-13.414174046925396,0.0,-3.33831191429101,0.0
4530273662.8975,-13.41925256887555,0.0,-3.3728021643159383,0.0
4530288662.897,-13.423668961139422,0.0,-3.386131585727309,0.0
4530303662.8965,-13.424742082362474,0.0,-3.3486901370942634,0.0
4530318662.896,-13.42634592468503,0.0,-3.3672470884706387,0.0
4530333662.8955,-13.422171464532337,0.0,-3.3949337313923174,0.0
4530348662.895,-13.418291321438431,0.0,-3.407760440526325,0.0
4530363662.8945,-13.421290725726912,0.0,-3.4811461692511427,0.0
4530378662.894,-13.408483364247692,0.0,-3.346125879643115,0.0
4530393662.8935,-13.41711721330613,0.0,-3.3795425271866764,0.0
4530408662.893,-13.419188171202567,0.0,-3.4374465321621024,0.0
4530423662.8925,-13.417324156689187,0.0,-3.409490096716025,0.0
4530438662.892,-13.40698008070251,0.0,-3.489036844261106,0.0
4530453662.8915,-13.415129180627394,0.0,-3.433648144289613,0.0
4530468662.891,-13.41767168607488,0.0,-3.3753896714745264,0.0
4530483662.8905,-13.418971204512783,0.0,-3.422385784422272,0.0
4530498662.89,-13.416415676763949,0.0,-3.401572552403814,0.0
4530513662.8895,-13.414407048220143,0.0,-3.387978095058981,0.0
4530528662.889,-13.418396769864064,0.0,-3.4281731353968388,0.0
4530543662.8885,-13.427395502180605,0.0,-3.4208750296585353,0.0
4530558662.888,-13.420636556726022,0.0,-3.4692789650288267,0.0
4530573662.8875,-13.421240875629852,0.0,-3.4639270127977597,0.0
4530588662.887,-13.415453084546833,0.0,-3.4650295714716735,0.0
4530603662.8865,-13.416355277730467,0.0,-3.486642495755207,0.0
4530618662.886,-13.413222013242915,0.0,-3.4564518992389606,0.0
4530633662.8855,-13.408163185555477,0.0,-3.473494892483603,0.0
4530648662.885,-13.419033814865013,0.0,-3.5161014171230023,0.0
4530663662.8845,-13.416207102472349,0.0,-3.4817568502355387,0.0
4530678662.884,-13.413069996544726,0.0,-3.527324487554047,0.0
4530693662.8835,-13.422746549811386,0.0,-3.4517555983439685,0.0
4530708662.883,-13.42553080722648,0.0,-3.4928556648082556,0.0
4530723662.8825,-13.42591261132863,0.0,-3.477202122522223,0.0
4530738662.882,-13.41815421955988,0.0,-3.4858685056762178,0.0
4530753662.8815,-13.415353754450825,0.0,-3.4460263317382385,0.0
4530768662.881,-13.424273691140973,0.0,-3.460504160157805,0.0
4530783662.8805,-13.418903131336675,0.0,-3.445765270370158,0.0
4530798662.88,-13.42151437050267,0.0,-3.4795503238274077,0.0
4530813662.8795,-13.428942164518656,0.0,-3.4675682256585345,0.0
4530828662.879,-13.423215911950914,0.0,-3.451212402651053,0.0
4530843662.8785,-13.423887721736198,0.0,-3.5094900041646246,0.0
4530858662.878,-13.424068739138571,0.0,-3.4849124265202396,0.0
4530873662.8775,-13.414414534903251,0.0,-3.5021640032508174,0.0
4530888662.877,-13.419372334357089,0.0,-3.5354680779453904,0.0
4530903662.8765,-13.419652950980158,0.0,-3.578026667053692,0.0
4530918662.876,-13.4170198841789,0.0,-3.538353904761883,0.0
4530933662.8755,-13.417999146385771,0.0,-3.5729175853678963,0.0
4530948662.875,-13.418945672127885,0.0,-3.503734483206387,0.0
4530963662.8745,-13.415047396770587,0.0,-3.527132069711847,0.0
4530978662.874,-13.413073995339126,0.0,-3.5505100629142072,0.0
4530993662.8735,-13.41519105860536,0.0,-3.524315491459317,0.0
4531008662.873,-13.416142477600385,0.0,-3.564216100846211,0.0
4531023662.8725,-13.425564979352767,0.0,-3.5975213783196422,0.0
4531038662.872,-13.420225416543293,0.0,-3.588782199652723,0.0
4531053662.8715,-13.422294730450224,0.0,-3.6001772871840747,0.0
4531068662.871,-13.422590078114984,0.0,-3.6155452914692576,0.0
4531083662.8705,-13.418526145731011,0.0,-3.53640012334409,0.0
4531098662.87,-13.42352293617233,0.0,-3.5160846918152444,0.0
4531113662.8695,-13.424713699187947,0.0,-3.5724288873547683,0.0
4531128662.869,-13.41784709426393,0.0,-3.6114342942191917,0.0
4531143662.8685,-13.42127283958156,0.0,-3.5775363774280646,0.0
4531158662.868,-13.424772247264322,0.0,-3.6089430833971825,0.0
4531173662.8675,-13.419168247660231,0.0,-3.5814946267378103,0.0
4531188662.867,-13.41813407213987,0.0,-3.5436097868767105,0.0
4531203662.8665,-13.424166667826938,0.0,-3.5991700384749636,0.0
4531218662.866,-13.413601340287522,0.0,-3.6238921639695354,0.0
4531233662.8655,-13.41598697014124,0.0,-3.6058063390176254,0.0
4531248662.865,-13.425346825146654,0.0,-3.623720972057933,0.0
4531263662.8645,-13.422132883411662,0.0,-3.6017805006734913,0.0
4531278662.864,-13.423636058113,0.0,-3.6301787798376837,0.0
4531293662.8635,-13.421482708456242,0.0,-3.6010894758460736,0.0
4531308662.863,-13.417237735653021,0.0,-3.6137244123893724,0.0
4531323662.8625,-13.414415824249144,0.0,-3.6065374360585727,0.0
4531338662.862,-13.423796696300554,0.0,-3.6720631153088505,0.0
4531353662.8615,-13.417325403802256,0.0,-3.6506613097805864,0.0
4531368662.861,-13.428996476992419,0.0,-3.6411487836400394,0.0
4531383662.8605,-13.423246855201787,0.0,-3.614056199584861,0.0
4531398662.86,-13.417624154317904,0.0,-3.600419393007446,0.0
4531413662.8595,-13.425486073505123,0.0,-3.6672001415249587,0.0
4531428662.859,-13.422737556650501,0.0,-3.652180800308725,0.0
4531443662.8585,-13.413998063224762,0.0,-3.636141377632479,0.0
4531458662.858,-13.409852873368568,0.0,-3.5997302946946315,0.0
4531473662.8575,-13.423714003137789,0.0,-3.702063667003226,0.0
4531488662.857,-13.424569269192641,0.0,-3.6118715061323425,0.0
4531503662.8565,-13.417917017240198,0.0,-3.655066684557875,0.0
4531518662.856,-13.423203746247367,0.0,-3.687221395490609,0.0
4531533662.8555,-13.423612388904655,0.0,-3.641555332484465,0.0
4531548662.855,-13.412756287441121,0.0,-3.686814955461774,0.0
4531563662.8545,-13.417153810233934,0.0,-3.646816284352988,0.0
4531578662.854,-13.423978210356044,0.0,-3.6562365562614323,0.0
4531593662.8535,-13.421247307491988,0.0,-3.6372088668625047,0.0
4531608662.853,-13.422818111830532,0.0,-3.678741048058215,0.0
4531623662.8525,-13.419759494212169,0.0,-3.699818006546184,0.0
4531638662.852,-13.433966018508928,0.0,-3.68835680928885,0.0
4531653662.8515,-13.4245154365736,0.0,-3.7512068775347243,0.0
4531668662.851,-13.424808999162893,0.0,-3.7701053282565833,0.0
4531683662.8505,-13.415141878055472,0.0,-3.6992324603251516,0.0
4531698662.85,-13.407354925395303,0.0,-3.7695206549868807,0.0
4531713662.8495,-13.415951139340267,0.0,-3.807940956019716,0.0
4531728662.849,-13.42520644177708,0.0,-3.7324311626175373,0.0
4531743662.8485,-13.421813498782084,0.0,-3.738685082767968,0.0
4531758662.848,-13.423509211769762,0.0,-3.771826399896894,0.0
4531773662.8475,-13.42844488136923,0.0,-3.711966394820569,0.0
4531788662.847,-13.421498940117116,0.0,-3.698704450392618,0.0
4531803662.8465,-13.433206348743244,0.0,-3.7698863049138436,0.0
4531818662.846,-13.418202251321619,0.0,-3.764914928375094,0.0
4531833662.8455,-13.422485506185627,0.0,-3.734508770457884,0.0
4531848662.845,-13.42436072384295,0.0,-3.787812718108766,0.0
4531863662.8445,-13.431485218894533,0.0,-3.793948987857351,0.0
