Frequency,S11,S11-Q,S11-Phase,S11-Phase-Q
4527198663.0,-13.414731446842463,0.0,-2.4533157619520614,0.0
4527213662.9995,-13.425755481664275,0.0,-2.3699439091246743,0.0
4527228662.999,-13.418457907529149,0.0,-2.354622915415866,0.0
4527243662.9985,-13.41682073973362,0.0,-2.3950905919500083,0.0
4527258662.998,-13.420706260169268,0.0,-2.3418984307933743,0.0
4527273662.9975,-13.413276125996937,0.0,-2.4276112622783677,0.0
4527288662.997,-13.416463517979679,0.0,-2.3256877120688335,0.0
4527303662.9965,-13.415256316357357,0.0,-2.462520730305402,0.0
4527318662.996,-13.422849054728355,0.0,-2.4522241962673945,0.0
4527333662.9955,-13.42834835561121,0.0,-2.422157627293815,0.0
4527348662.995,-13.412540985848882,0.0,-2.3974093403538084,0.0
4527363662.9945,-13.411465871608142,0.0,-2.422950536944949,0.0
4527378662.994,-13.419228237849044,0.0,-2.3788693074968257,0.0
4527393662.9935,-13.429430830810986,0.0,-2.3700914197312564,0.0
4527408662.993,-13.414980451826535,0.0,-2.3686143376152033,0.0
4527423662.9925,-13.42353610275644,0.0,-2.469245487907666,0.0
4527438662.992,-13.417598853485126,0.0,-2.467333498576817,0.0
4527453662.9915,-13.414081507262583,0.0,-2.4322230308234416,0.0
4527468662.991,-13.416680055194039,0.0,-2.39229945184008,0.0
4527483662.9905,-13.423750923041462,0.0,-2.4639068973297267,0.0
4527498662.99,-13.427089154617352,0.0,-2.3921907879976803,0.0
4527513662.9895,-13.424597398221685,0.0,-2.426664430068694,0.0
4527528662.989,-13.420779118803093,0.0,-2.3932734541601426,0.0
4527543662.9885,-13.426584522457176,0.0,-2.367996862346924,0.0
4527558662.988,-13.425803619081213,0.0,-2.4033237292967886,0.0
4527573662.9875,-13.420600981111932,0.0,-2.4785519204338122,0.0
4527588662.987,-13.422923610437877,0.0,-2.4573905103033464,0.0
4527603662.9865,-13.416000859487774,0.0,-2.432319534480271,0.0
4527618662.986,-13.418532271072777,0.0,-2.4179152048956567,0.0
4527633662.9855,-13.423793914146211,0.0,-2.4192627903519606,0.0
4527648662.985,-13.42322072958808,0.0,-2.445448798339272,0.0
4527663662.9845,-13.418770902905102,0.0,-2.420404622083979,0.0
4527678662.984,-13.417897861623997,0.0,-2.4160640161806697,0.0
4527693662.9835,-13.423783060133886,0.0,-2.4719170037775546,0.0
4527708662.983,-13.412862766938392,0.0,-2.5067924268728303,0.0
4527723662.9825,-13.419464960516812,0.0,-2.4223701109913316,0.0
4527738662.982,-13.42110118751554,0.0,-2.4936338883732065,0.0
4527753662.9815,-13.403986061134571,0.0,-2.443949797569579,0.0
4527768662.981,-13.419015363842487,0.0,-2.4860794041791796,0.0
4527783662.9805,-13.421670216377219,0.0,-2.4435767530576142,0.0
4527798662.98,-13.418242692483952,0.0,-2.463068699525147,0.0
4527813662.9795,-13.423122505363995,0.0,-2.427579445220246,0.0
4527828662.979,-13.419760474285436,0.0,-2.4618667659558335,0.0
4527843662.9785,-13.413326737676732,0.0,-2.4493417151874595,0.0
4527858662.978,-13.423900139672547,0.0,-2.49096694905721,0.0
4527873662.9775,-13.420950370669411,0.0,-2.514281958914301,0.0
4527888662.977,-13.43223464301733,0.0,-2.545791588676092,0.0
4527903662.9765,-13.412302769955758,0.0,-2.512041215459254,0.0
4527918662.976,-13.42333677377118,0.0,-2.461973557370251,0.0
4527933662.9755,-13.428821825635415,0.0,-2.4925442442821937,0.0
4527948662.975,-13.418552090711698,0.0,-2.5204167075192254,0.0
4527963662.9745,-13.417417879899897,0.0,-2.503732109762726,0.0
4527978662.974,-13.422002368303223,0.0,-2.5022202471905532,0.0
4527993662.9735,-13.41842190034572,0.0,-2.5748291451506637,0.0
4528008662.973,-13.423889514641784,0.0,-2.469058127887879,0.0
4528023662.9725,-13.416884186405671,0.0,-2.512106226422934,0.0
4528038662.972,-13.421482414282615,0.0,-2.550444301655578,0.0
4528053662.9715,-13.428810007801244,0.0,-2.4949957359327777,0.0
4528068662.971,-13.422706399762765,0.0,-2.50076642444953,0.0
4528083662.9705,-13.415992520591193,0.0,-2.5418446956415797,0.0
4528098662.97,-13.418157704550968,0.0,-2.510443552397063,0.0
4528113662.9695,-13.419635462443942,0.0,-2.553070811385186,0.0
4528128662.969,-13.418619545980624,0.0,-2.5368137294671658,0.0
4528143662.9685,-13.420296495994915,0.0,-2.5195520427447606,0.0
4528158662.968,-13.418839612552919,0.0,-2.540073651553372,0.0
4528173662.9675,-13.434196111835119,0.0,-2.525667868797239,0.0
4528188662.967,-13.425261194258784,0.0,-2.510660751093861,0.0
4528203662.9665,-13.420510252202387,0.0,-2.5756619969442216,0.0
4528218662.966,-13.426214136726017,0.0,-2.523425299866043,0.0
4528233662.9655,-13.426382448242865,0.0,-2.54514060431194,0.0
4528248662.965,-13.42355619601263,0.0,-2.582986874168948,0.0
4528263662.9645,-13.4190265014448,0.0,-2.5218883037625366,0.0
4528278662.964,-13.420910028912573,0.0,-2.491167583027962,0.0
4528293662.9635,-13.421407043617128,0.0,-2.5702383667636393,0.0
4528308662.963,-13.418534730120445,0.0,-2.531736175462593,0.0
4528323662.9625,-13.419604680873556,0.0,-2.537669991909998,0.0
4528338662.962,-13.425873276045365,0.0,-2.550593891512698,0.0
4528353662.9615,-13.420765011794417,0.0,-2.5100774028655537,0.0
4528368662.961,-13.41796072718163,0.0,-2.555522872128267,0.0
4528383662.9605,-13.415583483736294,0.0,-2.565614675624614,0.0
4528398662.96,-13.422620863897077,0.0,-2.569185617236592,0.0
4528413662.9595,-13.417726496763834,0.0,-2.57953031230623,0.0
4528428662.959,-13.427332873368552,0.0,-2.575643386425185,0.0
4528443662.9585,-13.419651226557516,0.0,-2.521353358547997,0.0
4528458662.958,-13.416421113230165,0.0,-2.6232380689751214,0.0
4528473662.9575,-13.416602167265488,0.0,-2.5598103356157433,0.0
4528488662.957,-13.431412049967697,0.0,-2.575036848499625,0.0
4528503662.9565,-13.421473803089318,0.0,-2.5951984667185632,0.0
4528518662.956,-13.432099568124976,0.0,-2.607052125842541,0.0
4528533662.9555,-13.412859022071391,0.0,-2.563507812215113,0.0
4528548662.955,-13.422365678870808,0.0,-2.594495083816789,0.0
4528563662.9545,-13.42281085885032,0.0,-2.5299200696663693,0.0
4528578662.954,-13.424217025293249,0.0,-2.5627278703900944,0.0
4528593662.9535,-13.418548043244423,0.0,-2.623422772566836,0.0
4528608662.953,-13.42286186715572,0.0,-2.58669930546604,0.0
4528623662.9525,-13.426279588636884,0.0,-2.5920169335228804,0.0
4528638662.952,-13.421712841120199,0.0,-2.6067073133306615,0.0
4528653662.9515,-13.413386346059543,0.0,-2.6093311385456652,0.0
4528668662.951,-13.41470143351356,0.0,-2.593885494169012,0.0
4528683662.9505,-13.417333331258018,0.0,-2.633958225491071,0.0
4528698662.95,-13.4227421416853,0.0,-2.523265966760035,0.0
4528713662.9495,-13.430768110154725,0.0,-2.6457526988587476,0.0
4528728662.949,-13.435022378991047,0.0,-2.567297229512586,0.0
4528743662.9485,-13.427101684526539,0.0,-2.6383220235768388,0.0
4528758662.948,-13.426170503823379,0.0,-2.673769351130402,0.0
4528773662.9475,-13.406201819731274,0.0,-2.6168014180919763,0.0
4528788662.947,-13.423187651220376,0.0,-2.6382954460629597,0.0
4528803662.9465,-13.418578204948071,0.0,-2.5889568518673265,0.0
4528818662.946,-13.425298779185606,0.0,-2.658402780455191,0.0
4528833662.9455,-13.430374213425997,0.0,-2.656202508321767,0.0
4528848662.945,-13.42696092326139,0.0,-2.6109921733828845,0.0
4528863662.9445,-13.427211573562639,0.0,-2.623497856925615,0.0
4528878662.944,-13.430522787228758,0.0,-2.61954910411226,0.0
4528893662.9435,-13.422251793511142,0.0,-2.6416444139401296,0.0
4528908662.943,-13.415496892184697,0.0,-2.6488253788683056,0.0
4528923662.9425,-13.429940923291229,0.0,-2.631656356234714,0.0
4528938662.942,-13.425334319397544,0.0,-2.569353542089714,0.0
4528953662.9415,-13.42607870597492,0.0,-2.6201978883060386,0.0
4528968662.941,-13.425693337457465,0.0,-2.6670335831617504,0.0
4528983662.9405,-13.43056835236238,0.0,-2.6687708357559523,0.0
4528998662.94,-13.41965430939891,0.0,-2.6691095891341954,0.0
4529013662.9395,-13.429752578069236,0.0,-2.6623628953834806,0.0
4529028662.939,-13.421644302121532,0.0,-2.6612285036031658,0.0
4529043662.9385,-13.417035112189541,0.0,-2.679901406252579,0.0
4529058662.938,-13.41888231273259,0.0,-2.7129418220674717,0.0
4529073662.9375,-13.422875122824928,0.0,-2.6552179665164943,0.0
4529088662.937,-13.42336096970212,0.0,-2.6097585087161717,0.0
4529103662.9365,-13.420300581504431,0.0,-2.7149675544810075,0.0
4529118662.936,-13.421135524051213,0.0,-2.6018166230470157,0.0
4529133662.9355,-13.430636939962334,0.0,-2.6972498224609502,0.0
4529148662.935,-13.416053927303262,0.0,-2.640823566629788,0.0
4529163662.9345,-13.418722629992866,0.0,-2.707493750655437,0.0
4529178662.934,-13.416008843557059,0.0,-2.710949723401868,0.0
4529193662.9335,-13.429986225367491,0.0,-2.6191656859609758,0.0
4529208662.933,-13.428098148549143,0.0,-2.6863683265978837,0.0
4529223662.9325,-13.418683899522524,0.0,-2.6936075342327954,0.0
4529238662.932,-13.422189256053885,0.0,-2.669344294162408,0.0
4529253662.9315,-13.426087147486598,0.0,-2.655569719474776,0.0
4529268662.931,-13.420690619163738,0.0,-2.7058261924656333,0.0
4529283662.9305,-13.423406400355717,0.0,-2.6969691055062874,0.0
4529298662.93,-13.424079984087836,0.0,-2.6675056831451203,0.0
4529313662.9295,-13.423448338421212,0.0,-2.6688384954414177,0.0
4529328662.929,-13.427283132737385,0.0,-2.7395581184039326,0.0
4529343662.9285,-13.430706340768833,0.0,-2.79302134577211,0.0
4529358662.928,-13.429652354812443,0.0,-2.7219246521045877,0.0
4529373662.9275,-13.419409607669426,0.0,-2.7758555505125106,0.0
4529388662.927,-13.420649787485498,0.0,-2.7231244949681943,0.0
4529403662.9265,-13.427886859728535,0.0,-2.776557015191529,0.0
4529418662.926,-13.420619681726397,0.0,-2.751613978424542,0.0
4529433662.9255,-13.427404215336917,0.0,-2.8036729656402395,0.0
4529448662.925,-13.420161167290841,0.0,-2.756309107618743,0.0
4529463662.9245,-13.42127577895473,0.0,-2.7200668141313984,0.0
4529478662.924,-13.41633700649692,0.0,-2.762808395735483,0.0
4529493662.9235,-13.418552492757884,0.0,-2.7244226786050505,0.0
4529508662.923,-13.425959701309509,0.0,-2.7697381381618937,0.0
4529523662.9225,-13.42713985165647,0.0,-2.8221172424945666,0.0
4529538662.922,-13.422926283110677,0.0,-2.7061762704926715,0.0
4529553662.9215,-13.427728038522842,0.0,-2.728746344857555,0.0
4529568662.921,-13.426865687248235,0.0,-2.8052296701082584,0.0
4529583662.9205,-13.421906284323926,0.0,-2.7900824438225023,0.0
4529598662.92,-13.428205704379966,0.0,-2.7451946635105924,0.0
4529613662.9195,-13.420603938315976,0.0,-2.7941561094093554,0.0
4529628662.919,-13.433831896719559,0.0,-2.702614280724598,0.0
4529643662.9185,-13.429980660833657,0.0,-2.8024396491273236,0.0
4529658662.918,-13.413640969846472,0.0,-2.784034841230593,0.0
4529673662.9175,-13.422332393649876,0.0,-2.7641869297845925,0.0
4529688662.917,-13.42083412509686,0.0,-2.745189089540351,0.0
4529703662.9165,-13.434998283001187,0.0,-2.722516491294572,0.0
4529718662.916,-13.423310035110351,0.0,-2.7570947231191085,0.0
4529733662.9155,-13.432093457977704,0.0,-2.7885506068852783,0.0
4529748662.915,-13.41513159223118,0.0,-2.8012293610842507,0.0
4529763662.9145,-13.43227969794919,0.0,-2.7761989738317885,0.0
4529778662.914,-13.420183759998164,0.0,-2.8346710167009395,0.0
4529793662.9135,-13.432915420977345,0.0,-2.8270808623233115,0.0
4529808662.913,-13.426667325747832,0.0,-2.720851084750833,0.0
4529823662.9125,-13.437853841300587,0.0,-2.8661105218172036,0.0
4529838662.912,-13.423209076052538,0.0,-2.810720677741251,0.0
4529853662.9115,-13.432781812034097,0.0,-2.749280020375373,0.0
4529868662.911,-13.426806773181816,0.0,-2.788174282131229,0.0
4529883662.9105,-13.428193172085718,0.0,-2.7666762163407697,0.0
4529898662.91,-13.439044468749282,0.0,-2.8570148621548306,0.0
4529913662.9095,-13.42459846684302,0.0,-2.8263389384763267,0.0
4529928662.909,-13.430789501916614,0.0,-2.812059856833294,0.0
4529943662.9085,-13.421143510816396,0.0,-2.812310431349828,0.0
4529958662.908,-13.424419890556045,0.0,-2.831160243791855,0.0
4529973662.9075,-13.428498892777803,0.0,-2.851286920415158,0.0
4529988662.907,-13.418724624146307,0.0,-2.906916600061458,0.0
4530003662.9065,-13.433280429929095,0.0,-2.8798385227494925,0.0
4530018662.906,-13.426685749047301,0.0,-2.8286832062383365,0.0
4530033662.9055,-13.434359992710023,0.0,-2.8662169894356637,0.0
4530048662.905,-13.425959125632009,0.0,-2.8465398299378735,0.0
4530063662.9045,-13.42663801934476,0.0,-2.865551920363576,0.0
4530078662.904,-13.421911726602996,0.0,-2.8534842270833267,0.0
4530093662.9035,-13.421912715233454,0.0,-2.8762493686096042,0.0
4530108662.903,-13.431097390592823,0.0,-2.8520850291961652,0.0
4530123662.9025,-13.425312400382914,0.0,-2.8348116694408563,0.0
4530138662.902,-13.429225593483773,0.0,-2.843447261531616,0.0
4530153662.9015,-13.422168844665308,0.0,-2.824699871353956,0.0
4530168662.901,-13.42370797581207,0.0,-2.8427475424893296,0.0
4530183662.9005,-13.420909261732701,0.0,-2.8236209171356657,0.0
4530198662.9,-13.430423526394769,0.0,-2.8438464229327374,0.0
4530213662.8995,-13.425241117718054,0.0,-2.8263466757121702,0.0
4530228662.899,-13.435981720912782,0.0,-2.901375415512828,0.0
4530243662.8985,-13.428052364183511,0.0,-2.937197121269576,0.0
4530258662.898,-13.431586492658983,0.0,-2.892284054604842,0.0
4530273662.8975,-13.429757132269685,0.0,-2.917998956000703,0.0
4530288662.897,-13.42810504502227,0.0,-2.8572342163052284,0.0
4530303662.8965,-13.437342702623113,0.0,-2.9088246292843043,0.0
4530318662.896,-13.429467961850383,0.0,-2.9144094450372187,0.0
4530333662.8955,-13.423679988247137,0.0,-2.906477346272515,0.0
4530348662.895,-13.424891061308362,0.0,-2.9816473598421585,0.0
4530363662.8945,-13.425936887352886,0.0,-2.919314803585355,0.0
4530378662.894,-13.433040044667766,0.0,-2.903984311874089,0.0
4530393662.8935,-13.426541417617608,0.0,-2.958066490021403,0.0
4530408662.893,-13.426905096501827,0.0,-2.9006506990734633,0.0
4530423662.8925,-13.433891980776853,0.0,-2.916788556882444,0.0
4530438662.892,-13.42565941371117,0.0,-2.9123537597747085,0.0
4530453662.8915,-13.427254935312469,0.0,-2.9335676147137417,0.0
4530468662.891,-13.438719039649987,0.0,-2.8923307322076885,0.0
4530483662.8905,-13.42681871143752,0.0,-2.9731742847065994,0.0
4530498662.89,-13.426101832261502,0.0,-2.862668019627798,0.0
4530513662.8895,-13.428716901432104,0.0,-2.9002467021268936,0.0
4530528662.889,-13.436246369310478,0.0,-2.89050198980481,0.0
4530543662.8885,-13.431032593124563,0.0,-2.9418874670005275,0.0
4530558662.888,-13.437553741896135,0.0,-2.92044932521292,0.0
4530573662.8875,-13.425826722654659,0.0,-2.9447335047958867,0.0
4530588662.887,-13.430381165470813,0.0,-2.9261970275072864,0.0
4530603662.8865,-13.431236839092263,0.0,-2.9159457037600003,0.0
4530618662.886,-13.42539717565391,0.0,-2.955599173933691,0.0
4530633662.8855,-13.430670600647233,0.0,-2.9338062477530786,0.0
4530648662.885,-13.436948448036514,0.0,-2.982541854045861,0.0
4530663662.8845,-13.420763623501795,0.0,-2.9181268401771074,0.0
4530678662.884,-13.429353638937407,0.0,-2.95715151210036,0.0
4530693662.8835,-13.429619588786583,0.0,-2.997752016021832,0.0
4530708662.883,-13.431717214507346,0.0,-2.991744802103771,0.0
4530723662.8825,-13.427149524230643,0.0,-2.957383018527157,0.0
4530738662.882,-13.427980374717565,0.0,-2.9271940004673,0.0
4530753662.8815,-13.430676035519983,0.0,-2.949629722755018,0.0
4530768662.881,-13.427940419949817,0.0,-2.9872268095444876,0.0
4530783662.8805,-13.431320052989403,0.0,-3.0249811381675293,0.0
4530798662.88,-13.432085933480696,0.0,-2.9316156079311604,0.0
4530813662.8795,-13.432756237274283,0.0,-3.0001133327009644,0.0
4530828662.879,-13.430385385118097,0.0,-2.921492465151818,0.0
4530843662.8785,-13.42507011220225,0.0,-2.94221171161418,0.0
4530858662.878,-13.43333023547271,0.0,-2.994903711334334,0.0
4530873662.8775,-13.43602025042916,0.0,-2.981970131203356,0.0
4530888662.877,-13.426027693190068,0.0,-2.9909345298345196,0.0
4530903662.8765,-13.427125131649728,0.0,-3.0363847416129457,0.0
4530918662.876,-13.420900819510944,0.0,-3.0287036255184083,0.0
4530933662.8755,-13.43693723549337,0.0,-3.068188004388538,0.0
4530948662.875,-13.437450123179627,0.0,-3.002237802489211,0.0
4530963662.8745,-13.436355655254488,0.0,-3.030427409677204,0.0
4530978662.874,-13.42872449275799,0.0,-3.0061202787049455,0.0
4530993662.8735,-13.426358444023357,0.0,-3.0528606969930197,0.0
4531008662.873,-13.422821063868716,0.0,-3.0030230425532585,0.0
4531023662.8725,-13.427245529382965,0.0,-3.053061282750886,0.0
4531038662.872,-13.43257309184676,0.0,-3.0750152285292427,0.0
4531053662.8715,-13.427949894418198,0.0,-3.05102241069532,0.0
4531068662.871,-13.433572570668312,0.0,-3.058070981081768,0.0
4531083662.8705,-13.436684070403768,0.0,-3.0478533288966156,0.0
4531098662.87,-13.432894281420523,0.0,-3.0809731558774662,0.0
4531113662.8695,-13.422549604808756,0.0,-3.0292458522622328,0.0
4531128662.869,-13.42815037752828,0.0,-3.0899660926530235,0.0
4531143662.8685,-13.427524879031253,0.0,-3.0851620787012415,0.0
4531158662.868,-13.436461553121521,0.0,-3.088873058809182,0.0
4531173662.8675,-13.434342750326904,0.0,-3.068922045067849,0.0
4531188662.867,-13.438003929496155,0.0,-3.0320122797749063,0.0
4531203662.8665,-13.428485059021087,0.0,-3.0729657874248018,0.0
4531218662.866,-13.433812567676412,0.0,-3.0748276367306286,0.0
4531233662.8655,-13.431547472300318,0.0,-3.070314192201463,0.0
4531248662.865,-13.433316927074689,0.0,-3.0856267600788683,0.0
4531263662.8645,-13.440037217347156,0.0,-3.0727884162505474,0.0
4531278662.864,-13.42816622078116,0.0,-3.131695323264603,0.0
4531293662.8635,-13.423845106188889,0.0,-3.0759935807769434,0.0
4531308662.863,-13.43328616814323,0.0,-3.032231755013793,0.0
4531323662.8625,-13.425386079126936,0.0,-3.052907540822056,0.0
4531338662.862,-13.427188522438737,0.0,-3.1063649972993526,0.0
4531353662.8615,-13.424334214422641,0.0,-3.1503532445869893,0.0
4531368662.861,-13.436807735239558,0.0,-3.150716399187933,0.0
4531383662.8605,-13.435897463942393,0.0,-3.1414233096358517,0.0
4531398662.86,-13.426009920399782,0.0,-3.1050221420108777,0.0
4531413662.8595,-13.424922433193062,0.0,-3.1254235928811696,0.0
4531428662.859,-13.432579333308635,0.0,-3.1110507993470873,0.0
4531443662.8585,-13.429947735159175,0.0,-3.142234763121141,0.0
4531458662.858,-13.441884433008191,0.0,-3.1186527256872836,0.0
4531473662.8575,-13.43801096642266,0.0,-3.1240456684193307,0.0
4531488662.857,-13.430305856061338,0.0,-3.098488892704002,0.0
4531503662.8565,-13.431688905498692,0.0,-3.178309740373145,0.0
4531518662.856,-13.438764307193797,0.0,-3.113974115974757,0.0
4531533662.8555,-13.426636389607314,0.0,-3.155813414609409,0.0
4531548662.855,-13.437215561620999,0.0,-3.130557956534381,0.0
4531563662.8545,-13.450047317070448,0.0,-3.1732766643497974,0.0
4531578662.854,-13.429095974240637,0.0,-3.1665650245019257,0.0
4531593662.8535,-13.447580437165797,0.0,-3.1306535378725187,0.0
4531608662.853,-13.441466509006265,0.0,-3.179711940896999,0.0
4531623662.8525,-13.440353557425265,0.0,-3.1682760422220544,0.0
4531638662.852,-13.436769225989762,0.0,-3.193891696338301,0.0
4531653662.8515,-13.4382860295769,0.0,-3.1650266319472196,0.0
4531668662.851,-13.439595448036869,0.0,-3.1563018308268624,0.0
4531683662.8505,-13.432970006750578,0.0,-3.1705859949992927,0.0
4531698662.85,-13.430737035338435,0.0,-3.1990860945496626,0.0
4531713662.8495,-13.438748588965998,0.0,-3.155777758781323,0.0
4531728662.849,-13.444230708308746,0.0,-3.154778419364069,0.0
4531743662.8485,-13.432168683709156,0.0,-3.2018598995398304,0.0
4531758662.848,-13.44548694223837,0.0,-3.1945526092480216,0.0
4531773662.8475,-13.431160262174382,0.0,-3.1865144775921665,0.0
4531788662.847,-13.440715787571227,0.0,-3.2067232130153718,0.0
4531803662.8465,-13.441450958998256,0.0,-3.153381693549277,0.0
4531818662.846,-13.432711022022332,0.0,-3.1823869429674216,0.0
4531833662.8455,-13.439439754495954,0.0,-3.217975093477711,0.0
4531848662.845,-13.434750659195771,0.0,-3.267831323197429,0.0
4531863662.8445,-13.433170570857998,0.0,-3.2082808527742923,0.0
