Frequency,S11,S11-Q,S11-Phase,S11-Phase-Q
4527198663.0,-13.42035489725024,0.0,-2.3756112408842553,0.0
4527213662.9995,-13.427556421643033,0.0,-2.345189301374691,0.0
4527228662.999,-13.430907069174758,0.0,-2.3467585677351384,0.0
4527243662.9985,-13.423027151069913,0.0,-2.278666845350255,0.0
4527258662.998,-13.428910553148164,0.0,-2.3740972587107674,0.0
4527273662.9975,-13.41798223421145,0.0,-2.3427074707795335,0.0
4527288662.997,-13.41645452977861,0.0,-2.387741945963776,0.0
4527303662.9965,-13.426723233940173,0.0,-2.2965517335869903,0.0
4527318662.996,-13.423753444088495,0.0,-2.4290311303447747,0.0
4527333662.9955,-13.42790055472637,0.0,-2.346451031088297,0.0
4527348662.995,-13.42218439377781,0.0,-2.3824167049249017,0.0
4527363662.9945,-13.425498261324195,0.0,-2.3858468859211324,0.0
4527378662.994,-13.426826615345773,0.0,-2.3357980162557688,0.0
4527393662.9935,-13.428145883765728,0.0,-2.385682744587626,0.0
4527408662.993,-13.41817871779755,0.0,-2.369685535053016,0.0
4527423662.9925,-13.423684767757333,0.0,-2.3405953179753562,0.0
4527438662.992,-13.43356377976248,0.0,-2.3910617694990726,0.0
4527453662.9915,-13.422239352165125,0.0,-2.4064349738422357,0.0
4527468662.991,-13.421554686154115,0.0,-2.3114381600474156,0.0
4527483662.9905,-13.427573826235665,0.0,-2.363675924767006,0.0
4527498662.99,-13.428995372479859,0.0,-2.37320242998983,0.0
4527513662.9895,-13.426679075656176,0.0,-2.370964709948912,0.0
4527528662.989,-13.42882565512806,0.0,-2.4184119056611344,0.0
4527543662.9885,-13.430631933137306,0.0,-2.3856792553307846,0.0
4527558662.988,-13.423152438935551,0.0,-2.4119619119557343,0.0
4527573662.9875,-13.411592527425576,0.0,-2.3750591065797204,0.0
4527588662.987,-13.42529591333211,0.0,-2.398005857079919,0.0
4527603662.9865,-13.421192185436892,0.0,-2.370529547312362,0.0
4527618662.986,-13.42490007127922,0.0,-2.360501822366948,0.0
4527633662.9855,-13.430424582602466,0.0,-2.4154543525205296,0.0
4527648662.985,-13.42742167837912,0.0,-2.4058824361974547,0.0
4527663662.9845,-13.412303851513112,0.0,-2.373408396865545,0.0
4527678662.984,-13.42555538841168,0.0,-2.4241892842693886,0.0
4527693662.9835,-13.425257999484906,0.0,-2.404649273380111,0.0
4527708662.983,-13.421211490940433,0.0,-2.4220222299246443,0.0
4527723662.9825,-13.435426020484913,0.0,-2.4184772836196307,0.0
4527738662.982,-13.428224048782724,0.0,-2.3663565429930005,0.0
4527753662.9815,-13.432762224739882,0.0,-2.3969793982200867,0.0
4527768662.981,-13.429453307245751,0.0,-2.420443539335508,0.0
4527783662.9805,-13.417818233028214,0.0,-2.4344615092791764,0.0
4527798662.98,-13.425186730425517,0.0,-2.4313323634522694,0.0
4527813662.9795,-13.430111976982545,0.0,-2.4164025542367176,0.0
4527828662.979,-13.426977850126068,0.0,-2.378124952399655,0.0
4527843662.9785,-13.42070400712759,0.0,-2.4080358869176766,0.0
4527858662.978,-13.430802535881357,0.0,-2.4344792952650485,0.0
4527873662.9775,-13.421617319869888,0.0,-2.4098241536934313,0.0
4527888662.977,-13.427368246241665,0.0,-2.4826000915171558,0.0
4527903662.9765,-13.424164134542867,0.0,-2.3662335608524265,0.0
4527918662.976,-13.414126622698676,0.0,-2.3997565382521175,0.0
4527933662.9755,-13.421582214967136,0.0,-2.435940381901755,0.0
4527948662.975,-13.430853437040405,0.0,-2.455763134623428,0.0
4527963662.9745,-13.424176037293915,0.0,-2.462117404258951,0.0
4527978662.974,-13.42471002914908,0.0,-2.410203808040879,0.0
4527993662.9735,-13.421922470551547,0.0,-2.4181995357874246,0.0
4528008662.973,-13.42345602509284,0.0,-2.396537610640298,0.0
4528023662.9725,-13.415049217630164,0.0,-2.480906698606583,0.0
4528038662.972,-13.41823770308482,0.0,-2.4692678981135607,0.0
4528053662.9715,-13.425864364873734,0.0,-2.431530944723465,0.0
4528068662.971,-13.427603623440234,0.0,-2.438992248335806,0.0
4528083662.9705,-13.428105872408587,0.0,-2.4887191582810795,0.0
4528098662.97,-13.434579669864476,0.0,-2.441023797628924,0.0
4528113662.9695,-13.427491533446243,0.0,-2.4611309689382685,0.0
4528128662.969,-13.428170051874933,0.0,-2.452701026142225,0.0
4528143662.9685,-13.427365141536116,0.0,-2.5037753274747128,0.0
4528158662.968,-13.42445921896848,0.0,-2.4450149417651335,0.0
4528173662.9675,-13.428038052294461,0.0,-2.4601572081156853,0.0
4528188662.967,-13.424240169433471,0.0,-2.545668897376734,0.0
4528203662.9665,-13.428794259351111,0.0,-2.4445136036171276,0.0
4528218662.966,-13.425113865607432,0.0,-2.5128890839590885,0.0
4528233662.9655,-13.425850635608281,0.0,-2.4704974636230728,0.0
4528248662.965,-13.428031632647258,0.0,-2.476899193047857,0.0
4528263662.9645,-13.424134236970833,0.0,-2.458405985822942,0.0
4528278662.964,-13.427441463026906,0.0,-2.4473961680040226,0.0
4528293662.9635,-13.422106034162145,0.0,-2.4925422875193877,0.0
4528308662.963,-13.42099464705331,0.0,-2.5241941520440627,0.0
4528323662.9625,-13.427209005396993,0.0,-2.4634396571095833,0.0
4528338662.962,-13.419160347044743,0.0,-2.479178055780496,0.0
4528353662.9615,-13.427356850118162,0.0,-2.4133321733167636,0.0
4528368662.961,-13.419643694574628,0.0,-2.512858925419219,0.0
4528383662.9605,-13.428955666910834,0.0,-2.5127950803362817,0.0
4528398662.96,-13.421914775780742,0.0,-2.549893977233033,0.0
4528413662.9595,-13.430316882934207,0.0,-2.505291794471488,0.0
4528428662.959,-13.424783191266238,0.0,-2.4873721654216037,0.0
4528443662.9585,-13.43101301958347,0.0,-2.4655640113227073,0.0
4528458662.958,-13.435438073889042,0.0,-2.5124901682162903,0.0
4528473662.9575,-13.425052224822636,0.0,-2.5090117051880405,0.0
4528488662.957,-13.428634957913507,0.0,-2.488790329864056,0.0
4528503662.9565,-13.42334447805465,0.0,-2.5332652839673866,0.0
4528518662.956,-13.427416562085558,0.0,-2.581336103422733,0.0
4528533662.9555,-13.42135644203011,0.0,-2.5181597593871787,0.0
4528548662.955,-13.4322494984993,0.0,-2.495886039981625,0.0
4528563662.9545,-13.428273662358226,0.0,-2.4838684160579625,0.0
4528578662.954,-13.4205087791603,0.0,-2.519337419130107,0.0
4528593662.9535,-13.418837058452874,0.0,-2.5090008466894904,0.0
4528608662.953,-13.422914631317104,0.0,-2.489796255327154,0.0
4528623662.9525,-13.423227966037745,0.0,-2.5239518133854744,0.0
4528638662.952,-13.42769392397245,0.0,-2.55762386844716,0.0
4528653662.9515,-13.4272971576803,0.0,-2.469647852694923,0.0
4528668662.951,-13.427891538386945,0.0,-2.4624114372107444,0.0
4528683662.9505,-13.420974822977012,0.0,-2.569138217973001,0.0
4528698662.95,-13.425745412030892,0.0,-2.554485575866792,0.0
4528713662.9495,-13.427246556092873,0.0,-2.6009388864028153,0.0
4528728662.949,-13.422957154822946,0.0,-2.52123675675229,0.0
4528743662.9485,-13.419019647782717,0.0,-2.59027208474141,0.0
4528758662.948,-13.42270846058942,0.0,-2.5614721900370707,0.0
4528773662.9475,-13.42859897812657,0.0,-2.5613474869527235,0.0
4528788662.947,-13.426564984606266,0.0,-2.593115251118996,0.0
4528803662.9465,-13.43636722687121,0.0,-2.5503688167605443,0.0
4528818662.946,-13.429434634757328,0.0,-2.5466307930681005,0.0
4528833662.9455,-13.434307485958833,0.0,-2.5683023528175712,0.0
4528848662.945,-13.432411689314815,0.0,-2.540993432636834,0.0
4528863662.9445,-13.428722789946647,0.0,-2.5450970697103843,0.0
4528878662.944,-13.428723896071542,0.0,-2.5706939268278837,0.0
4528893662.9435,-13.434496242410901,0.0,-2.5549680206109517,0.0
4528908662.943,-13.420532076556132,0.0,-2.6142521966199492,0.0
4528923662.9425,-13.434503636770799,0.0,-2.5832709917086554,0.0
4528938662.942,-13.431111341753802,0.0,-2.564675881270646,0.0
4528953662.9415,-13.429919473489383,0.0,-2.551955427024496,0.0
4528968662.941,-13.42359566396077,0.0,-2.560006489064214,0.0
4528983662.9405,-13.432120655716362,0.0,-2.5767932464141645,0.0
4528998662.94,-13.417549076962331,0.0,-2.623650443611749,0.0
4529013662.9395,-13.427589681448033,0.0,-2.551564746901537,0.0
4529028662.939,-13.41778463754454,0.0,-2.6221760671872842,0.0
4529043662.9385,-13.43080861997841,0.0,-2.590806579439836,0.0
4529058662.938,-13.422202461030647,0.0,-2.5798152523555453,0.0
4529073662.9375,-13.421310227377894,0.0,-2.58019147646356,0.0
4529088662.937,-13.420898953241672,0.0,-2.5920174750810405,0.0
4529103662.9365,-13.419933658032722,0.0,-2.565472043009818,0.0
4529118662.936,-13.424161945967155,0.0,-2.555080449467747,0.0
4529133662.9355,-13.425540864996343,0.0,-2.598203683364009,0.0
4529148662.935,-13.421814540865189,0.0,-2.605802306327238,0.0
4529163662.9345,-13.42676698156283,0.0,-2.6368120616244424,0.0
4529178662.934,-13.427819524324072,0.0,-2.599147732486407,0.0
4529193662.9335,-13.426556200943638,0.0,-2.614268689403356,0.0
4529208662.933,-13.429160580832121,0.0,-2.6534991869173084,0.0
4529223662.9325,-13.428789144968011,0.0,-2.6364937690186343,0.0
4529238662.932,-13.426219135109676,0.0,-2.6403083104789906,0.0
4529253662.9315,-13.416733316550593,0.0,-2.621895192905073,0.0
4529268662.931,-13.423051990964929,0.0,-2.6204375593507288,0.0
4529283662.9305,-13.425558555226715,0.0,-2.575994534554921,0.0
4529298662.93,-13.421072223337587,0.0,-2.590362227151477,0.0
4529313662.9295,-13.434367952260422,0.0,-2.653305753885025,0.0
4529328662.929,-13.425142695577637,0.0,-2.578689539871197,0.0
4529343662.9285,-13.419530391621642,0.0,-2.6572403487924627,0.0
4529358662.928,-13.426423580002806,0.0,-2.7097401728062835,0.0
4529373662.9275,-13.440870575664627,0.0,-2.655642821770827,0.0
4529388662.927,-13.42637760329593,0.0,-2.6132866903036276,0.0
4529403662.9265,-13.429602356431015,0.0,-2.7082271609814352,0.0
4529418662.926,-13.432198198779297,0.0,-2.611804593547535,0.0
4529433662.9255,-13.425753536313092,0.0,-2.713956810690565,0.0
4529448662.925,-13.420242611477711,0.0,-2.7407689646606506,0.0
4529463662.9245,-13.428410377071753,0.0,-2.6486940656806954,0.0
4529478662.924,-13.429693578043278,0.0,-2.7272756255819206,0.0
4529493662.9235,-13.435934717031122,0.0,-2.7058566411736034,0.0
4529508662.923,-13.437971698972525,0.0,-2.6522292697162704,0.0
4529523662.9225,-13.42603780377458,0.0,-2.7078489187838923,0.0
4529538662.922,-13.42542530432372,0.0,-2.692701164109027,0.0
4529553662.9215,-13.432549500103912,0.0,-2.6192003721625925,0.0
4529568662.921,-13.435326153478622,0.0,-2.7196587099456764,0.0
4529583662.9205,-13.42782531141232,0.0,-2.721475775514898,0.0
4529598662.92,-13.42661411060772,0.0,-2.6725780485732167,0.0
4529613662.9195,-13.423537293094839,0.0,-2.6497998923631942,0.0
4529628662.919,-13.44428962422441,0.0,-2.706226891203248,0.0
4529643662.9185,-13.430479101465295,0.0,-2.685190871846625,0.0
4529658662.918,-13.42935499674619,0.0,-2.681150958806537,0.0
4529673662.9175,-13.429497232826844,0.0,-2.6554961326990787,0.0
4529688662.917,-13.42647207665186,0.0,-2.701822724257367,0.0
4529703662.9165,-13.428648451368062,0.0,-2.6192649267990302,0.0
4529718662.916,-13.426236264050129,0.0,-2.7061233613693365,0.0
4529733662.9155,-13.431753945158293,0.0,-2.7209645312290363,0.0
4529748662.915,-13.422843852679623,0.0,-2.7255078042035814,0.0
4529763662.9145,-13.42969044156554,0.0,-2.7207194713441916,0.0
4529778662.914,-13.423021908280315,0.0,-2.7455388267521554,0.0
4529793662.9135,-13.43764669736532,0.0,-2.712316353989547,0.0
4529808662.913,-13.435978554008832,0.0,-2.752965913145456,0.0
4529823662.9125,-13.427591497232767,0.0,-2.7146848800295706,0.0
4529838662.912,-13.428637250622966,0.0,-2.77376795543621,0.0
4529853662.9115,-13.427240665807634,0.0,-2.660961376466341,0.0
4529868662.911,-13.436008807291795,0.0,-2.8007486104755657,0.0
4529883662.9105,-13.434321139588405,0.0,-2.858134311869364,0.0
4529898662.91,-13.428992855342655,0.0,-2.7388689689503876,0.0
4529913662.9095,-13.4300308604155,0.0,-2.74073967814833,0.0
4529928662.909,-13.432532829902433,0.0,-2.7698970717725993,0.0
4529943662.9085,-13.42154077947378,0.0,-2.767858816703377,0.0
4529958662.908,-13.427561857113957,0.0,-2.8252982163998555,0.0
4529973662.9075,-13.429221284322338,0.0,-2.791766069507356,0.0
4529988662.907,-13.4299420418838,0.0,-2.7698962389386654,0.0
4530003662.9065,-13.433108467108209,0.0,-2.7413722081299503,0.0
4530018662.906,-13.438499189740064,0.0,-2.8145820020996655,0.0
4530033662.9055,-13.42528658646585,0.0,-2.762370333198149,0.0
4530048662.905,-13.425368919291703,0.0,-2.7639804573850393,0.0
4530063662.9045,-13.428241513287675,0.0,-2.7741644369942446,0.0
4530078662.904,-13.426079870155103,0.0,-2.8135257977170043,0.0
4530093662.9035,-13.434352201596099,0.0,-2.7874877307040244,0.0
4530108662.903,-13.436580915623043,0.0,-2.7373889553434787,0.0
4530123662.9025,-13.4310588899086,0.0,-2.8194753589511112,0.0
4530138662.902,-13.438662745220086,0.0,-2.7773406551282305,0.0
4530153662.9015,-13.440529747192912,0.0,-2.7645317480226996,0.0
4530168662.901,-13.436077170034434,0.0,-2.837724416308651,0.0
4530183662.9005,-13.430923945838519,0.0,-2.7530227126527267,0.0
4530198662.9,-13.42850457691126,0.0,-2.7318112308584586,0.0
4530213662.8995,-13.43245693176932,0.0,-2.773990548433503,0.0
4530228662.899,-13.426312288723638,0.0,-2.7981438796238027,0.0
4530243662.8985,-13.431767131206634,0.0,-2.7887485424828844,0.0
4530258662.898,-13.429960146580346,0.0,-2.8277765168461957,0.0
4530273662.8975,-13.433754431963594,0.0,-2.8333907770476348,0.0
4530288662.897,-13.433036004960746,0.0,-2.8548680300645715,0.0
4530303662.8965,-13.43158994485296,0.0,-2.8501722703343773,0.0
4530318662.896,-13.435246903091935,0.0,-2.765263115384728,0.0
4530333662.8955,-13.440752398277533,0.0,-2.7835736408975014,0.0
4530348662.895,-13.427138576847483,0.0,-2.8195724007657694,0.0
4530363662.8945,-13.426774485318504,0.0,-2.786577290287113,0.0
4530378662.894,-13.427432213879824,0.0,-2.814713503969502,0.0
4530393662.8935,-13.431173308040576,0.0,-2.8224360727563953,0.0
4530408662.893,-13.431945729493721,0.0,-2.793555680345772,0.0
4530423662.8925,-13.436363418598665,0.0,-2.855123441212081,0.0
4530438662.892,-13.43206437264488,0.0,-2.837001991515283,0.0
4530453662.8915,-13.439043289769181,0.0,-2.842829325088773,0.0
4530468662.891,-13.436438128408222,0.0,-2.831232288432016,0.0
4530483662.8905,-13.43849870827816,0.0,-2.8403615025380526,0.0
4530498662.89,-13.420650598797907,0.0,-2.8990843265850472,0.0
4530513662.8895,-13.436753365688833,0.0,-2.836981095414727,0.0
4530528662.889,-13.436275645612541,0.0,-2.854524116850696,0.0
4530543662.8885,-13.438849306301666,0.0,-2.861243311975597,0.0
4530558662.888,-13.433454760603817,0.0,-2.8356225898738807,0.0
4530573662.8875,-13.43067846523849,0.0,-2.8167100159648326,0.0
4530588662.887,-13.433963616975628,0.0,-2.885813713508632,0.0
4530603662.8865,-13.446626798372925,0.0,-2.8616202884734236,0.0
4530618662.886,-13.433731954182912,0.0,-2.848565297161226,0.0
4530633662.8855,-13.428861413069257,0.0,-2.93060423357784,0.0
4530648662.885,-13.43592328096994,0.0,-2.9226840389435624,0.0
4530663662.8845,-13.437066161509946,0.0,-2.842216964959808,0.0
4530678662.884,-13.433419735051071,0.0,-2.8842128979714015,0.0
4530693662.8835,-13.428962802269453,0.0,-2.9023368682175805,0.0
4530708662.883,-13.434747513124757,0.0,-2.8436613346759243,0.0
4530723662.8825,-13.437030145556736,0.0,-2.8369548920343672,0.0
4530738662.882,-13.437593731068393,0.0,-2.8664993143544097,0.0
4530753662.8815,-13.43313539708813,0.0,-2.939103050984375,0.0
4530768662.881,-13.423985595365526,0.0,-2.9244292173891004,0.0
4530783662.8805,-13.429444562704408,0.0,-2.855101947424621,0.0
4530798662.88,-13.440580498900827,0.0,-2.906009770994387,0.0
4530813662.8795,-13.425916247673628,0.0,-2.9288370763190046,0.0
4530828662.879,-13.432720870611627,0.0,-2.9486185790161503,0.0
4530843662.8785,-13.435784674615869,0.0,-2.911850844157253,0.0
4530858662.878,-13.442250312043111,0.0,-2.93361783430484,0.0
4530873662.8775,-13.438966664219754,0.0,-2.9061641835110725,0.0
4530888662.877,-13.43120660544227,0.0,-2.9199473873213395,0.0
4530903662.8765,-13.433671710300247,0.0,-2.969217519499366,0.0
4530918662.876,-13.43574790911852,0.0,-2.909550019233756,0.0
4530933662.8755,-13.433178750801943,0.0,-2.9415840557363158,0.0
4530948662.875,-13.44031338460691,0.0,-2.9761407661678114,0.0
4530963662.8745,-13.43759521313067,0.0,-2.982688725158182,0.0
4530978662.874,-13.44107809990187,0.0,-2.963368317233473,0.0
4530993662.8735,-13.435811855566504,0.0,-2.942799914494261,0.0
4531008662.873,-13.439194625398274,0.0,-2.9432800152537917,0.0
4531023662.8725,-13.43596045712581,0.0,-2.9668885309615227,0.0
4531038662.872,-13.434112823533246,0.0,-2.9639433280919656,0.0
4531053662.8715,-13.437081127012382,0.0,-2.980217014226151,0.0
4531068662.871,-13.442207104881415,0.0,-2.962216590883684,0.0
4531083662.8705,-13.427698759717295,0.0,-2.939657198860999,0.0
4531098662.87,-13.435097400835087,0.0,-2.9816983568709423,0.0
4531113662.8695,-13.436955988696035,0.0,-2.9566620449063805,0.0
4531128662.869,-13.441725186808203,0.0,-2.938777227863966,0.0
4531143662.8685,-13.433100396959237,0.0,-2.981192035974155,0.0
4531158662.868,-13.42931737961277,0.0,-2.970567484566475,0.0
4531173662.8675,-13.431113144760738,0.0,-3.0060277738227845,0.0
4531188662.867,-13.43469822669983,0.0,-3.0324754575872355,0.0
4531203662.8665,-13.432220219366629,0.0,-2.9318843017273455,0.0
4531218662.866,-13.442817637050098,0.0,-3.05696199254995,0.0
4531233662.8655,-13.434783182204033,0.0,-3.0189703286735816,0.0
4531248662.865,-13.431104718346935,0.0,-3.012016752290942,0.0
4531263662.8645,-13.439290762199075,0.0,-3.0236919743438717,0.0
4531278662.864,-13.439922494965636,0.0,-2.9971262779612475,0.0
4531293662.8635,-13.438059061447179,0.0,-3.01872623555672,0.0
4531308662.863,-13.445052217781285,0.0,-2.9994330547921733,0.0
4531323662.8625,-13.429364452154019,0.0,-3.040455015436628,0.0
4531338662.862,-13.438188049117832,0.0,-2.995500950595449,0.0
4531353662.8615,-13.436889709347948,0.0,-3.0143407085616207,0.0
4531368662.861,-13.440248247179936,0.0,-2.9978360019499335,0.0
4531383662.8605,-13.435462648790551,0.0,-3.003555673629685,0.0
4531398662.86,-13.437474476519458,0.0,-2.9990016305870744,0.0
4531413662.8595,-13.443232406379481,0.0,-3.0900056512467566,0.0
4531428662.859,-13.43266648171355,0.0,-3.060201656329859,0.0
4531443662.8585,-13.440708100448845,0.0,-3.050419462044962,0.0
4531458662.858,-13.435019893882119,0.0,-3.0624721120560734,0.0
4531473662.8575,-13.448004291887948,0.0,-2.975138582699592,0.0
4531488662.857,-13.439700436916551,0.0,-3.08047234671715,0.0
4531503662.8565,-13.44328272987463,0.0,-3.014343476935147,0.0
4531518662.856,-13.43485475392585,0.0,-2.9725696237516117,0.0
4531533662.8555,-13.434762885629956,0.0,-3.0317796537595862,0.0
4531548662.855,-13.441620468146418,0.0,-3.007980197781835,0.0
4531563662.8545,-13.433539709928299,0.0,-3.007002908374757,0.0
4531578662.854,-13.437502761386247,0.0,-3.0645635686667205,0.0
4531593662.8535,-13.441630823753492,0.0,-3.090990479556572,0.0
4531608662.853,-13.44272219518624,0.0,-3.040825058038426,0.0
4531623662.8525,-13.434604317937708,0.0,-3.0832013449124216,0.0
4531638662.852,-13.435026419612456,0.0,-3.1239826943171023,0.0
4531653662.8515,-13.434399453669014,0.0,-3.109335947942363,0.0
4531668662.851,-13.447871950031816,0.0,-3.0706341989362427,0.0
4531683662.8505,-13.440485324692697,0.0,-3.0809101533367644,0.0
4531698662.85,-13.434367237917886,0.0,-3.104982364575509,0.0
4531713662.8495,-13.444441889561944,0.0,-3.0832348200049875,0.0
4531728662.849,-13.444403575323056,0.0,-3.1509167008807464,0.0
4531743662.8485,-13.433807493776618,0.0,-3.137272486019057,0.0
4531758662.848,-13.434366914064675,0.0,-3.123683749853275,0.0
4531773662.8475,-13.430037349460145,0.0,-3.11562696050949,0.0
4531788662.847,-13.436386924528676,0.0,-3.13164897746425,0.0
4531803662.8465,-13.443286361068324,0.0,-3.125082973064092,0.0
4531818662.846,-13.441589543070005,0.0,-3.0905911458598343,0.0
4531833662.8455,-13.435471603633323,0.0,-3.1701876053828433,0.0
4531848662.845,-13.435468440383083,0.0,-3.0389487574993868,0.0
4531863662.8445,-13.436799007972054,0.0,-3.161991469545966,0.0
4531878662.844,-13.438387685749758,0.0,-3.1644417804235476,0.0
