Frequency,S11,S11-Q,S11-Phase,S11-Phase-Q
4527198663.0,-13.415695237483632,0.0,-2.4434485154960774,0.0
4527213662.9995,-13.40963873776413,0.0,-2.3945663961671526,0.0
4527228662.999,-13.403664936416176,0.0,-2.4531768425303966,0.0
4527243662.9985,-13.413842902960129,0.0,-2.410849874495535,0.0
4527258662.998,-13.411583223318129,0.0,-2.401235214895882,0.0
4527273662.9975,-13.413552684155736,0.0,-2.402703171185931,0.0
4527288662.997,-13.414207331208756,0.0,-2.393545494109906,0.0
4527303662.9965,-13.416889475788174,0.0,-2.3940385084584617,0.0
4527318662.996,-13.415666124794459,0.0,-2.3944909141205097,0.0
4527333662.9955,-13.407109630875059,0.0,-2.4455058524264186,0.0
4527348662.995,-13.410052976501973,0.0,-2.3951154663018275,0.0
4527363662.9945,-13.414500648023424,0.0,-2.4508114049232885,0.0
4527378662.994,-13.416131975276109,0.0,-2.4158119262284456,0.0
4527393662.9935,-13.412506697225508,0.0,-2.395643437405197,0.0
4527408662.993,-13.416193059896688,0.0,-2.406741451006077,0.0
4527423662.9925,-13.41508415959111,0.0,-2.496406095956881,0.0
4527438662.992,-13.40522868994723,0.0,-2.4581545149503454,0.0
4527453662.9915,-13.414990334811488,0.0,-2.4229630073935366,0.0
4527468662.991,-13.403657657459096,0.0,-2.459742982491732,0.0
4527483662.9905,-13.407197488445604,0.0,-2.422514170587733,0.0
4527498662.99,-13.407966092356743,0.0,-2.4458931306384364,0.0
4527513662.9895,-13.411955285788373,0.0,-2.475244751474646,0.0
4527528662.989,-13.412929854875678,0.0,-2.507620112667646,0.0
4527543662.9885,-13.418168903882346,0.0,-2.423081364306338,0.0
4527558662.988,-13.41187916863566,0.0,-2.5050235222893096,0.0
4527573662.9875,-13.409221271339655,0.0,-2.444269663543041,0.0
4527588662.987,-13.40559951447586,0.0,-2.5223447985371656,0.0
4527603662.9865,-13.408276291648114,0.0,-2.4979394096084855,0.0
4527618662.986,-13.41577299927538,0.0,-2.461327375067873,0.0
4527633662.9855,-13.415615287724702,0.0,-2.4369659251227245,0.0
4527648662.985,-13.407723316443288,0.0,-2.4467498376608403,0.0
4527663662.9845,-13.411326836256695,0.0,-2.5202669822287,0.0
4527678662.984,-13.415232214417951,0.0,-2.4350243308521216,0.0
4527693662.9835,-13.406434609892043,0.0,-2.531064354947989,0.0
4527708662.983,-13.416558213336884,0.0,-2.378699869251964,0.0
4527723662.9825,-13.409343114625978,0.0,-2.4944567061834713,0.0
4527738662.982,-13.413613357970435,0.0,-2.477646574387286,0.0
4527753662.9815,-13.425411779772723,0.0,-2.501872926317767,0.0
4527768662.981,-13.406353583629059,0.0,-2.5523761064948953,0.0
4527783662.9805,-13.410082060844616,0.0,-2.4722951707284837,0.0
4527798662.98,-13.416880256841017,0.0,-2.5191561119266344,0.0
4527813662.9795,-13.419616332374453,0.0,-2.4739493710405003,0.0
4527828662.979,-13.422116426446053,0.0,-2.4827085842663994,0.0
4527843662.9785,-13.415379028239457,0.0,-2.579100388146938,0.0
4527858662.978,-13.420469804418358,0.0,-2.5850655715709077,0.0
4527873662.9775,-13.412313220866093,0.0,-2.532959623304504,0.0
4527888662.977,-13.420538041452295,0.0,-2.5041608165326057,0.0
4527903662.9765,-13.414358934987069,0.0,-2.4796301356236174,0.0
4527918662.976,-13.407000002472024,0.0,-2.4789150020478736,0.0
4527933662.9755,-13.409465726567309,0.0,-2.5015423075785326,0.0
4527948662.975,-13.414464250484288,0.0,-2.4396082996658452,0.0
4527963662.9745,-13.416517583779221,0.0,-2.4693566093937838,0.0
4527978662.974,-13.42074861238604,0.0,-2.5223063318278625,0.0
4527993662.9735,-13.413773002742333,0.0,-2.517509988745268,0.0
4528008662.973,-13.411234248217575,0.0,-2.5470945359232893,0.0
4528023662.9725,-13.412608457572563,0.0,-2.488895114485026,0.0
4528038662.972,-13.41973554671933,0.0,-2.528806339540097,0.0
4528053662.9715,-13.416173138349443,0.0,-2.571086904339297,0.0
4528068662.971,-13.42289060973576,0.0,-2.5617396252235025,0.0
4528083662.9705,-13.41737297044476,0.0,-2.5059538261187275,0.0
4528098662.97,-13.41408459811941,0.0,-2.571581713738743,0.0
4528113662.9695,-13.409632446196248,0.0,-2.5302802408534126,0.0
4528128662.969,-13.414488522168142,0.0,-2.5719688900369584,0.0
4528143662.9685,-13.4220526383336,0.0,-2.529715398869597,0.0
4528158662.968,-13.412761051927903,0.0,-2.5432494808810335,0.0
4528173662.9675,-13.413786440463209,0.0,-2.5360188761413784,0.0
4528188662.967,-13.411463554961678,0.0,-2.501586623360864,0.0
4528203662.9665,-13.414741748358098,0.0,-2.5088730117305515,0.0
4528218662.966,-13.41314124510407,0.0,-2.5008167455880095,0.0
4528233662.9655,-13.41464034105397,0.0,-2.5554142510440174,0.0
4528248662.965,-13.418253387838142,0.0,-2.5698903147904133,0.0
4528263662.9645,-13.413081936701571,0.0,-2.641063243233965,0.0
4528278662.964,-13.417558833501936,0.0,-2.5610880565401595,0.0
4528293662.9635,-13.411469164020186,0.0,-2.5962301418678155,0.0
4528308662.963,-13.417999447625997,0.0,-2.6041330474644058,0.0
4528323662.9625,-13.418521191155639,0.0,-2.636706414187288,0.0
4528338662.962,-13.424234928787426,0.0,-2.586338680525632,0.0
4528353662.9615,-13.415157203977262,0.0,-2.560681299800595,0.0
4528368662.961,-13.40869350921178,0.0,-2.62502211236892,0.0
4528383662.9605,-13.409918220234491,0.0,-2.5927512029402173,0.0
4528398662.96,-13.413179451871365,0.0,-2.6026262057886576,0.0
4528413662.9595,-13.4249254255604,0.0,-2.553752646382524,0.0
4528428662.959,-13.40997849957951,0.0,-2.5789978837169443,0.0
4528443662.9585,-13.412774689252927,0.0,-2.5136957689838106,0.0
4528458662.958,-13.412208911900468,0.0,-2.6196958142849147,0.0
4528473662.9575,-13.412061143287442,0.0,-2.5686714588381347,0.0
4528488662.957,-13.420708917677098,0.0,-2.5983404586303305,0.0
4528503662.9565,-13.409853205385371,0.0,-2.57498547557823,0.0
4528518662.956,-13.408633862760908,0.0,-2.624105250250411,0.0
4528533662.9555,-13.417338503930921,0.0,-2.6074045486846016,0.0
4528548662.955,-13.412762781571065,0.0,-2.699685379017074,0.0
4528563662.9545,-13.412692426855976,0.0,-2.5779405497239716,0.0
4528578662.954,-13.420918515361706,0.0,-2.627508011915854,0.0
4528593662.9535,-13.42661382129966,0.0,-2.615818640932774,0.0
4528608662.953,-13.41900250693429,0.0,-2.623136119671559,0.0
4528623662.9525,-13.41833009249347,0.0,-2.597870194752574,0.0
4528638662.952,-13.402237295055485,0.0,-2.677398309228898,0.0
4528653662.9515,-13.426588657652916,0.0,-2.6139526463126685,0.0
4528668662.951,-13.417562354901182,0.0,-2.6146154436131828,0.0
4528683662.9505,-13.420266496925631,0.0,-2.644168462072656,0.0
4528698662.95,-13.410601451058067,0.0,-2.637093571374128,0.0
4528713662.9495,-13.416389039546514,0.0,-2.5706756522791148,0.0
4528728662.949,-13.416588193984877,0.0,-2.622434037370318,0.0
4528743662.9485,-13.412765092611071,0.0,-2.6649277610418816,0.0
4528758662.948,-13.40903421607323,0.0,-2.7100263014043393,0.0
4528773662.9475,-13.416678831811769,0.0,-2.602477648141841,0.0
4528788662.947,-13.40877252214816,0.0,-2.6760030947178044,0.0
4528803662.9465,-13.422337965124616,0.0,-2.6358743557598787,0.0
4528818662.946,-13.425702476245707,0.0,-2.6538442456563613,0.0
4528833662.9455,-13.417632741904901,0.0,-2.6019652052677142,0.0
4528848662.945,-13.415860890880893,0.0,-2.64229960981537,0.0
4528863662.9445,-13.420162803475144,0.0,-2.651303722130842,0.0
4528878662.944,-13.412082165462865,0.0,-2.6722726482940504,0.0
4528893662.9435,-13.40951750083343,0.0,-2.6730858298630036,0.0
4528908662.943,-13.402452783488181,0.0,-2.6378808603365655,0.0
4528923662.9425,-13.417631251478486,0.0,-2.6601351037048118,0.0
4528938662.942,-13.415171059716648,0.0,-2.665955214149942,0.0
4528953662.9415,-13.409955889072085,0.0,-2.639989826711262,0.0
4528968662.941,-13.418254493767884,0.0,-2.730149335231863,0.0
4528983662.9405,-13.419726590029335,0.0,-2.687881116580908,0.0
4528998662.94,-13.414076143561026,0.0,-2.6054514891027396,0.0
4529013662.9395,-13.41133450702883,0.0,-2.705003787140167,0.0
4529028662.939,-13.409601673318097,0.0,-2.7181050136016243,0.0
4529043662.9385,-13.417943063572926,0.0,-2.7102241117291657,0.0
4529058662.938,-13.41212301418036,0.0,-2.675370559042621,0.0
4529073662.9375,-13.422609000080678,0.0,-2.653338643400862,0.0
4529088662.937,-13.419561270708208,0.0,-2.722164161218708,0.0
4529103662.9365,-13.413202967750346,0.0,-2.668043559262446,0.0
4529118662.936,-13.416738128898963,0.0,-2.6614671450685723,0.0
4529133662.9355,-13.413079405474184,0.0,-2.6907133078460843,0.0
4529148662.935,-13.416916588238678,0.0,-2.707428481265579,0.0
4529163662.9345,-13.419292329146849,0.0,-2.7124678847985586,0.0
4529178662.934,-13.41789147090957,0.0,-2.770498515508439,0.0
4529193662.9335,-13.41669801434572,0.0,-2.6970096516482056,0.0
4529208662.933,-13.41778356876434,0.0,-2.7194046896340716,0.0
4529223662.9325,-13.420799077446514,0.0,-2.7335158044373293,0.0
4529238662.932,-13.424884538674656,0.0,-2.714522201714684,0.0
4529253662.9315,-13.421645063567913,0.0,-2.629112086854608,0.0
4529268662.931,-13.414934275503791,0.0,-2.752410256869937,0.0
4529283662.9305,-13.405530890055338,0.0,-2.7630528742239067,0.0
4529298662.93,-13.422336396832142,0.0,-2.770528454025038,0.0
4529313662.9295,-13.413155670507928,0.0,-2.7418803934007716,0.0
4529328662.929,-13.416326614600067,0.0,-2.7400688927460366,0.0
4529343662.9285,-13.410391721161297,0.0,-2.706090188597679,0.0
4529358662.928,-13.422874157432148,0.0,-2.725250766855365,0.0
4529373662.9275,-13.419857269377847,0.0,-2.7879235168995584,0.0
4529388662.927,-13.416756103055466,0.0,-2.73191196973306,0.0
4529403662.9265,-13.423295245560942,0.0,-2.763594484848725,0.0
4529418662.926,-13.41536788107689,0.0,-2.7324234830662415,0.0
4529433662.9255,-13.411453978761871,0.0,-2.7379463687758943,0.0
4529448662.925,-13.416837216069204,0.0,-2.7532887997170583,0.0
4529463662.9245,-13.413120983220159,0.0,-2.7009426732624036,0.0
4529478662.924,-13.416799829821146,0.0,-2.799030078207497,0.0
4529493662.9235,-13.423329859418288,0.0,-2.804207496883735,0.0
4529508662.923,-13.412495679156912,0.0,-2.7564441242608786,0.0
4529523662.9225,-13.418490827422096,0.0,-2.7337370064323663,0.0
4529538662.922,-13.41712237552749,0.0,-2.755165867925579,0.0
4529553662.9215,-13.409451411649362,0.0,-2.7517588376528015,0.0
4529568662.921,-13.414633290625883,0.0,-2.7877339658715043,0.0
4529583662.9205,-13.42459825076076,0.0,-2.771469385893357,0.0
4529598662.92,-13.421101910753688,0.0,-2.765369756821982,0.0
4529613662.9195,-13.424083892437526,0.0,-2.8025035527995734,0.0
4529628662.919,-13.415375963657926,0.0,-2.719303501540297,0.0
4529643662.9185,-13.427954649574666,0.0,-2.7757776709260336,0.0
4529658662.918,-13.417426567825126,0.0,-2.766774112650629,0.0
4529673662.9175,-13.411443063942933,0.0,-2.7915492636165498,0.0
4529688662.917,-13.410328896640333,0.0,-2.84462462280135,0.0
4529703662.9165,-13.424792616201211,0.0,-2.807550777403834,0.0
4529718662.916,-13.41484449838892,0.0,-2.793518365710427,0.0
4529733662.9155,-13.420422729266765,0.0,-2.796183815518734,0.0
4529748662.915,-13.419484473399024,0.0,-2.784979783237494,0.0
4529763662.9145,-13.415006833680687,0.0,-2.813223639309747,0.0
4529778662.914,-13.41363753017228,0.0,-2.7902010440760954,0.0
4529793662.9135,-13.421302360242189,0.0,-2.833683565368416,0.0
4529808662.913,-13.419716950218834,0.0,-2.8304797783922355,0.0
4529823662.9125,-13.420124578918777,0.0,-2.8489705691368545,0.0
4529838662.912,-13.423977792218952,0.0,-2.852005311330308,0.0
4529853662.9115,-13.42270222806021,0.0,-2.8781032320272097,0.0
4529868662.911,-13.42225412776423,0.0,-2.812984435692342,0.0
4529883662.9105,-13.422501696982224,0.0,-2.7883827034122644,0.0
4529898662.91,-13.420324518216516,0.0,-2.891096362070025,0.0
4529913662.9095,-13.422749778081995,0.0,-2.8860735642333464,0.0
4529928662.909,-13.422108087073894,0.0,-2.9124144586642955,0.0
4529943662.9085,-13.41829584516088,0.0,-2.846575351186569,0.0
4529958662.908,-13.426022932149932,0.0,-2.87213732079676,0.0
4529973662.9075,-13.423490098702235,0.0,-2.847625445615835,0.0
4529988662.907,-13.410464688031139,0.0,-2.858526200440954,0.0
4530003662.9065,-13.417158697793338,0.0,-2.8731954464201563,0.0
4530018662.906,-13.408535634036847,0.0,-2.867689848909886,0.0
4530033662.9055,-13.421841499602609,0.0,-2.855599383152568,0.0
4530048662.905,-13.419876932689114,0.0,-2.9105019234093743,0.0
4530063662.9045,-13.423563526525456,0.0,-2.9266504524053154,0.0
4530078662.904,-13.426782937057812,0.0,-2.903088363804514,0.0
4530093662.9035,-13.422129028808259,0.0,-2.9137760551300427,0.0
4530108662.903,-13.417670657622,0.0,-2.9067458420106216,0.0
4530123662.9025,-13.425593683994794,0.0,-2.857002532894417,0.0
4530138662.902,-13.42303766890079,0.0,-3.0210474499778512,0.0
4530153662.9015,-13.422953760058363,0.0,-2.8891194963757414,0.0
4530168662.901,-13.418227707110084,0.0,-2.86008243916738,0.0
4530183662.9005,-13.422711776858062,0.0,-2.9005451225840253,0.0
4530198662.9,-13.418019684942537,0.0,-2.8627306746916594,0.0
4530213662.8995,-13.416839258395088,0.0,-2.9285823681026812,0.0
4530228662.899,-13.415678257916985,0.0,-2.8810249089103737,0.0
4530243662.8985,-13.427826656757029,0.0,-2.9757937166004704,0.0
4530258662.898,-13.413049231447747,0.0,-2.9515707980810766,0.0
4530273662.8975,-13.418896096921726,0.0,-2.9590069541126716,0.0
4530288662.897,-13.436888763539264,0.0,-3.0072847423811893,0.0
4530303662.8965,-13.4201031475079,0.0,-2.9659614542514685,0.0
4530318662.896,-13.412513938538005,0.0,-2.9220331134122763,0.0
4530333662.8955,-13.419044946761467,0.0,-2.9543577084338724,0.0
4530348662.895,-13.423123171522144,0.0,-2.859638077552303,0.0
4530363662.8945,-13.413215641015071,0.0,-2.924427436423065,0.0
4530378662.894,-13.422842293764358,0.0,-2.941717570344702,0.0
4530393662.8935,-13.412064872835765,0.0,-2.9890474222977055,0.0
4530408662.893,-13.41556745080638,0.0,-2.968187544371515,0.0
4530423662.8925,-13.422662413461905,0.0,-2.915291146704321,0.0
4530438662.892,-13.423623815768144,0.0,-2.940820233591202,0.0
4530453662.8915,-13.418674257276859,0.0,-2.866606573654806,0.0
4530468662.891,-13.423135488602224,0.0,-2.980565130544153,0.0
4530483662.8905,-13.418899273266472,0.0,-2.9306909758681665,0.0
4530498662.89,-13.421429321746318,0.0,-2.9757143860967,0.0
4530513662.8895,-13.412991267286568,0.0,-2.978954409331294,0.0
4530528662.889,-13.415556807916932,0.0,-2.981846414479052,0.0
4530543662.8885,-13.422605764519918,0.0,-2.9612152118524957,0.0
4530558662.888,-13.42690921449834,0.0,-2.9486618013685995,0.0
4530573662.8875,-13.42098598974006,0.0,-3.004551216794782,0.0
4530588662.887,-13.426447132736662,0.0,-2.9580334727284923,0.0
4530603662.8865,-13.421612339438873,0.0,-3.017924208250813,0.0
4530618662.886,-13.419671610298213,0.0,-2.949280653073729,0.0
4530633662.8855,-13.429679455374403,0.0,-2.995735624361729,0.0
4530648662.885,-13.424677875206719,0.0,-3.0058003014050403,0.0
4530663662.8845,-13.417215437175345,0.0,-3.001601982382766,0.0
4530678662.884,-13.419504179726456,0.0,-2.9718140298330438,0.0
4530693662.8835,-13.423459189883445,0.0,-2.9752575727869552,0.0
4530708662.883,-13.419476157503503,0.0,-3.0097560164150097,0.0
4530723662.8825,-13.421450538679114,0.0,-2.9716097651553794,0.0
4530738662.882,-13.438249953156287,0.0,-3.069431993704213,0.0
4530753662.8815,-13.429021506616152,0.0,-3.000159472036234,0.0
4530768662.881,-13.41563816834988,0.0,-2.985805268297337,0.0
4530783662.8805,-13.420465487190897,0.0,-3.03258786338132,0.0
4530798662.88,-13.429065100576295,0.0,-3.0196103031405506,0.0
4530813662.8795,-13.42961475031017,0.0,-3.009305182711504,0.0
4530828662.879,-13.417764413294233,0.0,-3.048231902323275,0.0
4530843662.8785,-13.423409940776331,0.0,-3.010798768886611,0.0
4530858662.878,-13.418322590041509,0.0,-3.0917794709706863,0.0
4530873662.8775,-13.424399774803044,0.0,-3.0546059836321033,0.0
4530888662.877,-13.42346995062313,0.0,-3.0715537486471094,0.0
4530903662.8765,-13.422455042584037,0.0,-3.033574294277379,0.0
4530918662.876,-13.433168252472534,0.0,-3.070383508671988,0.0
4530933662.8755,-13.42823103414611,0.0,-3.0602818977506017,0.0
4530948662.875,-13.42618450369886,0.0,-3.053482688112637,0.0
4530963662.8745,-13.426210558959507,0.0,-3.125447061554241,0.0
4530978662.874,-13.424769480544636,0.0,-3.054632857926924,0.0
4530993662.8735,-13.419397394928804,0.0,-3.078813654884095,0.0
4531008662.873,-13.418385324912876,0.0,-3.044973213840269,0.0
4531023662.8725,-13.418294910423725,0.0,-3.089057729395974,0.0
4531038662.872,-13.419896557357259,0.0,-3.0342532570307235,0.0
4531053662.8715,-13.425535366848312,0.0,-3.080570131966521,0.0
4531068662.871,-13.42879270801113,0.0,-3.1212265592543997,0.0
4531083662.8705,-13.433664987678966,0.0,-3.104706105559079,0.0
4531098662.87,-13.423461460990382,0.0,-3.0780091874442452,0.0
4531113662.8695,-13.418226494935205,0.0,-3.052744910527049,0.0
4531128662.869,-13.421013372163443,0.0,-3.080387893478251,0.0
4531143662.8685,-13.428757937935945,0.0,-3.0924118646193177,0.0
4531158662.868,-13.419946079738438,0.0,-3.1234534901485533,0.0
4531173662.8675,-13.425448412513639,0.0,-3.108108923269412,0.0
4531188662.867,-13.431007689590304,0.0,-3.0974114760736655,0.0
4531203662.8665,-13.430333674135557,0.0,-3.175568485646688,0.0
4531218662.866,-13.421868382922463,0.0,-3.1292021810133868,0.0
4531233662.8655,-13.430962822662547,0.0,-3.0405827234707004,0.0
4531248662.865,-13.428995856132829,0.0,-3.0865861477984944,0.0
4531263662.8645,-13.421353360602776,0.0,-3.1372310945296285,0.0
4531278662.864,-13.424745882369242,0.0,-3.139695177944968,0.0
4531293662.8635,-13.423151916547464,0.0,-3.1156985641386203,0.0
4531308662.863,-13.428445579097763,0.0,-3.1478834449134228,0.0
4531323662.8625,-13.435401378520877,0.0,-3.114208360784537,0.0
4531338662.862,-13.428912138335212,0.0,-3.0929682666972425,0.0
4531353662.8615,-13.418218409261879,0.0,-3.1851982634362694,0.0
4531368662.861,-13.430956358382172,0.0,-3.1891159241483726,0.0
4531383662.8605,-13.427472328967475,0.0,-3.191230517145842,0.0
4531398662.86,-13.41827281565198,0.0,-3.190361549134599,0.0
4531413662.8595,-13.431325516957111,0.0,-3.1489615860017026,0.0
4531428662.859,-13.425528976607444,0.0,-3.167575693521118,0.0
4531443662.8585,-13.429979393331312,0.0,-3.2068163106403147,0.0
4531458662.858,-13.421311512437473,0.0,-3.0821830627116644,0.0
4531473662.8575,-13.423778297881505,0.0,-3.17786214431362,0.0
4531488662.857,-13.41878138956077,0.0,-3.093505288759167,0.0
4531503662.8565,-13.428458821097053,0.0,-3.1844762463101093,0.0
4531518662.856,-13.426053992024734,0.0,-3.213315772748633,0.0
4531533662.8555,-13.426949473795549,0.0,-3.1568676212650524,0.0
4531548662.855,-13.42428084254285,0.0,-3.244733630873454,0.0
4531563662.8545,-13.430635849554857,0.0,-3.2342462884870224,0.0
4531578662.854,-13.424665484493348,0.0,-3.2399276759042044,0.0
4531593662.8535,-13.428528965724123,0.0,-3.15929458358435,0.0
4531608662.853,-13.42798379862619,0.0,-3.1979543127987986,0.0
4531623662.8525,-13.425226251802158,0.0,-3.2667568115496537,0.0
4531638662.852,-13.421327654011193,0.0,-3.2303931576295524,0.0
4531653662.8515,-13.421929856608008,0.0,-3.2245321225556953,0.0
4531668662.851,-13.419447740993359,0.0,-3.246656031991286,0.0
4531683662.8505,-13.433053830893568,0.0,-3.211183069265542,0.0
4531698662.85,-13.421070927345792,0.0,-3.255798682428046,0.0
4531713662.8495,-13.42455855253537,0.0,-3.198189958414241,0.0
4531728662.849,-13.427834550159307,0.0,-3.256964472280061,0.0
4531743662.8485,-13.422630139479727,0.0,-3.2230796921221807,0.0
4531758662.848,-13.418960457191007,0.0,-3.2568036051120623,0.0
4531773662.8475,-13.418875585843839,0.0,-3.309753704680174,0.0
4531788662.847,-13.422990975454292,0.0,-3.3356028262391364,0.0
4531803662.8465,-13.429352932892545,0.0,-3.275614133327621,0.0
4531818662.846,-13.43150390032714,0.0,-3.283116609082606,0.0
4531833662.8455,-13.417414681655199,0.0,-3.2529189934946428,0.0
4531848662.845,-13.41984400684196,0.0,-3.3053520172898008,0.0
4531863662.8445,-13.423420671241832,0.0,-3.2405629304562824,0.0
4531878662.844,-13.431395058680982,0.0,-3.3173944958035895,0.0
