Frequency,S11,S11-Q,S11-Phase,S11-Phase-Q
4527198663.0,-13.420630254912325,0.0,-2.4207084576315334,0.0
4527213662.9995,-13.41569148332572,0.0,-2.424996994943179,0.0
4527228662.999,-13.42506492183725,0.0,-2.4531893715805335,0.0
4527243662.9985,-13.418255823025094,0.0,-2.441754036996204,0.0
4527258662.998,-13.41303003431104,0.0,-2.35460105402042,0.0
4527273662.9975,-13.411457446987725,0.0,-2.4709837986015866,0.0
4527288662.997,-13.408913717879594,0.0,-2.4034851625770965,0.0
4527303662.9965,-13.417179042128726,0.0,-2.4070441074198685,0.0
4527318662.996,-13.422636931381163,0.0,-2.435411020833908,0.0
4527333662.9955,-13.410493382940762,0.0,-2.3728924927497115,0.0
4527348662.995,-13.41983793335575,0.0,-2.388942902502674,0.0
4527363662.9945,-13.410768324526927,0.0,-2.4342538610623734,0.0
4527378662.994,-13.408604789245818,0.0,-2.482253379706628,0.0
4527393662.9935,-13.409826902599132,0.0,-2.4631902996813975,0.0
4527408662.993,-13.412393802546678,0.0,-2.426437918058281,0.0
4527423662.9925,-13.40981823610978,0.0,-2.462523785075282,0.0
4527438662.992,-13.420219282966684,0.0,-2.465054809004522,0.0
4527453662.9915,-13.405283875125294,0.0,-2.4918015664414948,0.0
4527468662.991,-13.408743430589409,0.0,-2.4375804449837575,0.0
4527483662.9905,-13.4238140102719,0.0,-2.405698697491644,0.0
4527498662.99,-13.413768599196398,0.0,-2.364491178451006,0.0
4527513662.9895,-13.418564113763962,0.0,-2.4846672075307903,0.0
4527528662.989,-13.415683936522058,0.0,-2.4862871153846755,0.0
4527543662.9885,-13.418586384596642,0.0,-2.423453940637737,0.0
4527558662.988,-13.415135138540519,0.0,-2.471416128957568,0.0
4527573662.9875,-13.418034411351456,0.0,-2.386714926025817,0.0
4527588662.987,-13.407395920644234,0.0,-2.421375364887353,0.0
4527603662.9865,-13.416129496550262,0.0,-2.366586274497199,0.0
4527618662.986,-13.41745541749479,0.0,-2.419897357885751,0.0
4527633662.9855,-13.41351089664126,0.0,-2.4839868529168063,0.0
4527648662.985,-13.419657768808813,0.0,-2.4318385407591387,0.0
4527663662.9845,-13.420680802736257,0.0,-2.4418433086411904,0.0
4527678662.984,-13.41563783750902,0.0,-2.480657847208967,0.0
4527693662.9835,-13.427015467464866,0.0,-2.4708318033675796,0.0
4527708662.983,-13.415264113575944,0.0,-2.4899084294045433,0.0
4527723662.9825,-13.423311310364895,0.0,-2.4374106249230483,0.0
4527738662.982,-13.411368504131353,0.0,-2.4297366406344736,0.0
4527753662.9815,-13.41593778233733,0.0,-2.4637007223827205,0.0
4527768662.981,-13.427728982508501,0.0,-2.476256588270535,0.0
4527783662.9805,-13.417764933652965,0.0,-2.480953852150636,0.0
4527798662.98,-13.418304412820563,0.0,-2.483516119824648,0.0
4527813662.9795,-13.414905475598143,0.0,-2.5048527890203465,0.0
4527828662.979,-13.414846494229005,0.0,-2.4697425284899257,0.0
4527843662.9785,-13.421072510322833,0.0,-2.523865900174058,0.0
4527858662.978,-13.41567186874894,0.0,-2.459973618925417,0.0
4527873662.9775,-13.419958607188116,0.0,-2.4920864685239357,0.0
4527888662.977,-13.410179452173157,0.0,-2.4780063688428617,0.0
4527903662.9765,-13.429943672661846,0.0,-2.490839289144478,0.0
4527918662.976,-13.423866374048155,0.0,-2.4237545528304287,0.0
4527933662.9755,-13.416201036481679,0.0,-2.508941210997193,0.0
4527948662.975,-13.414170256371953,0.0,-2.5221385793372715,0.0
4527963662.9745,-13.406403774919298,0.0,-2.5006030648995745,0.0
4527978662.974,-13.415925795363616,0.0,-2.5001642449644743,0.0
4527993662.9735,-13.423029713712953,0.0,-2.500557617556865,0.0
4528008662.973,-13.428051107797476,0.0,-2.4593807353434314,0.0
4528023662.9725,-13.422612720410005,0.0,-2.529655945516363,0.0
4528038662.972,-13.428299435430501,0.0,-2.515536166388776,0.0
4528053662.9715,-13.420362004298429,0.0,-2.518747398245372,0.0
4528068662.971,-13.414579371389463,0.0,-2.500332332204395,0.0
4528083662.9705,-13.411961797396197,0.0,-2.4856481126962167,0.0
4528098662.97,-13.43412905169581,0.0,-2.5280173497857406,0.0
4528113662.9695,-13.424102484766337,0.0,-2.561276671660871,0.0
4528128662.969,-13.419662424140633,0.0,-2.512355705520983,0.0
4528143662.9685,-13.425774344339187,0.0,-2.5196744558916775,0.0
4528158662.968,-13.415540681356715,0.0,-2.5423048239221444,0.0
4528173662.9675,-13.414152621363666,0.0,-2.609974159582815,0.0
4528188662.967,-13.413924579586284,0.0,-2.559424818430167,0.0
4528203662.9665,-13.40949598306076,0.0,-2.54406285260805,0.0
4528218662.966,-13.411818099243176,0.0,-2.595273020663496,0.0
4528233662.9655,-13.422808273978614,0.0,-2.588893893062498,0.0
4528248662.965,-13.417985134298448,0.0,-2.520207895016132,0.0
4528263662.9645,-13.41666481686268,0.0,-2.5031523907279363,0.0
4528278662.964,-13.42098505832399,0.0,-2.585691550328853,0.0
4528293662.9635,-13.416411753941919,0.0,-2.6327819369428855,0.0
4528308662.963,-13.42623151362141,0.0,-2.5890241354704093,0.0
4528323662.9625,-13.41760693762029,0.0,-2.5258641010704572,0.0
4528338662.962,-13.417747950436656,0.0,-2.613202722750993,0.0
4528353662.9615,-13.41796933740179,0.0,-2.486381273374619,0.0
4528368662.961,-13.411329429522167,0.0,-2.5731705062322554,0.0
4528383662.9605,-13.420244442634857,0.0,-2.4928427308479706,0.0
4528398662.96,-13.421989137863806,0.0,-2.57696405111697,0.0
4528413662.9595,-13.421336481919685,0.0,-2.6126480467552735,0.0
4528428662.959,-13.41380472405775,0.0,-2.560044746095449,0.0
4528443662.9585,-13.410426980802907,0.0,-2.5357975252386575,0.0
4528458662.958,-13.401894922677648,0.0,-2.59054930025873,0.0
4528473662.9575,-13.415534971907551,0.0,-2.580393708419165,0.0
4528488662.957,-13.414163357339202,0.0,-2.651364385694434,0.0
4528503662.9565,-13.41503042422345,0.0,-2.602842997867118,0.0
4528518662.956,-13.426076059559284,0.0,-2.5300133839014167,0.0
4528533662.9555,-13.421283771393158,0.0,-2.5801123721752024,0.0
4528548662.955,-13.416249598733126,0.0,-2.5939084426105996,0.0
4528563662.9545,-13.420042693612046,0.0,-2.59982728267858,0.0
4528578662.954,-13.409801639584462,0.0,-2.5861370155626733,0.0
4528593662.9535,-13.416682009161407,0.0,-2.6124557456965816,0.0
4528608662.953,-13.412713588083093,0.0,-2.5572216155471,0.0
4528623662.9525,-13.411614727999963,0.0,-2.614047449536041,0.0
4528638662.952,-13.423977525148558,0.0,-2.6632725692779946,0.0
4528653662.9515,-13.419963941098604,0.0,-2.627735657287019,0.0
4528668662.951,-13.422126932024543,0.0,-2.658135715148916,0.0
4528683662.9505,-13.423805564032794,0.0,-2.5567838971671377,0.0
4528698662.95,-13.4122900538493,0.0,-2.5853152634341274,0.0
4528713662.9495,-13.425138812091738,0.0,-2.6409700637949522,0.0
4528728662.949,-13.415295166824155,0.0,-2.6131194822371118,0.0
4528743662.9485,-13.409511302102716,0.0,-2.6373614844343907,0.0
4528758662.948,-13.422693177338967,0.0,-2.6087128945221143,0.0
4528773662.9475,-13.417806884887206,0.0,-2.5975899671596903,0.0
4528788662.947,-13.420263072398395,0.0,-2.5987200177956664,0.0
4528803662.9465,-13.42155825659983,0.0,-2.6209379404431785,0.0
4528818662.946,-13.418775771381542,0.0,-2.6078174040822764,0.0
4528833662.9455,-13.410150579248668,0.0,-2.6206882728705074,0.0
4528848662.945,-13.42501681141967,0.0,-2.671869556213013,0.0
4528863662.9445,-13.412118621582687,0.0,-2.670094700364084,0.0
4528878662.944,-13.419760116901609,0.0,-2.629139736508885,0.0
4528893662.9435,-13.422533167575125,0.0,-2.634574171671395,0.0
4528908662.943,-13.420652141692472,0.0,-2.6057309555494985,0.0
4528923662.9425,-13.417280054699338,0.0,-2.61619711470411,0.0
4528938662.942,-13.414332299386428,0.0,-2.6118002893457293,0.0
4528953662.9415,-13.419922602321519,0.0,-2.6413198128136592,0.0
4528968662.941,-13.41191865014043,0.0,-2.6665151437225307,0.0
4528983662.9405,-13.420161025268985,0.0,-2.6230540923092884,0.0
4528998662.94,-13.41541880772735,0.0,-2.683108372876213,0.0
4529013662.9395,-13.426114177999855,0.0,-2.6914831463739115,0.0
4529028662.939,-13.416427882600138,0.0,-2.6690624981916473,0.0
4529043662.9385,-13.42532363398207,0.0,-2.7180714292189063,0.0
4529058662.938,-13.419917192306691,0.0,-2.6869460285181193,0.0
4529073662.9375,-13.425255744937703,0.0,-2.696954434650398,0.0
4529088662.937,-13.411801096509922,0.0,-2.620769487135682,0.0
4529103662.9365,-13.409130297754013,0.0,-2.6648083440622803,0.0
4529118662.936,-13.417154614290379,0.0,-2.7150658442792843,0.0
4529133662.9355,-13.427806658506963,0.0,-2.726661670420297,0.0
4529148662.935,-13.417709791082036,0.0,-2.684245402089145,0.0
4529163662.9345,-13.426938164079827,0.0,-2.7495574198258192,0.0
4529178662.934,-13.425407212585167,0.0,-2.7087487498620106,0.0
4529193662.9335,-13.424368294248815,0.0,-2.7114489575913834,0.0
4529208662.933,-13.411158683308903,0.0,-2.689990228579032,0.0
4529223662.9325,-13.414969903478971,0.0,-2.67695559450334,0.0
4529238662.932,-13.407240469706348,0.0,-2.7108969490303494,0.0
4529253662.9315,-13.417129315944816,0.0,-2.72991431558967,0.0
4529268662.931,-13.417275470428347,0.0,-2.736716672977758,0.0
4529283662.9305,-13.416572879095717,0.0,-2.731674184356155,0.0
4529298662.93,-13.423853481202643,0.0,-2.7475983412784997,0.0
4529313662.9295,-13.424695520821572,0.0,-2.7041975370512485,0.0
4529328662.929,-13.420066146114976,0.0,-2.721854555481001,0.0
4529343662.9285,-13.418348383628613,0.0,-2.7224977790048586,0.0
4529358662.928,-13.418203587574702,0.0,-2.713529094276791,0.0
4529373662.9275,-13.413589672897338,0.0,-2.7159391915908646,0.0
4529388662.927,-13.422806458236444,0.0,-2.7079852049009654,0.0
4529403662.9265,-13.412905796163543,0.0,-2.7712230281489814,0.0
4529418662.926,-13.421583160503214,0.0,-2.7591443997774783,0.0
4529433662.9255,-13.427360718821891,0.0,-2.6467085040342213,0.0
4529448662.925,-13.426206149554238,0.0,-2.7137356104872676,0.0
4529463662.9245,-13.414262138940273,0.0,-2.7923731058814196,0.0
4529478662.924,-13.424951876777364,0.0,-2.7348397145759336,0.0
4529493662.9235,-13.419371833415795,0.0,-2.764525697348048,0.0
4529508662.923,-13.418143947462422,0.0,-2.740872302782905,0.0
4529523662.9225,-13.42189832299402,0.0,-2.7736400931384684,0.0
4529538662.922,-13.42327939931508,0.0,-2.731063028368431,0.0
4529553662.9215,-13.415743653309889,0.0,-2.8212640130755475,0.0
4529568662.921,-13.420643167351493,0.0,-2.779484329276586,0.0
4529583662.9205,-13.413781755306289,0.0,-2.7567531364833116,0.0
4529598662.92,-13.419004842684563,0.0,-2.7691493781925436,0.0
4529613662.9195,-13.425072980083694,0.0,-2.8019424277656615,0.0
4529628662.919,-13.420942336321676,0.0,-2.7859129045233986,0.0
4529643662.9185,-13.419636490634153,0.0,-2.7807000469633683,0.0
4529658662.918,-13.424313441404252,0.0,-2.772201661221545,0.0
4529673662.9175,-13.41550882509156,0.0,-2.7613957777511215,0.0
4529688662.917,-13.430561136210509,0.0,-2.7455262130978677,0.0
4529703662.9165,-13.42188470602155,0.0,-2.770740579970853,0.0
4529718662.916,-13.42655762107211,0.0,-2.789159531416477,0.0
4529733662.9155,-13.426346916334243,0.0,-2.821955524933219,0.0
4529748662.915,-13.418190726934425,0.0,-2.858008206224015,0.0
4529763662.9145,-13.422483662365352,0.0,-2.830791204654673,0.0
4529778662.914,-13.427126741043175,0.0,-2.788397404115313,0.0
4529793662.9135,-13.42393662642004,0.0,-2.7168678452263295,0.0
4529808662.913,-13.423880454261178,0.0,-2.8538845903254053,0.0
4529823662.9125,-13.431895200454205,0.0,-2.780939257600648,0.0
4529838662.912,-13.421972424277392,0.0,-2.7569725462737753,0.0
4529853662.9115,-13.419845585767735,0.0,-2.836298165143364,0.0
4529868662.911,-13.429836339322929,0.0,-2.8811553109916224,0.0
4529883662.9105,-13.419871068919196,0.0,-2.8755533504846045,0.0
4529898662.91,-13.41692152115191,0.0,-2.852480737964205,0.0
4529913662.9095,-13.420347989324036,0.0,-2.8784972273036726,0.0
4529928662.909,-13.425354123115223,0.0,-2.935265596429415,0.0
4529943662.9085,-13.424885518549425,0.0,-2.861562371959006,0.0
4529958662.908,-13.419756135223782,0.0,-2.8449216900818572,0.0
4529973662.9075,-13.421760624456283,0.0,-2.8606505523162675,0.0
4529988662.907,-13.429672223538606,0.0,-2.8489543130920385,0.0
4530003662.9065,-13.41995990406295,0.0,-2.9103619211093625,0.0
4530018662.906,-13.423380669221993,0.0,-2.890024286811112,0.0
4530033662.9055,-13.420246051550219,0.0,-2.8087817250844123,0.0
4530048662.905,-13.42305340204814,0.0,-2.807731044380548,0.0
4530063662.9045,-13.42292235661234,0.0,-2.8041772307403257,0.0
4530078662.904,-13.43158611344946,0.0,-2.9073754562375984,0.0
4530093662.9035,-13.424625901005356,0.0,-2.8473267235043087,0.0
4530108662.903,-13.428778433227356,0.0,-2.882777803594509,0.0
4530123662.9025,-13.424199125570206,0.0,-2.8975526786342773,0.0
4530138662.902,-13.427851240410227,0.0,-2.9073496600058073,0.0
4530153662.9015,-13.415909170440298,0.0,-2.846164420045693,0.0
4530168662.901,-13.429171991541525,0.0,-2.8851287173506885,0.0
4530183662.9005,-13.426170123492192,0.0,-2.918450480064928,0.0
4530198662.9,-13.421719698881692,0.0,-2.879677790641683,0.0
4530213662.8995,-13.429363008658852,0.0,-2.83274674451976,0.0
4530228662.899,-13.431033258292153,0.0,-2.883349284153364,0.0
4530243662.8985,-13.426617885731428,0.0,-2.911076232283986,0.0
4530258662.898,-13.42484920203145,0.0,-2.9238430517475824,0.0
4530273662.8975,-13.422931905006422,0.0,-2.9062010832217786,0.0
4530288662.897,-13.426356091570725,0.0,-2.9207685875262714,0.0
4530303662.8965,-13.426304945272783,0.0,-2.926893665896712,0.0
4530318662.896,-13.421040563260023,0.0,-2.9270933700483583,0.0
4530333662.8955,-13.427146113464033,0.0,-2.9310836510426324,0.0
4530348662.895,-13.428738092676053,0.0,-2.916849233460524,0.0
4530363662.8945,-13.433162995326589,0.0,-2.9196630950164373,0.0
4530378662.894,-13.424762545304755,0.0,-2.9511149965200816,0.0
4530393662.8935,-13.424060937447502,0.0,-2.8720385474455092,0.0
4530408662.893,-13.421125451501139,0.0,-2.9125465730607045,0.0
4530423662.8925,-13.422242828548223,0.0,-2.968054864958437,0.0
4530438662.892,-13.42537058275218,0.0,-2.952416510039242,0.0
4530453662.8915,-13.416950080004618,0.0,-2.8715370392613226,0.0
4530468662.891,-13.428325478802494,0.0,-2.8918657432466177,0.0
4530483662.8905,-13.42267956184245,0.0,-2.942762588749,0.0
4530498662.89,-13.426401182741763,0.0,-2.9504665987294265,0.0
4530513662.8895,-13.419879348507786,0.0,-2.9589625620544897,0.0
4530528662.889,-13.421416138869994,0.0,-2.927734596537385,0.0
4530543662.8885,-13.419723142568012,0.0,-2.8987894688974136,0.0
4530558662.888,-13.42647068409368,0.0,-2.8973239698356896,0.0
4530573662.8875,-13.427753663888584,0.0,-2.9320402337589657,0.0
4530588662.887,-13.428848775855144,0.0,-3.0104549212019047,0.0
4530603662.8865,-13.428583725825225,0.0,-2.935538036684379,0.0
4530618662.886,-13.424516515121702,0.0,-2.923359874840458,0.0
4530633662.8855,-13.41670182118631,0.0,-2.9455802006588416,0.0
4530648662.885,-13.435393782873836,0.0,-3.0011899101299027,0.0
4530663662.8845,-13.42514394622906,0.0,-2.9858611587066437,0.0
4530678662.884,-13.423884893464624,0.0,-2.99012170204655,0.0
4530693662.8835,-13.434289431322966,0.0,-3.027640938386905,0.0
4530708662.883,-13.425892846685802,0.0,-2.9853030111351093,0.0
4530723662.8825,-13.425247292915321,0.0,-3.005176563954917,0.0
4530738662.882,-13.433172348527023,0.0,-3.043046753447754,0.0
4530753662.8815,-13.431417930641985,0.0,-3.023988939466489,0.0
4530768662.881,-13.428429572323656,0.0,-2.9706489884846956,0.0
4530783662.8805,-13.42838204931829,0.0,-3.0064535679620223,0.0
4530798662.88,-13.434308947397817,0.0,-3.033456226227881,0.0
4530813662.8795,-13.42513442947129,0.0,-3.0386907350099785,0.0
4530828662.879,-13.427757383742321,0.0,-3.012601457093579,0.0
4530843662.8785,-13.432386299400934,0.0,-2.9810079885327117,0.0
4530858662.878,-13.431475453775583,0.0,-2.964047205527206,0.0
4530873662.8775,-13.427888335761217,0.0,-3.017642911973913,0.0
4530888662.877,-13.430921966705531,0.0,-3.0028682033001113,0.0
4530903662.8765,-13.42872721873688,0.0,-3.0248961671431034,0.0
4530918662.876,-13.416153554067979,0.0,-3.017316123968636,0.0
4530933662.8755,-13.411761467769294,0.0,-3.094141628410736,0.0
4530948662.875,-13.4378437924531,0.0,-3.0975158753593064,0.0
4530963662.8745,-13.42752253644833,0.0,-3.0556660725667197,0.0
4530978662.874,-13.426249540841432,0.0,-2.983581865743008,0.0
4530993662.8735,-13.43251947708994,0.0,-3.029433013915167,0.0
4531008662.873,-13.428377737950374,0.0,-3.0449459741118745,0.0
4531023662.8725,-13.424608418084736,0.0,-3.0259986481856433,0.0
4531038662.872,-13.42774563367903,0.0,-3.000562589114092,0.0
4531053662.8715,-13.42240649472699,0.0,-3.0754351201535037,0.0
4531068662.871,-13.41337588455416,0.0,-3.121944691277084,0.0
4531083662.8705,-13.418921923363685,0.0,-3.115025943353443,0.0
4531098662.87,-13.429290290786698,0.0,-3.0218886601630595,0.0
4531113662.8695,-13.428843086140994,0.0,-3.033266397419627,0.0
4531128662.869,-13.42791809542095,0.0,-3.066936260824212,0.0
4531143662.8685,-13.430414724392737,0.0,-3.103970794584071,0.0
4531158662.868,-13.431983518270059,0.0,-3.093469361617539,0.0
4531173662.8675,-13.423227111503124,0.0,-3.1338521037783513,0.0
4531188662.867,-13.422071992967748,0.0,-3.103407955727828,0.0
4531203662.8665,-13.418590143186119,0.0,-3.114485873545703,0.0
4531218662.866,-13.428830730861932,0.0,-3.12547094940386,0.0
4531233662.8655,-13.438813511488403,0.0,-3.06512846024299,0.0
4531248662.865,-13.430659853574314,0.0,-3.137158272816006,0.0
4531263662.8645,-13.430340535964184,0.0,-3.1155026729800617,0.0
4531278662.864,-13.431597710267981,0.0,-3.1001432313200636,0.0
4531293662.8635,-13.429382271368397,0.0,-3.0165325382475685,0.0
4531308662.863,-13.425809914060356,0.0,-3.1233892211788623,0.0
4531323662.8625,-13.424981885505565,0.0,-3.1478142277257573,0.0
4531338662.862,-13.423791684124588,0.0,-3.1644243534186045,0.0
4531353662.8615,-13.426694151085886,0.0,-3.158176692367454,0.0
4531368662.861,-13.424607927048138,0.0,-3.10644749747461,0.0
4531383662.8605,-13.439616839320559,0.0,-3.177035689357091,0.0
4531398662.86,-13.427573413411746,0.0,-3.142801383426097,0.0
4531413662.8595,-13.427027263339728,0.0,-3.1357204948122868,0.0
4531428662.859,-13.426896062977276,0.0,-3.2016011756270295,0.0
4531443662.8585,-13.431018354097601,0.0,-3.189485163951942,0.0
4531458662.858,-13.430951417559019,0.0,-3.2021289938591977,0.0
4531473662.8575,-13.42499425489343,0.0,-3.2066586213385713,0.0
4531488662.857,-13.428083623391476,0.0,-3.1762945848528883,0.0
4531503662.8565,-13.444421568171542,0.0,-3.1447005274303947,0.0
4531518662.856,-13.430425823077368,0.0,-3.181998018984943,0.0
4531533662.8555,-13.434010090336963,0.0,-3.220228075675965,0.0
4531548662.855,-13.43783738993723,0.0,-3.171132058502305,0.0
4531563662.8545,-13.425488834836337,0.0,-3.2219226385917086,0.0
4531578662.854,-13.430930740576905,0.0,-3.189888553940791,0.0
4531593662.8535,-13.431380048081731,0.0,-3.141270966829424,0.0
4531608662.853,-13.428243662652559,0.0,-3.1278472479026873,0.0
4531623662.8525,-13.433381843026213,0.0,-3.1509542036564504,0.0
4531638662.852,-13.436996889404053,0.0,-3.1715621678953823,0.0
4531653662.8515,-13.43117417937493,0.0,-3.2272116630806296,0.0
4531668662.851,-13.431462664434697,0.0,-3.2355379177610173,0.0
4531683662.8505,-13.436476306892084,0.0,-3.221649120376851,0.0
4531698662.85,-13.42571855452629,0.0,-3.2177766709403164,0.0
4531713662.8495,-13.42060605459486,0.0,-3.189297975328065,0.0
4531728662.849,-13.424683234464517,0.0,-3.275800576940947,0.0
4531743662.8485,-13.426060076404603,0.0,-3.2414840329044767,0.0
4531758662.848,-13.435430967693868,0.0,-3.2623089330859667,0.0
4531773662.8475,-13.438258547848662,0.0,-3.257581769399778,0.0
4531788662.847,-13.436906394631613,0.0,-3.242539180256857,0.0
4531803662.8465,-13.43287973483984,0.0,-3.322337953540064,0.0
4531818662.846,-13.429320127586868,0.0,-3.2564042123206605,0.0
4531833662.8455,-13.437169775743989,0.0,-3.22410769924978,0.0
4531848662.845,-13.434853957603233,0.0,-3.2478108312764196,0.0
4531863662.8445,-13.433433179922918,0.0,-3.2456716690706844,0.0
4531878662.844,-13.435465438390462,0.0,-3.2564892511067045,0.0
