Frequency,S11,S11-Q,S11-Phase,S11-Phase-Q
4527198663.0,-13.424182701268377,0.0,-2.5028689605225565,0.0
4527213662.9995,-13.426030930205465,0.0,-2.5074284807432625,0.0
4527228662.999,-13.43378812175482,0.0,-2.4649054495318907,0.0
4527243662.9985,-13.423144349104216,0.0,-2.584691712157335,0.0
4527258662.998,-13.431101208022573,0.0,-2.555156116245839,0.0
4527273662.9975,-13.421801114189666,0.0,-2.5361676694427535,0.0
4527288662.997,-13.425289839117786,0.0,-2.530151132113966,0.0
4527303662.9965,-13.418942669862975,0.0,-2.5086627402906765,0.0
4527318662.996,-13.428909386902397,0.0,-2.5287283192111945,0.0
4527333662.9955,-13.423773166625008,0.0,-2.6226348646455686,0.0
4527348662.995,-13.43330313441221,0.0,-2.55780052122336,0.0
4527363662.9945,-13.424446167107453,0.0,-2.5656456949150717,0.0
4527378662.994,-13.426758669607546,0.0,-2.5757927048198823,0.0
4527393662.9935,-13.424785130665107,0.0,-2.6237843289400025,0.0
4527408662.993,-13.432485976264836,0.0,-2.5650189715586555,0.0
4527423662.9925,-13.432223738556475,0.0,-2.5605533359145696,0.0
4527438662.992,-13.423749962546413,0.0,-2.6133209760079006,0.0
4527453662.9915,-13.428827995305417,0.0,-2.590769801871325,0.0
4527468662.991,-13.422185350477445,0.0,-2.614673346367921,0.0
4527483662.9905,-13.42065195278359,0.0,-2.578153788130271,0.0
4527498662.99,-13.419162388497885,0.0,-2.5958785449919457,0.0
4527513662.9895,-13.424376249682723,0.0,-2.5769784637419977,0.0
4527528662.989,-13.427725609486732,0.0,-2.5524975215324748,0.0
4527543662.9885,-13.424350133007966,0.0,-2.5705674999588948,0.0
4527558662.988,-13.422567467908372,0.0,-2.6056555741502208,0.0
4527573662.9875,-13.4291932422943,0.0,-2.655179369221415,0.0
4527588662.987,-13.433203790366154,0.0,-2.6278143062432586,0.0
4527603662.9865,-13.42663274826055,0.0,-2.531524237567405,0.0
4527618662.986,-13.431264226139913,0.0,-2.6573535661611913,0.0
4527633662.9855,-13.423524162646643,0.0,-2.5968046406317438,0.0
4527648662.985,-13.420670966256377,0.0,-2.6073234452594467,0.0
4527663662.9845,-13.43148855226909,0.0,-2.602591354093798,0.0
4527678662.984,-13.425485218011273,0.0,-2.6723707101147802,0.0
4527693662.9835,-13.422832323831429,0.0,-2.6250307064641323,0.0
4527708662.983,-13.43013675110644,0.0,-2.6776982804934666,0.0
4527723662.9825,-13.422600120228523,0.0,-2.5769316343605784,0.0
4527738662.982,-13.433224764768783,0.0,-2.601429743326017,0.0
4527753662.9815,-13.423331599719337,0.0,-2.6570915021163044,0.0
4527768662.981,-13.43198623583833,0.0,-2.564226769749847,0.0
4527783662.9805,-13.4254692249031,0.0,-2.6282847591293113,0.0
4527798662.98,-13.424449306471233,0.0,-2.591641714857135,0.0
4527813662.9795,-13.421987983100951,0.0,-2.579227609514305,0.0
4527828662.979,-13.427657456118407,0.0,-2.6790458264036263,0.0
4527843662.9785,-13.426305935821466,0.0,-2.5732184173623622,0.0
4527858662.978,-13.417145355900155,0.0,-2.5920761485255035,0.0
4527873662.9775,-13.43013910085092,0.0,-2.702250991445605,0.0
4527888662.977,-13.417210296245974,0.0,-2.633540683644996,0.0
4527903662.9765,-13.428020570662103,0.0,-2.6051832520160576,0.0
4527918662.976,-13.424242205849419,0.0,-2.6642514824285195,0.0
4527933662.9755,-13.422469789266366,0.0,-2.6330011270360236,0.0
4527948662.975,-13.42041995317766,0.0,-2.689745820295947,0.0
4527963662.9745,-13.434158999137708,0.0,-2.684445289423198,0.0
4527978662.974,-13.434851485506318,0.0,-2.6178496417864183,0.0
4527993662.9735,-13.424876583719826,0.0,-2.7275617343332015,0.0
4528008662.973,-13.441036149610465,0.0,-2.661166343825989,0.0
4528023662.9725,-13.425702199991573,0.0,-2.655389273721634,0.0
4528038662.972,-13.429087690971981,0.0,-2.596867493809044,0.0
4528053662.9715,-13.422454549436294,0.0,-2.6181947301908637,0.0
4528068662.971,-13.437883844613781,0.0,-2.6243449710523463,0.0
4528083662.9705,-13.424716136991059,0.0,-2.687167437511109,0.0
4528098662.97,-13.430252869989678,0.0,-2.675451211695173,0.0
4528113662.9695,-13.419024208027611,0.0,-2.6407708804340038,0.0
4528128662.969,-13.424481865986106,0.0,-2.6065201914965073,0.0
4528143662.9685,-13.438236912811774,0.0,-2.7284907664259275,0.0
4528158662.968,-13.421482165495524,0.0,-2.6568986290167884,0.0
4528173662.9675,-13.421024883503453,0.0,-2.728313396079481,0.0
4528188662.967,-13.429830265859993,0.0,-2.6469939461988723,0.0
4528203662.9665,-13.434750079815238,0.0,-2.6908535557175473,0.0
4528218662.966,-13.433124193030775,0.0,-2.703407754719003,0.0
4528233662.9655,-13.419436130616734,0.0,-2.683387258200748,0.0
4528248662.965,-13.429923202550533,0.0,-2.696185400020975,0.0
4528263662.9645,-13.429111625966705,0.0,-2.695898361108337,0.0
4528278662.964,-13.422656943588196,0.0,-2.707296721890493,0.0
4528293662.9635,-13.435549114494949,0.0,-2.70853695173888,0.0
4528308662.963,-13.423540564510507,0.0,-2.703046657999685,0.0
4528323662.9625,-13.430848419502357,0.0,-2.694032919291717,0.0
4528338662.962,-13.433683826899872,0.0,-2.77292990418279,0.0
4528353662.9615,-13.428880557925238,0.0,-2.7257249560081944,0.0
4528368662.961,-13.434233899044724,0.0,-2.6939307193318833,0.0
4528383662.9605,-13.425789774692563,0.0,-2.6881113026058157,0.0
4528398662.96,-13.429198853105602,0.0,-2.7602940150160427,0.0
4528413662.9595,-13.432450345598898,0.0,-2.7137406856348174,0.0
4528428662.959,-13.426462058093566,0.0,-2.6794741687449553,0.0
4528443662.9585,-13.424459840993194,0.0,-2.707428205284981,0.0
4528458662.958,-13.431483142553137,0.0,-2.7512123234745114,0.0
4528473662.9575,-13.43259382143858,0.0,-2.643830527717905,0.0
4528488662.957,-13.431555416337144,0.0,-2.7548893434614423,0.0
4528503662.9565,-13.42841965375904,0.0,-2.7322868678485674,0.0
4528518662.956,-13.437723439997729,0.0,-2.7409934019112745,0.0
4528533662.9555,-13.427817253238887,0.0,-2.6597393014906037,0.0
4528548662.955,-13.424306178234549,0.0,-2.7670764881233683,0.0
4528563662.9545,-13.426408229372779,0.0,-2.7191504383867278,0.0
4528578662.954,-13.43427081361908,0.0,-2.7231812208438297,0.0
4528593662.9535,-13.434670903359633,0.0,-2.812651573969307,0.0
4528608662.953,-13.433479765690812,0.0,-2.7633996207385785,0.0
4528623662.9525,-13.432249783177852,0.0,-2.6896839268524144,0.0
4528638662.952,-13.423381259642754,0.0,-2.7623910238011766,0.0
4528653662.9515,-13.42588522164162,0.0,-2.7574566611588587,0.0
4528668662.951,-13.439616607406112,0.0,-2.7203067067603794,0.0
4528683662.9505,-13.432108399432114,0.0,-2.7558845748081424,0.0
4528698662.95,-13.430667164949812,0.0,-2.7857117823474407,0.0
4528713662.9495,-13.424959720136036,0.0,-2.76427051199993,0.0
4528728662.949,-13.4315931315999,0.0,-2.8026123652441584,0.0
4528743662.9485,-13.430359161792873,0.0,-2.8062033341769737,0.0
4528758662.948,-13.433865748895325,0.0,-2.763456923468938,0.0
4528773662.9475,-13.42516649404189,0.0,-2.7933401558510087,0.0
4528788662.947,-13.427621537724603,0.0,-2.8167900556403453,0.0
4528803662.9465,-13.423648844887916,0.0,-2.843881317190221,0.0
4528818662.946,-13.434316310053557,0.0,-2.7992529188633903,0.0
4528833662.9455,-13.418869452200791,0.0,-2.774737041191492,0.0
4528848662.945,-13.430433686478352,0.0,-2.8143674594626398,0.0
4528863662.9445,-13.434645658356308,0.0,-2.736164883961558,0.0
4528878662.944,-13.426725932515568,0.0,-2.7957226086541884,0.0
4528893662.9435,-13.43201246103524,0.0,-2.785825113739143,0.0
4528908662.943,-13.436020777669608,0.0,-2.8027901488304003,0.0
4528923662.9425,-13.428551600169323,0.0,-2.789201510084774,0.0
4528938662.942,-13.4214136829528,0.0,-2.8531790925446487,0.0
4528953662.9415,-13.429643290634141,0.0,-2.81635245253743,0.0
4528968662.941,-13.433264330929013,0.0,-2.781226264949061,0.0
4528983662.9405,-13.423257469729997,0.0,-2.7797366128503813,0.0
4528998662.94,-13.438461453564157,0.0,-2.833293577559957,0.0
4529013662.9395,-13.442145896396923,0.0,-2.9054330572573663,0.0
4529028662.939,-13.431774151017233,0.0,-2.778234754164183,0.0
4529043662.9385,-13.436134859542042,0.0,-2.862623439269758,0.0
4529058662.938,-13.431692261645702,0.0,-2.8588960462430477,0.0
4529073662.9375,-13.431342589225377,0.0,-2.8520937725448037,0.0
4529088662.937,-13.429916419854514,0.0,-2.8111633426475473,0.0
4529103662.9365,-13.42447774800364,0.0,-2.9205532315750977,0.0
4529118662.936,-13.429226533621407,0.0,-2.814484795801893,0.0
4529133662.9355,-13.431334302755875,0.0,-2.903353577679687,0.0
4529148662.935,-13.42802741991929,0.0,-2.8766070397977708,0.0
4529163662.9345,-13.435173865063714,0.0,-2.8385183355897436,0.0
4529178662.934,-13.435615667593755,0.0,-2.8496631570603284,0.0
4529193662.9335,-13.42875587785125,0.0,-2.851728958690435,0.0
4529208662.933,-13.432338991174252,0.0,-2.851908654622293,0.0
4529223662.9325,-13.438262469343503,0.0,-2.9479343513825227,0.0
4529238662.932,-13.431860328051267,0.0,-2.8389838135259247,0.0
4529253662.9315,-13.433457306218557,0.0,-2.8397167002719392,0.0
4529268662.931,-13.430809804487476,0.0,-2.869447465124916,0.0
4529283662.9305,-13.435152998031949,0.0,-2.8928951086012855,0.0
4529298662.93,-13.427656670508629,0.0,-2.878945417002527,0.0
4529313662.9295,-13.435897971391569,0.0,-2.8387996359235244,0.0
4529328662.929,-13.43135252292225,0.0,-2.9517522141296055,0.0
4529343662.9285,-13.425384092716413,0.0,-2.8913871319548843,0.0
4529358662.928,-13.43200827177905,0.0,-2.838662703199257,0.0
4529373662.9275,-13.431370273987511,0.0,-2.878662035046624,0.0
4529388662.927,-13.425307175795467,0.0,-2.8957664475300864,0.0
4529403662.9265,-13.43531060068768,0.0,-2.9125671643093707,0.0
4529418662.926,-13.435431348390104,0.0,-2.8961763528686726,0.0
4529433662.9255,-13.433024714123789,0.0,-2.904203665774405,0.0
4529448662.925,-13.430138558393667,0.0,-2.973969236717154,0.0
4529463662.9245,-13.44211046142247,0.0,-2.9668646626228035,0.0
4529478662.924,-13.425843624137725,0.0,-2.9264121279374633,0.0
4529493662.9235,-13.428678649141094,0.0,-2.928923943028583,0.0
4529508662.923,-13.43690403672031,0.0,-2.942762527009192,0.0
4529523662.9225,-13.430783119881426,0.0,-2.9153518556888427,0.0
4529538662.922,-13.428942375062956,0.0,-2.907746263489222,0.0
4529553662.9215,-13.422991287985235,0.0,-2.900166177866196,0.0
4529568662.921,-13.4299372008393,0.0,-2.9016657655923628,0.0
4529583662.9205,-13.431943654529642,0.0,-2.9771936700565838,0.0
4529598662.92,-13.433332457302246,0.0,-2.9422747818116908,0.0
4529613662.9195,-13.434053798645351,0.0,-2.933068217468878,0.0
4529628662.919,-13.423032797260824,0.0,-2.9507918993547997,0.0
4529643662.9185,-13.421525958834152,0.0,-2.930450507757558,0.0
4529658662.918,-13.419167151921062,0.0,-2.99239016792449,0.0
4529673662.9175,-13.436230373028753,0.0,-2.898004589801622,0.0
4529688662.917,-13.429001894234363,0.0,-2.9370953771897863,0.0
4529703662.9165,-13.435530803123171,0.0,-3.0202704050065923,0.0
4529718662.916,-13.430895298429979,0.0,-2.8833072728003737,0.0
4529733662.9155,-13.42702170569806,0.0,-2.9713710974924297,0.0
4529748662.915,-13.42706611834108,0.0,-3.0253112481111066,0.0
4529763662.9145,-13.433578021723973,0.0,-2.947550364631057,0.0
4529778662.914,-13.429173733472606,0.0,-2.9799056168867613,0.0
4529793662.9135,-13.434005053899739,0.0,-2.981115141598836,0.0
4529808662.913,-13.43351821710793,0.0,-3.048021145551393,0.0
4529823662.9125,-13.424753100962278,0.0,-2.935079685180726,0.0
4529838662.912,-13.435329073103052,0.0,-2.978941107835603,0.0
4529853662.9115,-13.427934491259633,0.0,-2.9906083360529423,0.0
4529868662.911,-13.427066495721736,0.0,-2.9769767459547283,0.0
4529883662.9105,-13.42773936014738,0.0,-3.040101171407203,0.0
4529898662.91,-13.419480012177091,0.0,-3.036390500859268,0.0
4529913662.9095,-13.424444571549031,0.0,-3.08821338894354,0.0
4529928662.909,-13.442888409492879,0.0,-3.0362392131172267,0.0
4529943662.9085,-13.43114604717081,0.0,-3.0022096303810684,0.0
4529958662.908,-13.437138320361832,0.0,-2.9486518221391513,0.0
4529973662.9075,-13.425212436336691,0.0,-3.0439301016982974,0.0
4529988662.907,-13.425273508390434,0.0,-3.006154799062616,0.0
4530003662.9065,-13.426778017200519,0.0,-2.971956930489535,0.0
4530018662.906,-13.434832657939682,0.0,-2.9559875788355976,0.0
4530033662.9055,-13.43118671060539,0.0,-3.030232399457804,0.0
4530048662.905,-13.429628287080257,0.0,-3.0868854647374797,0.0
4530063662.9045,-13.44402228460521,0.0,-3.0451200703672026,0.0
4530078662.904,-13.436031684290576,0.0,-3.0937031004482587,0.0
4530093662.9035,-13.429588508337279,0.0,-3.054925082111386,0.0
4530108662.903,-13.432696071155528,0.0,-3.0372680066020066,0.0
4530123662.9025,-13.431105063383828,0.0,-3.003178207862142,0.0
4530138662.902,-13.439579663306144,0.0,-3.0463716356571733,0.0
4530153662.9015,-13.423258127065324,0.0,-3.1131766386485933,0.0
4530168662.901,-13.445818186234046,0.0,-3.0665356843764875,0.0
4530183662.9005,-13.429527014115227,0.0,-2.993760100649267,0.0
4530198662.9,-13.434082764646762,0.0,-3.126981790236315,0.0
4530213662.8995,-13.434334805429998,0.0,-3.1789710074822324,0.0
4530228662.899,-13.427407846446172,0.0,-3.1061228466006585,0.0
4530243662.8985,-13.43507534184916,0.0,-3.079153906871187,0.0
4530258662.898,-13.439278954250309,0.0,-3.1094063459364745,0.0
4530273662.8975,-13.433293451963117,0.0,-3.1154785906409073,0.0
4530288662.897,-13.429348287545139,0.0,-3.0541989525027575,0.0
4530303662.8965,-13.43209743539936,0.0,-3.0360021815809946,0.0
4530318662.896,-13.423720007797623,0.0,-3.071209605821944,0.0
4530333662.8955,-13.431732541981425,0.0,-3.1019611598259695,0.0
4530348662.895,-13.435117533895129,0.0,-3.13348995866929,0.0
4530363662.8945,-13.434922928535471,0.0,-3.124688680525544,0.0
4530378662.894,-13.432819088789776,0.0,-3.1515439777885397,0.0
4530393662.8935,-13.430522352000885,0.0,-3.15010675565654,0.0
4530408662.893,-13.441384973811367,0.0,-3.1307124241135713,0.0
4530423662.8925,-13.434954020955088,0.0,-3.099207705772238,0.0
4530438662.892,-13.428164393024876,0.0,-3.158368761840534,0.0
4530453662.8915,-13.439564929018184,0.0,-3.057410153610461,0.0
4530468662.891,-13.437397356566532,0.0,-3.1266694805973865,0.0
4530483662.8905,-13.445521103660699,0.0,-3.141819307687227,0.0
4530498662.89,-13.443018607587058,0.0,-3.182550709389558,0.0
4530513662.8895,-13.435894075003532,0.0,-3.106463215975001,0.0
4530528662.889,-13.439107095544893,0.0,-3.151888492747403,0.0
4530543662.8885,-13.426906111059697,0.0,-3.1167849589495655,0.0
4530558662.888,-13.425410264835204,0.0,-3.166603885791624,0.0
4530573662.8875,-13.435428513215072,0.0,-3.1683061572588143,0.0
4530588662.887,-13.442805405761806,0.0,-3.1864618995840797,0.0
4530603662.8865,-13.433782969911265,0.0,-3.219831911306508,0.0
4530618662.886,-13.438873922009375,0.0,-3.1686516381061764,0.0
4530633662.8855,-13.43540784907588,0.0,-3.153450882231722,0.0
4530648662.885,-13.428215629219372,0.0,-3.211368928667645,0.0
4530663662.8845,-13.435681986172751,0.0,-3.1318416225647847,0.0
4530678662.884,-13.438374692623242,0.0,-3.1151350942478935,0.0
4530693662.8835,-13.429388615869799,0.0,-3.146125694974716,0.0
4530708662.883,-13.436174566770532,0.0,-3.159180545038826,0.0
4530723662.8825,-13.436010261244542,0.0,-3.206290678196879,0.0
4530738662.882,-13.442123824560301,0.0,-3.1697605040505965,0.0
4530753662.8815,-13.44173371587933,0.0,-3.277664124070303,0.0
4530768662.881,-13.434310304261174,0.0,-3.2076207375292105,0.0
4530783662.8805,-13.43999970725232,0.0,-3.213421601670897,0.0
4530798662.88,-13.43608964709044,0.0,-3.1810698674366513,0.0
4530813662.8795,-13.43561814730034,0.0,-3.176338205058997,0.0
4530828662.879,-13.437242778896124,0.0,-3.2345990044336212,0.0
4530843662.8785,-13.440688710488775,0.0,-3.24480499083863,0.0
4530858662.878,-13.435805946279899,0.0,-3.245984657920469,0.0
4530873662.8775,-13.443241086639834,0.0,-3.2306629597179306,0.0
4530888662.877,-13.429861585879909,0.0,-3.218566246819929,0.0
4530903662.8765,-13.437252181904562,0.0,-3.247160164003535,0.0
4530918662.876,-13.44329340777944,0.0,-3.2752431249510545,0.0
4530933662.8755,-13.435815901766672,0.0,-3.268091653981437,0.0
4530948662.875,-13.445364543462189,0.0,-3.2440643618689435,0.0
4530963662.8745,-13.434365204540178,0.0,-3.253400513129724,0.0
4530978662.874,-13.438038993247305,0.0,-3.2795674317621217,0.0
4530993662.8735,-13.434837568179132,0.0,-3.2205756332183584,0.0
4531008662.873,-13.450856399378758,0.0,-3.2473690619900393,0.0
4531023662.8725,-13.428583457825393,0.0,-3.2349049993938377,0.0
4531038662.872,-13.438374747190702,0.0,-3.2280227533665458,0.0
4531053662.8715,-13.436963551977604,0.0,-3.2801568864169948,0.0
4531068662.871,-13.439358614394779,0.0,-3.280959567669057,0.0
4531083662.8705,-13.438168665464076,0.0,-3.2591066408001477,0.0
4531098662.87,-13.435237206999515,0.0,-3.2550636328623117,0.0
4531113662.8695,-13.438430941000233,0.0,-3.299264829807831,0.0
4531128662.869,-13.438024512899764,0.0,-3.269444225531655,0.0
4531143662.8685,-13.431484127363811,0.0,-3.3265072502484156,0.0
4531158662.868,-13.43730024360065,0.0,-3.3013311898858695,0.0
4531173662.8675,-13.434670004212972,0.0,-3.209253122621858,0.0
4531188662.867,-13.442890020413705,0.0,-3.3251558996211594,0.0
4531203662.8665,-13.443655250396588,0.0,-3.28239723653803,0.0
4531218662.866,-13.439731992769566,0.0,-3.2596142528610463,0.0
4531233662.8655,-13.431402799925218,0.0,-3.328534824745734,0.0
4531248662.865,-13.438422268022974,0.0,-3.2939888396431383,0.0
4531263662.8645,-13.44509270187993,0.0,-3.3392800169085834,0.0
4531278662.864,-13.43629069274936,0.0,-3.3537217386133547,0.0
4531293662.8635,-13.442002591527674,0.0,-3.3801655912622834,0.0
4531308662.863,-13.43470595584053,0.0,-3.3650172083444554,0.0
4531323662.8625,-13.442117915861555,0.0,-3.320418803294972,0.0
4531338662.862,-13.436174590997176,0.0,-3.3842758257877104,0.0
4531353662.8615,-13.441317625209116,0.0,-3.2929521695906865,0.0
4531368662.861,-13.441993930351149,0.0,-3.325140693370395,0.0
4531383662.8605,-13.440655745763015,0.0,-3.354375564415071,0.0
4531398662.86,-13.430803851185058,0.0,-3.4075711319210082,0.0
4531413662.8595,-13.440321923009385,0.0,-3.3361891567890307,0.0
4531428662.859,-13.4342749739731,0.0,-3.356210032959887,0.0
4531443662.8585,-13.437504462393388,0.0,-3.366718144164225,0.0
4531458662.858,-13.43835946704547,0.0,-3.3711290373873317,0.0
4531473662.8575,-13.436696748770334,0.0,-3.387370619506573,0.0
4531488662.857,-13.439244337245121,0.0,-3.3689709507820624,0.0
4531503662.8565,-13.435808372919201,0.0,-3.3942002072434234,0.0
4531518662.856,-13.443165760922174,0.0,-3.4052399224691285,0.0
4531533662.8555,-13.432692016213881,0.0,-3.4193843470059417,0.0
4531548662.855,-13.4374049193356,0.0,-3.364599835972456,0.0
4531563662.8545,-13.427961183831412,0.0,-3.424792539521444,0.0
4531578662.854,-13.438352835492516,0.0,-3.4408593196672412,0.0
4531593662.8535,-13.4443281265912,0.0,-3.4116780724068674,0.0
4531608662.853,-13.440088058947477,0.0,-3.3891640163175496,0.0
4531623662.8525,-13.44398477848843,0.0,-3.4541035830661775,0.0
4531638662.852,-13.446661730722159,0.0,-3.3941413447543423,0.0
4531653662.8515,-13.449334692888469,0.0,-3.36014538783019,0.0
4531668662.851,-13.44163426083422,0.0,-3.4256097752907726,0.0
4531683662.8505,-13.445711881720017,0.0,-3.4569089286308876,0.0
4531698662.85,-13.44005129677424,0.0,-3.4621404646086247,0.0
4531713662.8495,-13.439966917722106,0.0,-3.4425517835950123,0.0
4531728662.849,-13.440701562118829,0.0,-3.458476288944757,0.0
4531743662.8485,-13.443041421844843,0.0,-3.436150614044852,0.0
4531758662.848,-13.440983626167714,0.0,-3.4435108705281667,0.0
4531773662.8475,-13.441421951854714,0.0,-3.5358749996540686,0.0
4531788662.847,-13.447903251282119,0.0,-3.4522565498310684,0.0
4531803662.8465,-13.437309335381475,0.0,-3.4917142039120614,0.0
4531818662.846,-13.437308606922606,0.0,-3.469479444800406,0.0
4531833662.8455,-13.442283973352511,0.0,-3.472157650466386,0.0
4531848662.845,-13.435637371327546,0.0,-3.480983357314486,0.0
4531863662.8445,-13.431709845688207,0.0,-3.4647311604875055,0.0
