Frequency,S11,S11-Q,S11-Phase,S11-Phase-Q
4527198663.0,-13.44055557251085,0.0,-2.514275534734777,0.0
4527213662.9995,-13.45415842525731,0.0,-2.550132813459519,0.0
4527228662.999,-13.4553660574883,0.0,-2.621984917000225,0.0
4527243662.9985,-13.453518797738951,0.0,-2.5177371342258756,0.0
4527258662.998,-13.452510551540025,0.0,-2.570103795525535,0.0
4527273662.9975,-13.457469438202956,0.0,-2.617139327610636,0.0
4527288662.997,-13.454201385520648,0.0,-2.573694435194187,0.0
4527303662.9965,-13.440045858594695,0.0,-2.5945534191192445,0.0
4527318662.996,-13.453336203870043,0.0,-2.5238144403280836,0.0
4527333662.9955,-13.456595568594587,0.0,-2.5834458197388703,0.0
4527348662.995,-13.451402924693223,0.0,-2.5659012713704024,0.0
4527363662.9945,-13.459004075968187,0.0,-2.5816783676707034,0.0
4527378662.994,-13.453267776163147,0.0,-2.687273135933514,0.0
4527393662.9935,-13.44898969676369,0.0,-2.6143085610705206,0.0
4527408662.993,-13.45034252020136,0.0,-2.580073472211258,0.0
4527423662.9925,-13.461036785658466,0.0,-2.616059635220878,0.0
4527438662.992,-13.44807780112005,0.0,-2.624956396744307,0.0
4527453662.9915,-13.4598685137247,0.0,-2.595075744288081,0.0
4527468662.991,-13.44778369418693,0.0,-2.6183839351711633,0.0
4527483662.9905,-13.451989218341714,0.0,-2.5823680925144745,0.0
4527498662.99,-13.456768511289134,0.0,-2.604149453324179,0.0
4527513662.9895,-13.463874916828685,0.0,-2.619291317717956,0.0
4527528662.989,-13.454904062727662,0.0,-2.6075664726303898,0.0
4527543662.9885,-13.456858339721343,0.0,-2.6045727734340183,0.0
4527558662.988,-13.461252306828,0.0,-2.573447661168097,0.0
4527573662.9875,-13.461610526398076,0.0,-2.658026954823409,0.0
4527588662.987,-13.464073227292378,0.0,-2.6190426704935073,0.0
4527603662.9865,-13.454820985137943,0.0,-2.6064700545882884,0.0
4527618662.986,-13.4519674531993,0.0,-2.5991272546722843,0.0
4527633662.9855,-13.457355306088381,0.0,-2.5856689186707067,0.0
4527648662.985,-13.446427806161484,0.0,-2.623536522397705,0.0
4527663662.9845,-13.45502522921738,0.0,-2.6257372952639924,0.0
4527678662.984,-13.45925674168285,0.0,-2.618212289277469,0.0
4527693662.9835,-13.446754322011502,0.0,-2.70089088779286,0.0
4527708662.983,-13.451366722842202,0.0,-2.609376556569451,0.0
4527723662.9825,-13.445276912148344,0.0,-2.6550767138337594,0.0
4527738662.982,-13.45797912671472,0.0,-2.615548868890337,0.0
4527753662.9815,-13.460954570013001,0.0,-2.6370692922658683,0.0
4527768662.981,-13.450825242037643,0.0,-2.590293850014615,0.0
4527783662.9805,-13.4403718822392,0.0,-2.6475811816978525,0.0
4527798662.98,-13.453877304674231,0.0,-2.710832768575243,0.0
4527813662.9795,-13.446924650619081,0.0,-2.6225509161788394,0.0
4527828662.979,-13.451318239926817,0.0,-2.6291763737000347,0.0
4527843662.9785,-13.448538597643285,0.0,-2.6753483803499964,0.0
4527858662.978,-13.460533521519196,0.0,-2.6281371153045736,0.0
4527873662.9775,-13.463554452156867,0.0,-2.6670378863293993,0.0
4527888662.977,-13.460017386593943,0.0,-2.6925870204295763,0.0
4527903662.9765,-13.454671323229064,0.0,-2.6816745144555507,0.0
4527918662.976,-13.452342046701041,0.0,-2.7330137737367193,0.0
4527933662.9755,-13.456955637338705,0.0,-2.6994747693593393,0.0
4527948662.975,-13.448290991776673,0.0,-2.6297180478572457,0.0
4527963662.9745,-13.460534717555907,0.0,-2.7042364015693794,0.0
4527978662.974,-13.464040686746195,0.0,-2.641909814052971,0.0
4527993662.9735,-13.457722084168415,0.0,-2.7060384456171254,0.0
4528008662.973,-13.45822090293324,0.0,-2.5768391417513627,0.0
4528023662.9725,-13.465000556883705,0.0,-2.7148357848693867,0.0
4528038662.972,-13.455928873673653,0.0,-2.653801602701857,0.0
4528053662.9715,-13.450040440749756,0.0,-2.6763909199510048,0.0
4528068662.971,-13.455004074436195,0.0,-2.6999980829507093,0.0
4528083662.9705,-13.452065836700754,0.0,-2.6509772549841633,0.0
4528098662.97,-13.46685465736444,0.0,-2.66817830714591,0.0
4528113662.9695,-13.455376184905889,0.0,-2.7097947962807885,0.0
4528128662.969,-13.465569088451275,0.0,-2.732279417283491,0.0
4528143662.9685,-13.463571571656166,0.0,-2.6817000993275038,0.0
4528158662.968,-13.455088925853346,0.0,-2.729182106486703,0.0
4528173662.9675,-13.455411504102486,0.0,-2.665799389336868,0.0
4528188662.967,-13.458866798606053,0.0,-2.711532602901069,0.0
4528203662.9665,-13.464730519381634,0.0,-2.699108395394957,0.0
4528218662.966,-13.455064342828404,0.0,-2.7324378095143667,0.0
4528233662.9655,-13.4576894045766,0.0,-2.75280855225579,0.0
4528248662.965,-13.452696366499012,0.0,-2.741305540133637,0.0
4528263662.9645,-13.45235243027555,0.0,-2.7031038096017106,0.0
4528278662.964,-13.458926502208577,0.0,-2.722675383294156,0.0
4528293662.9635,-13.453406269623326,0.0,-2.72648796370791,0.0
4528308662.963,-13.455938717433824,0.0,-2.7533551947873796,0.0
4528323662.9625,-13.452951928052423,0.0,-2.7669188396853395,0.0
4528338662.962,-13.457615365835217,0.0,-2.712383410751414,0.0
4528353662.9615,-13.458654783562594,0.0,-2.7436941111635496,0.0
4528368662.961,-13.456045175602608,0.0,-2.751675742353886,0.0
4528383662.9605,-13.461240955525932,0.0,-2.798787001891082,0.0
4528398662.96,-13.462516010560446,0.0,-2.697290669797563,0.0
4528413662.9595,-13.466196758746896,0.0,-2.793984952044432,0.0
4528428662.959,-13.454534779587053,0.0,-2.745745775302181,0.0
4528443662.9585,-13.448756629579236,0.0,-2.770127442494632,0.0
4528458662.958,-13.459496314978441,0.0,-2.7340509515421063,0.0
4528473662.9575,-13.455214969503315,0.0,-2.7580073414338107,0.0
4528488662.957,-13.462783891336208,0.0,-2.738035524419097,0.0
4528503662.9565,-13.460473128765402,0.0,-2.7816613764192364,0.0
4528518662.956,-13.461331039779589,0.0,-2.7750954022981014,0.0
4528533662.9555,-13.460667831404077,0.0,-2.87301109863942,0.0
4528548662.955,-13.456008377784418,0.0,-2.737441260559146,0.0
4528563662.9545,-13.456792155581383,0.0,-2.8093104936707007,0.0
4528578662.954,-13.455372682119009,0.0,-2.7800312908183407,0.0
4528593662.9535,-13.457485356950304,0.0,-2.8119512950246035,0.0
4528608662.953,-13.45447367624602,0.0,-2.8191254924685474,0.0
4528623662.9525,-13.468795854280465,0.0,-2.7389656383931604,0.0
4528638662.952,-13.449871353251286,0.0,-2.709603360118736,0.0
4528653662.9515,-13.461730273937896,0.0,-2.7387720147274353,0.0
4528668662.951,-13.464212884571108,0.0,-2.793859195143709,0.0
4528683662.9505,-13.448053077537994,0.0,-2.800103748429447,0.0
4528698662.95,-13.464162189396887,0.0,-2.786297817080592,0.0
4528713662.9495,-13.455215346543497,0.0,-2.8170223848358282,0.0
4528728662.949,-13.459457177496938,0.0,-2.882319167376953,0.0
4528743662.9485,-13.467316751808715,0.0,-2.8000515510825723,0.0
4528758662.948,-13.459868271622158,0.0,-2.7774734672329746,0.0
4528773662.9475,-13.457426595974848,0.0,-2.807784951474955,0.0
4528788662.947,-13.457064681752337,0.0,-2.8906917427075953,0.0
4528803662.9465,-13.460827041022432,0.0,-2.7967453446991484,0.0
4528818662.946,-13.460903257512483,0.0,-2.783651156576495,0.0
4528833662.9455,-13.447109372307807,0.0,-2.804676815767403,0.0
4528848662.945,-13.4642748092619,0.0,-2.8283156000809853,0.0
4528863662.9445,-13.466856273069315,0.0,-2.7972820428754934,0.0
4528878662.944,-13.457174484960856,0.0,-2.7889883819833043,0.0
4528893662.9435,-13.458611566007601,0.0,-2.811062134195375,0.0
4528908662.943,-13.456691253518798,0.0,-2.7890727728335385,0.0
4528923662.9425,-13.467157235103247,0.0,-2.8307685256113926,0.0
4528938662.942,-13.466153902868124,0.0,-2.83877426888328,0.0
4528953662.9415,-13.454760972150709,0.0,-2.775213685713133,0.0
4528968662.941,-13.463703391536335,0.0,-2.8153246400463487,0.0
4528983662.9405,-13.45408985848351,0.0,-2.8431098553340135,0.0
4528998662.94,-13.460883298716395,0.0,-2.8522808456081927,0.0
4529013662.9395,-13.455308764249168,0.0,-2.8569865332017232,0.0
4529028662.939,-13.466273269036769,0.0,-2.859154501062399,0.0
4529043662.9385,-13.468261685964508,0.0,-2.8651025153424245,0.0
4529058662.938,-13.461417582815738,0.0,-2.8702813953749002,0.0
4529073662.9375,-13.457139064231775,0.0,-2.832947417546427,0.0
4529088662.937,-13.451852828136534,0.0,-2.8508131412225057,0.0
4529103662.9365,-13.45932069899492,0.0,-2.8469130996685656,0.0
4529118662.936,-13.4587339931808,0.0,-2.880507923337491,0.0
4529133662.9355,-13.461206124490552,0.0,-2.867758225728361,0.0
4529148662.935,-13.460031648458308,0.0,-2.88681991511488,0.0
4529163662.9345,-13.460517302423153,0.0,-2.848877925510397,0.0
4529178662.934,-13.462173908311051,0.0,-2.9217992535082438,0.0
4529193662.9335,-13.455724694763003,0.0,-2.865279716301493,0.0
4529208662.933,-13.465963822234002,0.0,-2.90979538500745,0.0
4529223662.9325,-13.455786171180117,0.0,-2.923939312289136,0.0
4529238662.932,-13.455945935727065,0.0,-2.893113480501963,0.0
4529253662.9315,-13.460620445485386,0.0,-2.8914158780893815,0.0
4529268662.931,-13.47550999719331,0.0,-2.859857315580922,0.0
4529283662.9305,-13.46427260993611,0.0,-2.8794892584390808,0.0
4529298662.93,-13.468051049215601,0.0,-2.896948982438062,0.0
4529313662.9295,-13.456844735130488,0.0,-2.924483447052643,0.0
4529328662.929,-13.463359465304151,0.0,-2.9034391992498554,0.0
4529343662.9285,-13.461187951375246,0.0,-2.9293329919464814,0.0
4529358662.928,-13.461683541186101,0.0,-2.869192173221736,0.0
4529373662.9275,-13.468974311302462,0.0,-2.918123694370104,0.0
4529388662.927,-13.464997473920324,0.0,-2.9262710481018512,0.0
4529403662.9265,-13.457150079734943,0.0,-2.8582984378745837,0.0
4529418662.926,-13.463948483463756,0.0,-2.8926936643706576,0.0
4529433662.9255,-13.454129690093062,0.0,-3.0134545520198444,0.0
4529448662.925,-13.460771760030283,0.0,-2.9251271982854004,0.0
4529463662.9245,-13.455137486559227,0.0,-3.007133529250834,0.0
4529478662.924,-13.460795711794638,0.0,-2.9976271734006,0.0
4529493662.9235,-13.461895550631864,0.0,-2.96425687940775,0.0
4529508662.923,-13.465070514693911,0.0,-2.953690382375298,0.0
4529523662.9225,-13.456325817371384,0.0,-2.9333928079980542,0.0
4529538662.922,-13.465368184786563,0.0,-2.93198468264703,0.0
4529553662.9215,-13.455080640753948,0.0,-2.9416864857227103,0.0
4529568662.921,-13.4640655998488,0.0,-3.0032313211781196,0.0
4529583662.9205,-13.466395981334102,0.0,-2.9673794158333546,0.0
4529598662.92,-13.462007313152428,0.0,-2.9436783054146987,0.0
4529613662.9195,-13.457001448213495,0.0,-2.990036878868651,0.0
4529628662.919,-13.460879413030105,0.0,-2.924856570796398,0.0
4529643662.9185,-13.456434735778746,0.0,-2.913217303113959,0.0
4529658662.918,-13.465000686435136,0.0,-2.912083697638031,0.0
4529673662.9175,-13.455706688874454,0.0,-2.9981985492913497,0.0
4529688662.917,-13.45139736893757,0.0,-3.026670606691361,0.0
4529703662.9165,-13.460819390300657,0.0,-2.948514661943951,0.0
4529718662.916,-13.459197730830736,0.0,-3.046889710126143,0.0
4529733662.9155,-13.464922142604102,0.0,-3.0212788057182323,0.0
4529748662.915,-13.463310165867071,0.0,-3.043208711482573,0.0
4529763662.9145,-13.460027759994373,0.0,-2.9388424087533873,0.0
4529778662.914,-13.463100514541665,0.0,-2.9601532478708314,0.0
4529793662.9135,-13.47771592813521,0.0,-3.0016716476610785,0.0
4529808662.913,-13.464846804412742,0.0,-3.04507467973462,0.0
4529823662.9125,-13.467397898637332,0.0,-2.9741996228476695,0.0
4529838662.912,-13.467198037087245,0.0,-2.9563797999619386,0.0
4529853662.9115,-13.458699044580747,0.0,-2.99201484890239,0.0
4529868662.911,-13.466720831226679,0.0,-3.0576896232158495,0.0
4529883662.9105,-13.462398818118047,0.0,-3.0048726167538145,0.0
4529898662.91,-13.461492467579731,0.0,-3.025979912764276,0.0
4529913662.9095,-13.470176036411477,0.0,-3.0026290532174738,0.0
4529928662.909,-13.461037281171857,0.0,-3.0256257223395076,0.0
4529943662.9085,-13.464508577842512,0.0,-3.042335678740243,0.0
4529958662.908,-13.466712677706685,0.0,-2.9990088514305278,0.0
4529973662.9075,-13.463085655218997,0.0,-3.0466765638022135,0.0
4529988662.907,-13.461125457346068,0.0,-3.0421096129619167,0.0
4530003662.9065,-13.459901716272103,0.0,-3.0395619226885695,0.0
4530018662.906,-13.469071632529957,0.0,-3.058762142591819,0.0
4530033662.9055,-13.459653677644233,0.0,-3.0916375766788606,0.0
4530048662.905,-13.463537603253634,0.0,-3.064726553388927,0.0
4530063662.9045,-13.463709802285777,0.0,-3.029189940521008,0.0
4530078662.904,-13.46909894545616,0.0,-3.0646299476814582,0.0
4530093662.9035,-13.467111293265717,0.0,-3.064784052271828,0.0
4530108662.903,-13.460016366841144,0.0,-3.0303200567518402,0.0
4530123662.9025,-13.459158709195355,0.0,-3.034606261775437,0.0
4530138662.902,-13.45811825185856,0.0,-3.13107938494604,0.0
4530153662.9015,-13.45337196643432,0.0,-3.052377497635228,0.0
4530168662.901,-13.46566440726461,0.0,-3.0302232419650803,0.0
4530183662.9005,-13.460371641418194,0.0,-3.122736556400793,0.0
4530198662.9,-13.460848405222045,0.0,-3.036492843183318,0.0
4530213662.8995,-13.465463962392644,0.0,-3.1175848417297574,0.0
4530228662.899,-13.463276150199352,0.0,-3.0721385174232556,0.0
4530243662.8985,-13.458878699671747,0.0,-3.1085689521229285,0.0
4530258662.898,-13.460454196789973,0.0,-3.134472670662284,0.0
4530273662.8975,-13.464084737412502,0.0,-3.1104170906324926,0.0
4530288662.897,-13.46174901678805,0.0,-3.087720273113466,0.0
4530303662.8965,-13.465630467828884,0.0,-3.0781301313651706,0.0
4530318662.896,-13.461223634994646,0.0,-3.0582904272832336,0.0
4530333662.8955,-13.46201288062084,0.0,-3.0852586201556913,0.0
4530348662.895,-13.467578867092048,0.0,-3.1085572269531583,0.0
4530363662.8945,-13.476152319013401,0.0,-3.1217893979048417,0.0
4530378662.894,-13.468171161092222,0.0,-3.166016293516354,0.0
4530393662.8935,-13.46634050496706,0.0,-3.168849486304252,0.0
4530408662.893,-13.462129449306515,0.0,-3.1586296097529494,0.0
4530423662.8925,-13.462683840780374,0.0,-3.1867236186033185,0.0
4530438662.892,-13.466902815810682,0.0,-3.1421800319373183,0.0
4530453662.8915,-13.465883260208646,0.0,-3.0741240982993676,0.0
4530468662.891,-13.46131578049117,0.0,-3.1874540038083765,0.0
4530483662.8905,-13.464283747034848,0.0,-3.1110390804814916,0.0
4530498662.89,-13.462679143910169,0.0,-3.113512349818452,0.0
4530513662.8895,-13.466730510527237,0.0,-3.159655462241835,0.0
4530528662.889,-13.462241384013398,0.0,-3.1244076531822857,0.0
4530543662.8885,-13.45682525577617,0.0,-3.200230393734118,0.0
4530558662.888,-13.465888237008649,0.0,-3.2112151740832275,0.0
4530573662.8875,-13.464233076675132,0.0,-3.2103409220418304,0.0
4530588662.887,-13.460909743049495,0.0,-3.1500440894969737,0.0
4530603662.8865,-13.470841448624265,0.0,-3.154242681016669,0.0
4530618662.886,-13.461261852046283,0.0,-3.1567938731442635,0.0
4530633662.8855,-13.4745191952977,0.0,-3.1941350798582993,0.0
4530648662.885,-13.465714314430052,0.0,-3.1654474626740567,0.0
4530663662.8845,-13.465401027553819,0.0,-3.1646891746102277,0.0
4530678662.884,-13.467250823394249,0.0,-3.205035295999654,0.0
4530693662.8835,-13.468178257956165,0.0,-3.2132357921879993,0.0
4530708662.883,-13.46098956793179,0.0,-3.1409953004707867,0.0
4530723662.8825,-13.473305500582203,0.0,-3.1865272917981615,0.0
4530738662.882,-13.460838403883294,0.0,-3.1577958931853547,0.0
4530753662.8815,-13.450739587738143,0.0,-3.2491167872096858,0.0
4530768662.881,-13.462402397372415,0.0,-3.2221091851000145,0.0
4530783662.8805,-13.46328122945186,0.0,-3.271481394980493,0.0
4530798662.88,-13.465887330413066,0.0,-3.2277601305059624,0.0
4530813662.8795,-13.466684249742347,0.0,-3.2497388536347724,0.0
4530828662.879,-13.473395686521005,0.0,-3.229125177612758,0.0
4530843662.8785,-13.480258563183664,0.0,-3.211050032849266,0.0
4530858662.878,-13.470847398306049,0.0,-3.199581524591026,0.0
4530873662.8775,-13.4595792366205,0.0,-3.277097115864257,0.0
4530888662.877,-13.467062253887798,0.0,-3.1985690511269707,0.0
4530903662.8765,-13.461853871424633,0.0,-3.2278922883855152,0.0
4530918662.876,-13.465694215170483,0.0,-3.217846882461367,0.0
4530933662.8755,-13.463592861698173,0.0,-3.2833246625087127,0.0
4530948662.875,-13.471482655415706,0.0,-3.269528339115297,0.0
4530963662.8745,-13.473256444835165,0.0,-3.2793255225747426,0.0
4530978662.874,-13.463435521897221,0.0,-3.2929936882254074,0.0
4530993662.8735,-13.468481099665201,0.0,-3.2150424898923595,0.0
4531008662.873,-13.471639991206867,0.0,-3.260655315117134,0.0
4531023662.8725,-13.467420020541853,0.0,-3.322699184239157,0.0
4531038662.872,-13.465015922725549,0.0,-3.2009865520770844,0.0
4531053662.8715,-13.465738399583966,0.0,-3.255223404502159,0.0
4531068662.871,-13.453963977766259,0.0,-3.2494727634535896,0.0
4531083662.8705,-13.47130445480629,0.0,-3.274818639885955,0.0
4531098662.87,-13.465853644120923,0.0,-3.282768627189534,0.0
4531113662.8695,-13.463839586360862,0.0,-3.273187435426925,0.0
4531128662.869,-13.470871652846446,0.0,-3.2650891387763084,0.0
4531143662.8685,-13.461509317447675,0.0,-3.342776726232573,0.0
4531158662.868,-13.470359362049216,0.0,-3.28329202162506,0.0
4531173662.8675,-13.465381925478255,0.0,-3.2659195546412727,0.0
4531188662.867,-13.463465184655064,0.0,-3.342129154242258,0.0
4531203662.8665,-13.465613891073865,0.0,-3.3551335093146837,0.0
4531218662.866,-13.475824771003417,0.0,-3.334149083481153,0.0
4531233662.8655,-13.478748664845542,0.0,-3.3222065522252393,0.0
4531248662.865,-13.465624539482207,0.0,-3.3243030308073784,0.0
4531263662.8645,-13.469885886385795,0.0,-3.3137497956789437,0.0
4531278662.864,-13.470499455097578,0.0,-3.3425740369351047,0.0
4531293662.8635,-13.462768168962914,0.0,-3.2691924206210574,0.0
4531308662.863,-13.462034903613171,0.0,-3.390527808658615,0.0
4531323662.8625,-13.46247965565772,0.0,-3.3415921533154056,0.0
4531338662.862,-13.466624392849887,0.0,-3.3336791775704167,0.0
4531353662.8615,-13.471644281307718,0.0,-3.401272246132721,0.0
4531368662.861,-13.473267648186498,0.0,-3.3567103079899967,0.0
4531383662.8605,-13.470344741140037,0.0,-3.3186276636995977,0.0
4531398662.86,-13.472607758826953,0.0,-3.3597543179812503,0.0
4531413662.8595,-13.463363017250973,0.0,-3.4268400517600424,0.0
4531428662.859,-13.467217584421762,0.0,-3.382443417999059,0.0
4531443662.8585,-13.474534768085109,0.0,-3.421770035339031,0.0
4531458662.858,-13.468264116315517,0.0,-3.3822048491234273,0.0
4531473662.8575,-13.482603607343107,0.0,-3.369808323489261,0.0
4531488662.857,-13.462328051755726,0.0,-3.368701854564781,0.0
4531503662.8565,-13.469622557931594,0.0,-3.3245746278610153,0.0
4531518662.856,-13.469844264461715,0.0,-3.373578865138419,0.0
4531533662.8555,-13.467143241533051,0.0,-3.3884279505865385,0.0
4531548662.855,-13.461725604169603,0.0,-3.38238533640539,0.0
4531563662.8545,-13.478032753893547,0.0,-3.37577745401054,0.0
4531578662.854,-13.45886536664157,0.0,-3.40807246577001,0.0
4531593662.8535,-13.472211176491037,0.0,-3.393933134359348,0.0
4531608662.853,-13.462376805619252,0.0,-3.406138676990862,0.0
4531623662.8525,-13.4670109718457,0.0,-3.4758710070593493,0.0
4531638662.852,-13.461823792707587,0.0,-3.4145704230284046,0.0
4531653662.8515,-13.469310056340136,0.0,-3.396095519877813,0.0
4531668662.851,-13.469382472059408,0.0,-3.4012284739838625,0.0
4531683662.8505,-13.461839783691198,0.0,-3.4547780687787792,0.0
4531698662.85,-13.469977674854238,0.0,-3.4768320420034455,0.0
4531713662.8495,-13.46629144233808,0.0,-3.4805531126347042,0.0
4531728662.849,-13.475573239454198,0.0,-3.4800580936086365,0.0
4531743662.8485,-13.47354400244061,0.0,-3.4128548366957947,0.0
4531758662.848,-13.475911470533743,0.0,-3.441353410082456,0.0
4531773662.8475,-13.480475636515536,0.0,-3.477975734405354,0.0
4531788662.847,-13.477375773947822,0.0,-3.479623671364421,0.0
4531803662.8465,-13.477327712944225,0.0,-3.4870090998792245,0.0
4531818662.846,-13.472089021805084,0.0,-3.530532121389811,0.0
4531833662.8455,-13.475588945329882,0.0,-3.525501346015696,0.0
4531848662.845,-13.46529019319516,0.0,-3.4837787738219603,0.0
4531863662.8445,-13.476062171195466,0.0,-3.4856701127315524,0.0
4531878662.844,-13.473368888136282,0.0,-3.495166303357778,0.0
