Frequency,S11,S11-Q,S11-Phase,S11-Phase-Q
4527198663.0,-13.407138106381462,0.0,-2.394152271976392,0.0
4527213662.9995,-13.418253057068782,0.0,-2.422006153124912,0.0
4527228662.999,-13.406935829631541,0.0,-2.414372855388627,0.0
4527243662.9985,-13.403624790721748,0.0,-2.4166805721806828,0.0
4527258662.998,-13.402418341137114,0.0,-2.435780025723567,0.0
4527273662.9975,-13.407731932281397,0.0,-2.4410174807075067,0.0
4527288662.997,-13.409665202781706,0.0,-2.455429632973167,0.0
4527303662.9965,-13.409667330085409,0.0,-2.4116392843598886,0.0
4527318662.996,-13.413809755112018,0.0,-2.3900882969583255,0.0
4527333662.9955,-13.411691666883385,0.0,-2.4347077944941575,0.0
4527348662.995,-13.403106370485428,0.0,-2.4500495160345483,0.0
4527363662.9945,-13.411855517597267,0.0,-2.4464259536443427,0.0
4527378662.994,-13.40644323392844,0.0,-2.4248922207301526,0.0
4527393662.9935,-13.404057601079414,0.0,-2.5009397525104387,0.0
4527408662.993,-13.409315194966897,0.0,-2.463232101592497,0.0
4527423662.9925,-13.405029336054392,0.0,-2.4219234744852685,0.0
4527438662.992,-13.41058131040291,0.0,-2.4273639775596183,0.0
4527453662.9915,-13.403008965027631,0.0,-2.42917812031432,0.0
4527468662.991,-13.405136660851063,0.0,-2.488150739154714,0.0
4527483662.9905,-13.414636180934306,0.0,-2.442218202434991,0.0
4527498662.99,-13.41162253952655,0.0,-2.4503653749752696,0.0
4527513662.9895,-13.415478711260803,0.0,-2.4415028705820503,0.0
4527528662.989,-13.41525108322715,0.0,-2.4753842031468243,0.0
4527543662.9885,-13.405739445186807,0.0,-2.436579942989172,0.0
4527558662.988,-13.416447673054392,0.0,-2.4397390803167323,0.0
4527573662.9875,-13.411697636215901,0.0,-2.477760155161951,0.0
4527588662.987,-13.411598492642957,0.0,-2.4407021223020693,0.0
4527603662.9865,-13.41322205016736,0.0,-2.4758413149530165,0.0
4527618662.986,-13.405682018442908,0.0,-2.4971982540373086,0.0
4527633662.9855,-13.405210002309214,0.0,-2.476267337778993,0.0
4527648662.985,-13.416616938225921,0.0,-2.4688406766389335,0.0
4527663662.9845,-13.40790319311722,0.0,-2.5125926055096337,0.0
4527678662.984,-13.411384316603073,0.0,-2.4742406793678815,0.0
4527693662.9835,-13.416966511319988,0.0,-2.4761725087642925,0.0
4527708662.983,-13.409983672806947,0.0,-2.4614243648353513,0.0
4527723662.9825,-13.4111588892597,0.0,-2.4701447268943677,0.0
4527738662.982,-13.40546611473436,0.0,-2.4839240599864696,0.0
4527753662.9815,-13.399081383689904,0.0,-2.4648362381100006,0.0
4527768662.981,-13.399917555414891,0.0,-2.5101154857523604,0.0
4527783662.9805,-13.406990311336443,0.0,-2.4818421957430385,0.0
4527798662.98,-13.405913422452416,0.0,-2.5274631444697007,0.0
4527813662.9795,-13.406291285028262,0.0,-2.525096202408189,0.0
4527828662.979,-13.408496445948053,0.0,-2.510579631657985,0.0
4527843662.9785,-13.416638174797455,0.0,-2.5237350171978084,0.0
4527858662.978,-13.403991698488504,0.0,-2.4483772011343157,0.0
4527873662.9775,-13.415783363399834,0.0,-2.554099279567533,0.0
4527888662.977,-13.420667321043709,0.0,-2.502725249227672,0.0
4527903662.9765,-13.412465844338776,0.0,-2.5176701870993394,0.0
4527918662.976,-13.409035069291487,0.0,-2.534459623551094,0.0
4527933662.9755,-13.409345817732115,0.0,-2.514218872368362,0.0
4527948662.975,-13.403935426653781,0.0,-2.5715780679905604,0.0
4527963662.9745,-13.402108292163987,0.0,-2.56161358235011,0.0
4527978662.974,-13.410817495929413,0.0,-2.511671199699045,0.0
4527993662.9735,-13.411965997979005,0.0,-2.5601702887201605,0.0
4528008662.973,-13.417411301704371,0.0,-2.529888136622434,0.0
4528023662.9725,-13.4178116362182,0.0,-2.5431242130815708,0.0
4528038662.972,-13.403024888506955,0.0,-2.6195563948444978,0.0
4528053662.9715,-13.410051683089998,0.0,-2.5334120514286003,0.0
4528068662.971,-13.401917014406909,0.0,-2.5415903272864,0.0
4528083662.9705,-13.410707484933447,0.0,-2.5287443398390503,0.0
4528098662.97,-13.411601432670713,0.0,-2.502956978822172,0.0
4528113662.9695,-13.410527114915983,0.0,-2.519587731588709,0.0
4528128662.969,-13.41241016454295,0.0,-2.5138018991154794,0.0
4528143662.9685,-13.415811850261166,0.0,-2.607015058102863,0.0
4528158662.968,-13.409176406069662,0.0,-2.5936914418110613,0.0
4528173662.9675,-13.419897959776614,0.0,-2.594708090736056,0.0
4528188662.967,-13.40266170876914,0.0,-2.4670464580484337,0.0
4528203662.9665,-13.420980676446753,0.0,-2.5311439948746033,0.0
4528218662.966,-13.410017814592708,0.0,-2.563366462196703,0.0
4528233662.9655,-13.42132233872884,0.0,-2.5299328224329036,0.0
4528248662.965,-13.409355474596342,0.0,-2.5720549125643526,0.0
4528263662.9645,-13.414122146680551,0.0,-2.5781177833954443,0.0
4528278662.964,-13.415683524374408,0.0,-2.5875430845935887,0.0
4528293662.9635,-13.417430889962718,0.0,-2.542446483791297,0.0
4528308662.963,-13.41059064066146,0.0,-2.552080194685224,0.0
4528323662.9625,-13.418031291568033,0.0,-2.600274071660749,0.0
4528338662.962,-13.416042219388961,0.0,-2.568823997648515,0.0
4528353662.9615,-13.420761507687281,0.0,-2.536907720764388,0.0
4528368662.961,-13.409645551070163,0.0,-2.5558130394665866,0.0
4528383662.9605,-13.407315439613665,0.0,-2.61829444372265,0.0
4528398662.96,-13.413028585692267,0.0,-2.6244619924061556,0.0
4528413662.9595,-13.415315763894691,0.0,-2.5931541501516806,0.0
4528428662.959,-13.399397131998267,0.0,-2.5985798313457167,0.0
4528443662.9585,-13.40765023787184,0.0,-2.584122205330832,0.0
4528458662.958,-13.416338480717227,0.0,-2.595086228503741,0.0
4528473662.9575,-13.408410371781962,0.0,-2.590927623838299,0.0
4528488662.957,-13.412862875320485,0.0,-2.6359607396866496,0.0
4528503662.9565,-13.41435052406374,0.0,-2.664886234781866,0.0
4528518662.956,-13.417082853378783,0.0,-2.623024755168148,0.0
4528533662.9555,-13.410418585578746,0.0,-2.577122235547469,0.0
4528548662.955,-13.416131526663438,0.0,-2.6171869817941316,0.0
4528563662.9545,-13.418290718728622,0.0,-2.628966427225306,0.0
4528578662.954,-13.403355964875558,0.0,-2.5644352728046513,0.0
4528593662.9535,-13.41367373473151,0.0,-2.5545039659964974,0.0
4528608662.953,-13.418740793935378,0.0,-2.569834272746599,0.0
4528623662.9525,-13.414701245860513,0.0,-2.6280772851283434,0.0
4528638662.952,-13.414911622722567,0.0,-2.5943471936733236,0.0
4528653662.9515,-13.414883986917411,0.0,-2.633459432002222,0.0
4528668662.951,-13.415004837115742,0.0,-2.634001585021988,0.0
4528683662.9505,-13.4219709444525,0.0,-2.6309636433313517,0.0
4528698662.95,-13.408612492649407,0.0,-2.6493038751694464,0.0
4528713662.9495,-13.413273314496056,0.0,-2.57795390340024,0.0
4528728662.949,-13.412401534232426,0.0,-2.6348107607201996,0.0
4528743662.9485,-13.418528712440454,0.0,-2.651804998281581,0.0
4528758662.948,-13.422351987478303,0.0,-2.6097372258233853,0.0
4528773662.9475,-13.408214968403376,0.0,-2.702162608080965,0.0
4528788662.947,-13.409665136265508,0.0,-2.6380344886797147,0.0
4528803662.9465,-13.409651040241748,0.0,-2.6463614869294747,0.0
4528818662.946,-13.41484502592574,0.0,-2.6374628507251936,0.0
4528833662.9455,-13.409467423840402,0.0,-2.6903397915015947,0.0
4528848662.945,-13.413156391621497,0.0,-2.6658580463345207,0.0
4528863662.9445,-13.411234464824375,0.0,-2.6873315844083154,0.0
4528878662.944,-13.428452565699228,0.0,-2.656426028545667,0.0
4528893662.9435,-13.414846178459266,0.0,-2.7367471846450075,0.0
4528908662.943,-13.420405050333219,0.0,-2.6906143106940354,0.0
4528923662.9425,-13.410977373075584,0.0,-2.7360270037355794,0.0
4528938662.942,-13.413467542949531,0.0,-2.6980616927118577,0.0
4528953662.9415,-13.422527330029101,0.0,-2.665005285851617,0.0
4528968662.941,-13.414548967708217,0.0,-2.7473931266049227,0.0
4528983662.9405,-13.414196479302628,0.0,-2.719485381644559,0.0
4528998662.94,-13.413415191432561,0.0,-2.6891141453637295,0.0
4529013662.9395,-13.420102132406132,0.0,-2.7332136578067305,0.0
4529028662.939,-13.416211635252964,0.0,-2.6835864183615272,0.0
4529043662.9385,-13.413129678824392,0.0,-2.687248049009959,0.0
4529058662.938,-13.409522961761095,0.0,-2.740913919717565,0.0
4529073662.9375,-13.4147086326272,0.0,-2.682828490873442,0.0
4529088662.937,-13.407855699119452,0.0,-2.6982542584846914,0.0
4529103662.9365,-13.419839378782143,0.0,-2.689357116504814,0.0
4529118662.936,-13.405516941043425,0.0,-2.728047393122599,0.0
4529133662.9355,-13.407290609334094,0.0,-2.676200247248467,0.0
4529148662.935,-13.417979743182862,0.0,-2.770952471947569,0.0
4529163662.9345,-13.419060020827127,0.0,-2.7709063763355144,0.0
4529178662.934,-13.406402840302237,0.0,-2.6958741618429203,0.0
4529193662.9335,-13.412360938988304,0.0,-2.711493383283041,0.0
4529208662.933,-13.410880178893263,0.0,-2.7609309425033257,0.0
4529223662.9325,-13.410393494449382,0.0,-2.7573930094432324,0.0
4529238662.932,-13.419264241854714,0.0,-2.755422105469427,0.0
4529253662.9315,-13.41068796468645,0.0,-2.7349861832760434,0.0
4529268662.931,-13.411595736270927,0.0,-2.703144256146344,0.0
4529283662.9305,-13.40844076514358,0.0,-2.7390782792889006,0.0
4529298662.93,-13.410971487982223,0.0,-2.721668849608575,0.0
4529313662.9295,-13.422984141042472,0.0,-2.710377199525855,0.0
4529328662.929,-13.4028098132391,0.0,-2.78774645985898,0.0
4529343662.9285,-13.417675252540516,0.0,-2.8205112803583483,0.0
4529358662.928,-13.403950064357362,0.0,-2.737319963433404,0.0
4529373662.9275,-13.416164854767406,0.0,-2.761749791743708,0.0
4529388662.927,-13.414771950861716,0.0,-2.7623602824180713,0.0
4529403662.9265,-13.416971651862932,0.0,-2.765453300099403,0.0
4529418662.926,-13.409795658789601,0.0,-2.7673268188955604,0.0
4529433662.9255,-13.417355136131658,0.0,-2.7864665676641693,0.0
4529448662.925,-13.411593939938944,0.0,-2.770790333748989,0.0
4529463662.9245,-13.426111092607915,0.0,-2.7753191608445285,0.0
4529478662.924,-13.411966060238552,0.0,-2.7925087727446383,0.0
4529493662.9235,-13.420673326562063,0.0,-2.8247758508926357,0.0
4529508662.923,-13.416311011487245,0.0,-2.810840582577617,0.0
4529523662.9225,-13.42202963916099,0.0,-2.799920326285749,0.0
4529538662.922,-13.417529520185143,0.0,-2.8051796032275216,0.0
4529553662.9215,-13.410743626321404,0.0,-2.7578138543989787,0.0
4529568662.921,-13.411720667752542,0.0,-2.8216971817991285,0.0
4529583662.9205,-13.418008840663482,0.0,-2.83404610487118,0.0
4529598662.92,-13.412844117997258,0.0,-2.793725823831059,0.0
4529613662.9195,-13.41851380850268,0.0,-2.8287560994969363,0.0
4529628662.919,-13.419776979674436,0.0,-2.819414262664723,0.0
4529643662.9185,-13.423905802811348,0.0,-2.856793775190936,0.0
4529658662.918,-13.413736486741687,0.0,-2.8187126330613688,0.0
4529673662.9175,-13.424976354844986,0.0,-2.765419741336703,0.0
4529688662.917,-13.418167133722086,0.0,-2.80036689241884,0.0
4529703662.9165,-13.42027058900889,0.0,-2.8079271462588755,0.0
4529718662.916,-13.417936985993421,0.0,-2.812114778204501,0.0
4529733662.9155,-13.421613632531724,0.0,-2.826989570055289,0.0
4529748662.915,-13.408260516477988,0.0,-2.7961755063281,0.0
4529763662.9145,-13.417411216847626,0.0,-2.8284249517557996,0.0
4529778662.914,-13.423683367027671,0.0,-2.8185287131033196,0.0
4529793662.9135,-13.418614705662378,0.0,-2.8130681604028127,0.0
4529808662.913,-13.422322221774127,0.0,-2.866784194229902,0.0
4529823662.9125,-13.423327829758717,0.0,-2.8699290036126928,0.0
4529838662.912,-13.418274786772225,0.0,-2.8531898534105915,0.0
4529853662.9115,-13.409634634596475,0.0,-2.883512561603156,0.0
4529868662.911,-13.403434569238446,0.0,-2.91235478014087,0.0
4529883662.9105,-13.411688964310986,0.0,-2.793816881456097,0.0
4529898662.91,-13.420716607274652,0.0,-2.8377401939908946,0.0
4529913662.9095,-13.416639476213565,0.0,-2.8654726993956268,0.0
4529928662.909,-13.418730729319456,0.0,-2.8579156741510827,0.0
4529943662.9085,-13.419033356411054,0.0,-2.8155875701619517,0.0
4529958662.908,-13.419489331709354,0.0,-2.863041593878911,0.0
4529973662.9075,-13.41679972692078,0.0,-2.9396408324520027,0.0
4529988662.907,-13.410626158719875,0.0,-2.9080885462377535,0.0
4530003662.9065,-13.414547085514222,0.0,-2.9305165049035984,0.0
4530018662.906,-13.414220368713794,0.0,-2.9030605349760665,0.0
4530033662.9055,-13.415502753559878,0.0,-2.863953070750907,0.0
4530048662.905,-13.417565148689054,0.0,-2.8843979183349115,0.0
4530063662.9045,-13.41340930982993,0.0,-2.905402355255239,0.0
4530078662.904,-13.42863427268815,0.0,-2.9014623640287716,0.0
4530093662.9035,-13.422096577153775,0.0,-2.8279097818537973,0.0
4530108662.903,-13.41711399372085,0.0,-2.9130066660467357,0.0
4530123662.9025,-13.418814180285768,0.0,-2.846261029793326,0.0
4530138662.902,-13.412752269585946,0.0,-2.868299080352724,0.0
4530153662.9015,-13.421588258661592,0.0,-2.9357953536570323,0.0
4530168662.901,-13.41983227463845,0.0,-2.9243738328231403,0.0
4530183662.9005,-13.416375307701461,0.0,-2.8911203227540097,0.0
4530198662.9,-13.420530090210116,0.0,-2.8768579682848374,0.0
4530213662.8995,-13.424973225541963,0.0,-2.8755245218769807,0.0
4530228662.899,-13.411161300391212,0.0,-2.9529387010148778,0.0
4530243662.8985,-13.427731003293017,0.0,-2.9607811951236185,0.0
4530258662.898,-13.413012891143536,0.0,-2.8967973441711963,0.0
4530273662.8975,-13.411383027800486,0.0,-2.9070411713695172,0.0
4530288662.897,-13.420361132214126,0.0,-2.937379393854606,0.0
4530303662.8965,-13.421524074840132,0.0,-2.9594516179394104,0.0
4530318662.896,-13.415775620314287,0.0,-2.9364859370568093,0.0
4530333662.8955,-13.414412294013893,0.0,-2.9089800202179217,0.0
4530348662.895,-13.417301910356151,0.0,-2.949133915499183,0.0
4530363662.8945,-13.41942803834564,0.0,-2.946248804183009,0.0
4530378662.894,-13.40978554947027,0.0,-2.948674281551377,0.0
4530393662.8935,-13.416297432938924,0.0,-2.875288069295223,0.0
4530408662.893,-13.42652364299707,0.0,-2.9684432176202162,0.0
4530423662.8925,-13.42162797837078,0.0,-2.9297004385575316,0.0
4530438662.892,-13.412513586331528,0.0,-2.9310340183751666,0.0
4530453662.8915,-13.423735097950654,0.0,-2.93512184507571,0.0
4530468662.891,-13.426719561613423,0.0,-2.9841002398062417,0.0
4530483662.8905,-13.419382725438997,0.0,-2.970979377709598,0.0
4530498662.89,-13.420749529639167,0.0,-2.963917067614241,0.0
4530513662.8895,-13.41743349146806,0.0,-2.9823030974886633,0.0
4530528662.889,-13.414729163961061,0.0,-2.96852052981565,0.0
4530543662.8885,-13.419718092176653,0.0,-2.9730075517660555,0.0
4530558662.888,-13.428662917682523,0.0,-3.0167557520285344,0.0
4530573662.8875,-13.423446214967711,0.0,-2.9774612304122297,0.0
4530588662.887,-13.419817087926004,0.0,-3.00227592055689,0.0
4530603662.8865,-13.413678378713907,0.0,-2.96147771127521,0.0
4530618662.886,-13.416760232890555,0.0,-3.022094431655391,0.0
4530633662.8855,-13.418849294779543,0.0,-3.0326768163537996,0.0
4530648662.885,-13.417939952892969,0.0,-2.9969014215378507,0.0
4530663662.8845,-13.416240661726217,0.0,-3.0277440181771347,0.0
4530678662.884,-13.425298505020287,0.0,-3.000943590457203,0.0
4530693662.8835,-13.423348328466556,0.0,-3.026464272649601,0.0
4530708662.883,-13.412372934296247,0.0,-3.053534975377161,0.0
4530723662.8825,-13.419960600714854,0.0,-3.0093973558196945,0.0
4530738662.882,-13.421001860853167,0.0,-3.029615969182443,0.0
4530753662.8815,-13.425407239400338,0.0,-3.0393877633362547,0.0
4530768662.881,-13.42421150476264,0.0,-3.032509244493199,0.0
4530783662.8805,-13.418483941451772,0.0,-2.964850557115186,0.0
4530798662.88,-13.425731908687768,0.0,-3.009627809299302,0.0
4530813662.8795,-13.422469144063792,0.0,-3.0475109194440146,0.0
4530828662.879,-13.416939193920127,0.0,-3.0565241513422103,0.0
4530843662.8785,-13.415206212189034,0.0,-2.973991229631952,0.0
4530858662.878,-13.418656513096103,0.0,-3.0168020853755424,0.0
4530873662.8775,-13.422805662591738,0.0,-3.039319571650758,0.0
4530888662.877,-13.421009802075446,0.0,-3.028227531421026,0.0
4530903662.8765,-13.41692085392822,0.0,-3.053956605014754,0.0
4530918662.876,-13.418566629719235,0.0,-3.1187113457674425,0.0
4530933662.8755,-13.415159649338849,0.0,-3.0995130429266733,0.0
4530948662.875,-13.416825035146822,0.0,-3.031428427160938,0.0
4530963662.8745,-13.416397563852478,0.0,-3.018438844564855,0.0
4530978662.874,-13.424815392680374,0.0,-3.0135720953421368,0.0
4530993662.8735,-13.41490447446212,0.0,-3.0795458200445625,0.0
4531008662.873,-13.410688882866479,0.0,-3.0628361394064427,0.0
4531023662.8725,-13.426630750967217,0.0,-3.0913759276818764,0.0
4531038662.872,-13.415809685358413,0.0,-3.099314170337739,0.0
4531053662.8715,-13.425876123552516,0.0,-3.080863310887559,0.0
4531068662.871,-13.428980762068432,0.0,-3.05478597959685,0.0
4531083662.8705,-13.426580538364966,0.0,-3.0774007356084594,0.0
4531098662.87,-13.418209489505035,0.0,-3.0601623631415937,0.0
4531113662.8695,-13.421460210186279,0.0,-3.096804727515819,0.0
4531128662.869,-13.425338342992909,0.0,-3.074340198043489,0.0
4531143662.8685,-13.426018101794062,0.0,-3.1626129103019305,0.0
4531158662.868,-13.419421060256497,0.0,-3.1057881520249033,0.0
4531173662.8675,-13.422625857429697,0.0,-3.1276741641414736,0.0
4531188662.867,-13.41665629974167,0.0,-3.1225910620949047,0.0
4531203662.8665,-13.421437124477967,0.0,-3.089883195470408,0.0
4531218662.866,-13.423181027613564,0.0,-3.1110920679918808,0.0
4531233662.8655,-13.419135840520438,0.0,-3.14049257003782,0.0
4531248662.865,-13.431414916884938,0.0,-3.1939363068462816,0.0
4531263662.8645,-13.427025177771233,0.0,-3.1276239195385664,0.0
4531278662.864,-13.425576891867326,0.0,-3.0817398181226046,0.0
4531293662.8635,-13.427896672075013,0.0,-3.1784655319008595,0.0
4531308662.863,-13.414243772038429,0.0,-3.174875081207795,0.0
4531323662.8625,-13.419851751360117,0.0,-3.1651207671185393,0.0
4531338662.862,-13.426196894538808,0.0,-3.1834814265519547,0.0
4531353662.8615,-13.431916822676591,0.0,-3.212591095250299,0.0
4531368662.861,-13.418670948282651,0.0,-3.1954595939790633,0.0
4531383662.8605,-13.417173705424938,0.0,-3.24399266527088,0.0
4531398662.86,-13.427613342113249,0.0,-3.122219606742978,0.0
4531413662.8595,-13.420886060903962,0.0,-3.183716708276599,0.0
4531428662.859,-13.424508807874776,0.0,-3.1708525229873747,0.0
4531443662.8585,-13.424781670935598,0.0,-3.111528229935323,0.0
4531458662.858,-13.425034675600616,0.0,-3.1831585532678752,0.0
4531473662.8575,-13.417421176057449,0.0,-3.2063448338649643,0.0
4531488662.857,-13.41940044314039,0.0,-3.0994062798296773,0.0
4531503662.8565,-13.421385948456766,0.0,-3.131035071564982,0.0
4531518662.856,-13.424718090275785,0.0,-3.1666337333586108,0.0
4531533662.8555,-13.41602793890573,0.0,-3.212203526305465,0.0
4531548662.855,-13.424551382089042,0.0,-3.1565158402279403,0.0
4531563662.8545,-13.41832757712086,0.0,-3.1757129663553982,0.0
4531578662.854,-13.415198614406625,0.0,-3.2706660238023466,0.0
4531593662.8535,-13.42422411819728,0.0,-3.2046969219845374,0.0
4531608662.853,-13.417036054857759,0.0,-3.283042949724435,0.0
4531623662.8525,-13.42312197817861,0.0,-3.2140668432013477,0.0
4531638662.852,-13.420842156534942,0.0,-3.224039198550434,0.0
4531653662.8515,-13.420132512687314,0.0,-3.2298075299747975,0.0
4531668662.851,-13.43192146943368,0.0,-3.24836034146729,0.0
4531683662.8505,-13.424503564196012,0.0,-3.2335236390145394,0.0
4531698662.85,-13.418104758517694,0.0,-3.2339194363324877,0.0
4531713662.8495,-13.423234345663154,0.0,-3.273547480677239,0.0
4531728662.849,-13.431395809215537,0.0,-3.2532475242214858,0.0
4531743662.8485,-13.425976785869281,0.0,-3.2636642007196004,0.0
4531758662.848,-13.430802003919787,0.0,-3.273994362017141,0.0
4531773662.8475,-13.417115068788522,0.0,-3.2127134438708476,0.0
4531788662.847,-13.427063515407461,0.0,-3.292376397231489,0.0
4531803662.8465,-13.416881795862821,0.0,-3.227060801789212,0.0
4531818662.846,-13.417744514252261,0.0,-3.2244684826701238,0.0
4531833662.8455,-13.425284993021059,0.0,-3.2709100522686168,0.0
4531848662.845,-13.417498823529172,0.0,-3.316265375447313,0.0
4531863662.8445,-13.426052111635876,0.0,-3.2341935922644796,0.0
