Frequency,S11,S11-Q,S11-Phase,S11-Phase-Q
4527198663.0,-13.420545706871614,0.0,-2.314389206457736,0.0
4527213662.9995,-13.412653284613885,0.0,-2.368067037062321,0.0
4527228662.999,-13.421949127146949,0.0,-2.3812090453254293,0.0
4527243662.9985,-13.417313697844214,0.0,-2.4780289494777823,0.0
4527258662.998,-13.415215891953636,0.0,-2.390984421315159,0.0
4527273662.9975,-13.414012425489204,0.0,-2.3814209785082077,0.0
4527288662.997,-13.415360669545107,0.0,-2.4443041757507724,0.0
4527303662.9965,-13.414706430118336,0.0,-2.459360260767247,0.0
4527318662.996,-13.418957849102844,0.0,-2.362774609336419,0.0
4527333662.9955,-13.419612021260129,0.0,-2.3977103335293366,0.0
4527348662.995,-13.410948694992271,0.0,-2.4423901204180565,0.0
4527363662.9945,-13.422261603387868,0.0,-2.4235305830911718,0.0
4527378662.994,-13.410928114452501,0.0,-2.475438720226506,0.0
4527393662.9935,-13.417184751086673,0.0,-2.4032554416190615,0.0
4527408662.993,-13.412489978513838,0.0,-2.491152712825328,0.0
4527423662.9925,-13.412859770739223,0.0,-2.4379627102878314,0.0
4527438662.992,-13.416418640186784,0.0,-2.4862478744964163,0.0
4527453662.9915,-13.406546801629446,0.0,-2.40317730985106,0.0
4527468662.991,-13.420548025824939,0.0,-2.3715589519858127,0.0
4527483662.9905,-13.416604177549347,0.0,-2.468524425574094,0.0
4527498662.99,-13.414866731648257,0.0,-2.460317900985791,0.0
4527513662.9895,-13.413299765749713,0.0,-2.4450783795315543,0.0
4527528662.989,-13.417053813111746,0.0,-2.3944636541928164,0.0
4527543662.9885,-13.40914988719817,0.0,-2.463801932699156,0.0
4527558662.988,-13.421883629881018,0.0,-2.4549049629424746,0.0
4527573662.9875,-13.417406469873336,0.0,-2.5273142308285643,0.0
4527588662.987,-13.414692717160596,0.0,-2.426026522054812,0.0
4527603662.9865,-13.42528803655153,0.0,-2.4852500450814206,0.0
4527618662.986,-13.411462036754255,0.0,-2.472341042240909,0.0
4527633662.9855,-13.422379182379153,0.0,-2.4554052935215154,0.0
4527648662.985,-13.41547444003119,0.0,-2.4308988931629636,0.0
4527663662.9845,-13.419870887860405,0.0,-2.492759930238381,0.0
4527678662.984,-13.40290066853125,0.0,-2.3911497096963616,0.0
4527693662.9835,-13.423456659392413,0.0,-2.448440729335524,0.0
4527708662.983,-13.412570322141093,0.0,-2.4695910368591005,0.0
4527723662.9825,-13.418574425139177,0.0,-2.4523206365823684,0.0
4527738662.982,-13.41819506961893,0.0,-2.4660105923135838,0.0
4527753662.9815,-13.412560098144331,0.0,-2.5486510214986104,0.0
4527768662.981,-13.421454179673248,0.0,-2.496188997061586,0.0
4527783662.9805,-13.41175311503254,0.0,-2.4675362866182584,0.0
4527798662.98,-13.407264446299308,0.0,-2.4943410619362285,0.0
4527813662.9795,-13.413081875152953,0.0,-2.5019112833715993,0.0
4527828662.979,-13.421022174308794,0.0,-2.4583211551707507,0.0
4527843662.9785,-13.413049760578971,0.0,-2.5242893187296067,0.0
4527858662.978,-13.423916774486877,0.0,-2.4277485372061975,0.0
4527873662.9775,-13.416944572079215,0.0,-2.5026607001405075,0.0
4527888662.977,-13.41552716412859,0.0,-2.497865362487178,0.0
4527903662.9765,-13.415289913799146,0.0,-2.479903967409187,0.0
4527918662.976,-13.415805360831135,0.0,-2.4607271980216314,0.0
4527933662.9755,-13.414767134362332,0.0,-2.588933712954165,0.0
4527948662.975,-13.415301059084362,0.0,-2.473401427528628,0.0
4527963662.9745,-13.408695307089523,0.0,-2.4755444163445355,0.0
4527978662.974,-13.424489712391088,0.0,-2.487311451793508,0.0
4527993662.9735,-13.418124146584098,0.0,-2.489267520179688,0.0
4528008662.973,-13.423058186782411,0.0,-2.4687502467988724,0.0
4528023662.9725,-13.413984960687467,0.0,-2.528725403818514,0.0
4528038662.972,-13.419111007218067,0.0,-2.5610137663559995,0.0
4528053662.9715,-13.415996286554318,0.0,-2.489487868759212,0.0
4528068662.971,-13.41699255459471,0.0,-2.496735849429398,0.0
4528083662.9705,-13.413907713280846,0.0,-2.506041154510562,0.0
4528098662.97,-13.415269411260322,0.0,-2.5113771879262092,0.0
4528113662.9695,-13.41404742510316,0.0,-2.584133448823503,0.0
4528128662.969,-13.42586838273952,0.0,-2.5497377302499697,0.0
4528143662.9685,-13.426401360013731,0.0,-2.53597237793241,0.0
4528158662.968,-13.42885698839492,0.0,-2.504921886164796,0.0
4528173662.9675,-13.419138649446541,0.0,-2.534027381641874,0.0
4528188662.967,-13.412473590719717,0.0,-2.5574150052857045,0.0
4528203662.9665,-13.412765838839595,0.0,-2.588722811106948,0.0
4528218662.966,-13.408908082344613,0.0,-2.596749879990067,0.0
4528233662.9655,-13.419154535976794,0.0,-2.5422831541041777,0.0
4528248662.965,-13.420253151618704,0.0,-2.5483030040166588,0.0
4528263662.9645,-13.416873589812027,0.0,-2.5479463958310653,0.0
4528278662.964,-13.421939316219234,0.0,-2.5402783597435405,0.0
4528293662.9635,-13.417911679834374,0.0,-2.570684997172067,0.0
4528308662.963,-13.409454589115303,0.0,-2.5429196591541676,0.0
4528323662.9625,-13.416836410214536,0.0,-2.5273134321917783,0.0
4528338662.962,-13.42114751240673,0.0,-2.5273139592432456,0.0
4528353662.9615,-13.420372917379478,0.0,-2.5793631438083957,0.0
4528368662.961,-13.417257757689796,0.0,-2.5243595345520062,0.0
4528383662.9605,-13.414697756107984,0.0,-2.60628417534321,0.0
4528398662.96,-13.415800803197035,0.0,-2.5842081800541647,0.0
4528413662.9595,-13.422018412031187,0.0,-2.63624187601823,0.0
4528428662.959,-13.418510057501898,0.0,-2.5494114262742698,0.0
4528443662.9585,-13.420819555553024,0.0,-2.6661097670459033,0.0
4528458662.958,-13.42303224902219,0.0,-2.5937561905258377,0.0
4528473662.9575,-13.40714004002615,0.0,-2.6462422510906976,0.0
4528488662.957,-13.424659582961917,0.0,-2.559572609039441,0.0
4528503662.9565,-13.426705218573616,0.0,-2.5875758474084924,0.0
4528518662.956,-13.427797365974563,0.0,-2.5302680263071204,0.0
4528533662.9555,-13.417346698852672,0.0,-2.6067901845898014,0.0
4528548662.955,-13.411974043807334,0.0,-2.6254246398878176,0.0
4528563662.9545,-13.417470074307381,0.0,-2.6205038749267393,0.0
4528578662.954,-13.408269076422672,0.0,-2.650374583496574,0.0
4528593662.9535,-13.419648858850298,0.0,-2.575760853689971,0.0
4528608662.953,-13.416579356041016,0.0,-2.5646945414572087,0.0
4528623662.9525,-13.419373239282262,0.0,-2.6962980112701613,0.0
4528638662.952,-13.408821729997666,0.0,-2.639975036702388,0.0
4528653662.9515,-13.418679503072294,0.0,-2.5991629392086955,0.0
4528668662.951,-13.417768775191732,0.0,-2.6452146894617954,0.0
4528683662.9505,-13.418613151156872,0.0,-2.5905723591933043,0.0
4528698662.95,-13.425145834869996,0.0,-2.6244234163786193,0.0
4528713662.9495,-13.412932411743746,0.0,-2.6227232520251076,0.0
4528728662.949,-13.417314462508113,0.0,-2.6507941392612167,0.0
4528743662.9485,-13.41588970816127,0.0,-2.606209908657075,0.0
4528758662.948,-13.424880623642977,0.0,-2.6097919040355078,0.0
4528773662.9475,-13.421812249547383,0.0,-2.5684306079729593,0.0
4528788662.947,-13.420172712447824,0.0,-2.6086371005361686,0.0
4528803662.9465,-13.418223540161021,0.0,-2.6385014122399553,0.0
4528818662.946,-13.413388853009028,0.0,-2.7347464936727057,0.0
4528833662.9455,-13.417072686491693,0.0,-2.6795371290697743,0.0
4528848662.945,-13.417479153621654,0.0,-2.6707747618047706,0.0
4528863662.9445,-13.431823617865014,0.0,-2.689700807554285,0.0
4528878662.944,-13.42069977733922,0.0,-2.70034029661817,0.0
4528893662.9435,-13.416170236233658,0.0,-2.5986022637807964,0.0
4528908662.943,-13.41551632993726,0.0,-2.6644401648535654,0.0
4528923662.9425,-13.42332947566912,0.0,-2.7057723765112924,0.0
4528938662.942,-13.421212590852537,0.0,-2.6677479447621444,0.0
4528953662.9415,-13.421458522996224,0.0,-2.6698247763833023,0.0
4528968662.941,-13.418152853875249,0.0,-2.679362495644917,0.0
4528983662.9405,-13.419145846813858,0.0,-2.667942449418831,0.0
4528998662.94,-13.411784559681344,0.0,-2.720367266758716,0.0
4529013662.9395,-13.424717934088905,0.0,-2.64194341745297,0.0
4529028662.939,-13.427268079851684,0.0,-2.6777780839448067,0.0
4529043662.9385,-13.42528320747552,0.0,-2.6514207952064535,0.0
4529058662.938,-13.41515428556879,0.0,-2.6799242732989836,0.0
4529073662.9375,-13.426091339357173,0.0,-2.676512435361806,0.0
4529088662.937,-13.415899232786884,0.0,-2.6699500494075763,0.0
4529103662.9365,-13.41612622802826,0.0,-2.6551126903363524,0.0
4529118662.936,-13.424401765696683,0.0,-2.717558795440146,0.0
4529133662.9355,-13.421797357373162,0.0,-2.6924595549926553,0.0
4529148662.935,-13.41472091733942,0.0,-2.6714720508453467,0.0
4529163662.9345,-13.427054998241497,0.0,-2.7114812783507873,0.0
4529178662.934,-13.419862913748917,0.0,-2.646780969402385,0.0
4529193662.9335,-13.41671570380953,0.0,-2.6997132855829347,0.0
4529208662.933,-13.423093245777906,0.0,-2.6936776658234587,0.0
4529223662.9325,-13.41709706155296,0.0,-2.71557174891063,0.0
4529238662.932,-13.413075577529245,0.0,-2.6649844300745067,0.0
4529253662.9315,-13.41143527899062,0.0,-2.7431251103424956,0.0
4529268662.931,-13.412323485752644,0.0,-2.7302067957715668,0.0
4529283662.9305,-13.422895631861797,0.0,-2.7274940163915216,0.0
4529298662.93,-13.42486989479868,0.0,-2.6874410699632,0.0
4529313662.9295,-13.4276613067011,0.0,-2.7662831494907834,0.0
4529328662.929,-13.428917756063017,0.0,-2.7374283399366455,0.0
4529343662.9285,-13.420970299313348,0.0,-2.7345356586497873,0.0
4529358662.928,-13.427876537171002,0.0,-2.741440942815244,0.0
4529373662.9275,-13.421924240320413,0.0,-2.784087183346625,0.0
4529388662.927,-13.421611908554718,0.0,-2.7196260258628286,0.0
4529403662.9265,-13.422800117551873,0.0,-2.7658579899882287,0.0
4529418662.926,-13.4202228899092,0.0,-2.790850850836516,0.0
4529433662.9255,-13.423208722460442,0.0,-2.7677876471089955,0.0
4529448662.925,-13.425403882404169,0.0,-2.7024388473592724,0.0
4529463662.9245,-13.425335677411965,0.0,-2.783342395771206,0.0
4529478662.924,-13.42603141273137,0.0,-2.7778510646517303,0.0
4529493662.9235,-13.425793912142858,0.0,-2.730854869692472,0.0
4529508662.923,-13.421013417498806,0.0,-2.7782319321747884,0.0
4529523662.9225,-13.425897847821176,0.0,-2.778132931277035,0.0
4529538662.922,-13.426012348465335,0.0,-2.7667598300944283,0.0
4529553662.9215,-13.43317225351951,0.0,-2.685540631057657,0.0
4529568662.921,-13.424573926170753,0.0,-2.779594057530503,0.0
4529583662.9205,-13.416886828678155,0.0,-2.7699544150306967,0.0
4529598662.92,-13.424476558644065,0.0,-2.750387209614462,0.0
4529613662.9195,-13.425398219216127,0.0,-2.819705823706229,0.0
4529628662.919,-13.42021118141976,0.0,-2.7935644592461846,0.0
4529643662.9185,-13.414818275917572,0.0,-2.7886865388692437,0.0
4529658662.918,-13.42165027020104,0.0,-2.7786611044975316,0.0
4529673662.9175,-13.42377450821935,0.0,-2.7950072604228415,0.0
4529688662.917,-13.42378814281461,0.0,-2.7720821717604855,0.0
4529703662.9165,-13.435555546492195,0.0,-2.7756910357352766,0.0
4529718662.916,-13.426061825683286,0.0,-2.8496345467909263,0.0
4529733662.9155,-13.41933381749924,0.0,-2.853382892134491,0.0
4529748662.915,-13.423634493317977,0.0,-2.79753101956364,0.0
4529763662.9145,-13.42151097068479,0.0,-2.786265690468588,0.0
4529778662.914,-13.433019758217632,0.0,-2.790913266968071,0.0
4529793662.9135,-13.426692227661505,0.0,-2.8791160250200414,0.0
4529808662.913,-13.433576406079768,0.0,-2.7686332499126163,0.0
4529823662.9125,-13.421096278537188,0.0,-2.7944477213508923,0.0
4529838662.912,-13.421435162956287,0.0,-2.841607396449902,0.0
4529853662.9115,-13.425797730745499,0.0,-2.8153678148420553,0.0
4529868662.911,-13.412802149871041,0.0,-2.8461935785013117,0.0
4529883662.9105,-13.42303125000059,0.0,-2.8596598572556076,0.0
4529898662.91,-13.42492592061298,0.0,-2.8122177146416947,0.0
4529913662.9095,-13.417414628643776,0.0,-2.8035016946863434,0.0
4529928662.909,-13.429863856348437,0.0,-2.8186967734293606,0.0
4529943662.9085,-13.428541450497546,0.0,-2.7901644183507854,0.0
4529958662.908,-13.429135208660817,0.0,-2.8398597141139015,0.0
4529973662.9075,-13.421691246212275,0.0,-2.8573239379207753,0.0
4529988662.907,-13.420588407439544,0.0,-2.816601174761761,0.0
4530003662.9065,-13.42736743164625,0.0,-2.8542788290582815,0.0
4530018662.906,-13.420437500447926,0.0,-2.8494826863235327,0.0
4530033662.9055,-13.422086696331522,0.0,-2.907574663587831,0.0
4530048662.905,-13.425036044788385,0.0,-2.8411092857468208,0.0
4530063662.9045,-13.418850915893826,0.0,-2.8555705222694296,0.0
4530078662.904,-13.424816321416323,0.0,-2.8511641362353983,0.0
4530093662.9035,-13.42720265285825,0.0,-2.8840069670260844,0.0
4530108662.903,-13.422769974686382,0.0,-2.90859097800016,0.0
4530123662.9025,-13.41893664618299,0.0,-2.915678567028756,0.0
4530138662.902,-13.430231961002583,0.0,-2.906616016687882,0.0
4530153662.9015,-13.421233105611508,0.0,-2.839375909318458,0.0
4530168662.901,-13.418005255222663,0.0,-2.871496070568445,0.0
4530183662.9005,-13.430472056457674,0.0,-2.9127713487641347,0.0
4530198662.9,-13.424916786245383,0.0,-2.8670278412233583,0.0
4530213662.8995,-13.428320776576046,0.0,-2.9435904241367217,0.0
4530228662.899,-13.424778679501593,0.0,-2.870144780062984,0.0
4530243662.8985,-13.424322740665467,0.0,-2.8583003370450393,0.0
4530258662.898,-13.427564818540311,0.0,-2.9182418911864576,0.0
4530273662.8975,-13.41553940023725,0.0,-2.9417543456642106,0.0
4530288662.897,-13.41655134569939,0.0,-2.8890971452906644,0.0
4530303662.8965,-13.424627172569757,0.0,-2.9354098213540496,0.0
4530318662.896,-13.424251253505155,0.0,-2.8325736342078573,0.0
4530333662.8955,-13.426299283991778,0.0,-2.9191032833152337,0.0
4530348662.895,-13.430447497530851,0.0,-2.8855500747487173,0.0
4530363662.8945,-13.430058315084821,0.0,-2.8431163373293606,0.0
4530378662.894,-13.41938039474459,0.0,-2.9593197947882137,0.0
4530393662.8935,-13.427494029656042,0.0,-2.9818312121680948,0.0
4530408662.893,-13.43024003011072,0.0,-2.9775053169187866,0.0
4530423662.8925,-13.416858472477653,0.0,-2.9464613946274762,0.0
4530438662.892,-13.426954866273686,0.0,-2.9309951417674376,0.0
4530453662.8915,-13.43074966762108,0.0,-2.984833140112683,0.0
4530468662.891,-13.420249982369807,0.0,-2.9461484347367106,0.0
4530483662.8905,-13.4248016415071,0.0,-2.9217237385536956,0.0
4530498662.89,-13.422815900274829,0.0,-2.97607868288279,0.0
4530513662.8895,-13.426352449588904,0.0,-2.961278636364334,0.0
4530528662.889,-13.421019078941717,0.0,-2.9839230669629817,0.0
4530543662.8885,-13.424512249051553,0.0,-2.96725009477836,0.0
4530558662.888,-13.432673162340144,0.0,-2.948643217737113,0.0
4530573662.8875,-13.429159002289015,0.0,-2.9819652450670606,0.0
4530588662.887,-13.429494036875308,0.0,-2.971564393595284,0.0
4530603662.8865,-13.428392873360181,0.0,-2.904693781145238,0.0
4530618662.886,-13.429112820639693,0.0,-3.0080155471995056,0.0
4530633662.8855,-13.421827876015968,0.0,-2.9825738772864967,0.0
4530648662.885,-13.427800607945334,0.0,-2.9960380656357803,0.0
4530663662.8845,-13.416292242978107,0.0,-2.9514475716737656,0.0
4530678662.884,-13.426668808288797,0.0,-3.0136160517589907,0.0
4530693662.8835,-13.419136577788782,0.0,-3.024603152627533,0.0
4530708662.883,-13.434771412499124,0.0,-2.9798071815374167,0.0
4530723662.8825,-13.432490442138512,0.0,-2.9367429239777754,0.0
4530738662.882,-13.438040318423571,0.0,-3.0419892935368815,0.0
4530753662.8815,-13.413616434834402,0.0,-2.960058161608233,0.0
4530768662.881,-13.421208434176958,0.0,-3.060273010237431,0.0
4530783662.8805,-13.426325986372875,0.0,-3.075932539259437,0.0
4530798662.88,-13.432134441635721,0.0,-3.032102467797858,0.0
4530813662.8795,-13.418056218867612,0.0,-3.0294910336517518,0.0
4530828662.879,-13.418728748873018,0.0,-2.9826289084921487,0.0
4530843662.8785,-13.423768345307112,0.0,-3.013582143059392,0.0
4530858662.878,-13.437368297718269,0.0,-3.032771031834597,0.0
4530873662.8775,-13.434767568467452,0.0,-3.0451080712471374,0.0
4530888662.877,-13.424895029540082,0.0,-3.0504701565969237,0.0
4530903662.8765,-13.420745801910961,0.0,-3.057015217156745,0.0
4530918662.876,-13.42533903652021,0.0,-3.050265437293828,0.0
4530933662.8755,-13.420713989362966,0.0,-3.0633146864779133,0.0
4530948662.875,-13.430843505396798,0.0,-3.0574074019175583,0.0
4530963662.8745,-13.43214471181835,0.0,-3.084963359219837,0.0
4530978662.874,-13.425469757291102,0.0,-3.002601813387825,0.0
4530993662.8735,-13.42855424601256,0.0,-3.010667522174685,0.0
4531008662.873,-13.433594411563927,0.0,-3.0515395387566713,0.0
4531023662.8725,-13.430744196240944,0.0,-3.0718847506928553,0.0
4531038662.872,-13.42355365015634,0.0,-3.093650769287078,0.0
4531053662.8715,-13.424824516427698,0.0,-3.12014114439523,0.0
4531068662.871,-13.423147663400929,0.0,-3.0833371242817487,0.0
4531083662.8705,-13.427628901930637,0.0,-3.119657267705832,0.0
4531098662.87,-13.419450905939525,0.0,-3.0745304416079997,0.0
4531113662.8695,-13.43076781119972,0.0,-3.092308721910773,0.0
4531128662.869,-13.43202971221113,0.0,-3.1133911880870837,0.0
4531143662.8685,-13.426496693138827,0.0,-3.0685271066622124,0.0
4531158662.868,-13.426634511462945,0.0,-3.0772720408311383,0.0
4531173662.8675,-13.420919703612412,0.0,-3.096062408409731,0.0
4531188662.867,-13.41179424844199,0.0,-3.0888973052058972,0.0
4531203662.8665,-13.427236547579572,0.0,-3.0901559385128152,0.0
4531218662.866,-13.43046327305901,0.0,-3.1754825951611236,0.0
4531233662.8655,-13.428537097024638,0.0,-3.093186925355247,0.0
4531248662.865,-13.429009798064897,0.0,-3.0762504229974073,0.0
4531263662.8645,-13.428249102635231,0.0,-3.1300143638672338,0.0
4531278662.864,-13.430205869196355,0.0,-3.1470807993270555,0.0
4531293662.8635,-13.430030295032516,0.0,-3.1003264569575424,0.0
4531308662.863,-13.42305161003493,0.0,-3.09841704871252,0.0
4531323662.8625,-13.41871559431318,0.0,-3.157754834519037,0.0
4531338662.862,-13.424213809834168,0.0,-3.1024772730334513,0.0
4531353662.8615,-13.427326185805747,0.0,-3.1389936309239475,0.0
4531368662.861,-13.429392964768985,0.0,-3.178456767016591,0.0
4531383662.8605,-13.433128182984344,0.0,-3.171651728647688,0.0
4531398662.86,-13.42379836683046,0.0,-3.1518312166784996,0.0
4531413662.8595,-13.42720357974189,0.0,-3.1769480583304026,0.0
4531428662.859,-13.409109828520059,0.0,-3.132319491089726,0.0
4531443662.8585,-13.429202770260282,0.0,-3.1979134145261243,0.0
4531458662.858,-13.428613841867296,0.0,-3.1804716434482225,0.0
4531473662.8575,-13.434508646324922,0.0,-3.1608494867417996,0.0
4531488662.857,-13.438175093450253,0.0,-3.1193836347346604,0.0
4531503662.8565,-13.424288859432657,0.0,-3.133929381488042,0.0
4531518662.856,-13.424336856407757,0.0,-3.1575540471764367,0.0
4531533662.8555,-13.431037735946806,0.0,-3.1401784936438077,0.0
4531548662.855,-13.43217974765083,0.0,-3.231934902812382,0.0
4531563662.8545,-13.425262963640566,0.0,-3.1663088936967103,0.0
4531578662.854,-13.427096074841655,0.0,-3.168807565899391,0.0
4531593662.8535,-13.417380557473384,0.0,-3.221431553804255,0.0
4531608662.853,-13.426459452187409,0.0,-3.1828418244061747,0.0
4531623662.8525,-13.426292898715067,0.0,-3.186890810479776,0.0
4531638662.852,-13.432325536237073,0.0,-3.1629740233524117,0.0
4531653662.8515,-13.435852997623032,0.0,-3.171958981114277,0.0
4531668662.851,-13.434937450557957,0.0,-3.23026027832091,0.0
4531683662.8505,-13.426008002103991,0.0,-3.2622232267805114,0.0
4531698662.85,-13.432985900797718,0.0,-3.19483164488316,0.0
4531713662.8495,-13.41956188466596,0.0,-3.21332562929059,0.0
4531728662.849,-13.431730542059432,0.0,-3.2379686590510186,0.0
4531743662.8485,-13.428755098846636,0.0,-3.2613474568174743,0.0
4531758662.848,-13.420839004906357,0.0,-3.2372483849740594,0.0
4531773662.8475,-13.430564210663656,0.0,-3.233389579204739,0.0
4531788662.847,-13.427750589038842,0.0,-3.249789633310781,0.0
4531803662.8465,-13.432426441802587,0.0,-3.222901286737434,0.0
4531818662.846,-13.433896729019168,0.0,-3.246997403031478,0.0
4531833662.8455,-13.426332917426185,0.0,-3.2241130190134184,0.0
4531848662.845,-13.437388040309106,0.0,-3.2638552063859896,0.0
4531863662.8445,-13.434595566948017,0.0,-3.312069096495874,0.0
