Frequency,S11,S11-Q,S11-Phase,S11-Phase-Q
4527198663.0,-13.405892137403775,0.0,-2.396008214202643,0.0
4527213662.9995,-13.42246116013418,0.0,-2.392742969409815,0.0
4527228662.999,-13.422590655398887,0.0,-2.3725915545629017,0.0
4527243662.9985,-13.421725779502992,0.0,-2.441133516167619,0.0
4527258662.998,-13.417523666458209,0.0,-2.3666309014192346,0.0
4527273662.9975,-13.403523805168255,0.0,-2.379499896503115,0.0
4527288662.997,-13.414227047291071,0.0,-2.3589416865187194,0.0
4527303662.9965,-13.420714890131624,0.0,-2.3783434606072213,0.0
4527318662.996,-13.417202197588098,0.0,-2.4559229135903236,0.0
4527333662.9955,-13.417899149989687,0.0,-2.404220595809899,0.0
4527348662.995,-13.409129349667575,0.0,-2.412636796319899,0.0
4527363662.9945,-13.409018125759582,0.0,-2.4308746169687305,0.0
4527378662.994,-13.419775953139876,0.0,-2.435638228705679,0.0
4527393662.9935,-13.410165255461022,0.0,-2.454343785118335,0.0
4527408662.993,-13.418239667510106,0.0,-2.4126015743353135,0.0
4527423662.9925,-13.424331081292806,0.0,-2.4563400528516075,0.0
4527438662.992,-13.414479244001514,0.0,-2.417970432086747,0.0
4527453662.9915,-13.418371317946105,0.0,-2.486834170332037,0.0
4527468662.991,-13.417351330800098,0.0,-2.4952629342150603,0.0
4527483662.9905,-13.405379661346196,0.0,-2.3511331229593417,0.0
4527498662.99,-13.417866631258434,0.0,-2.4348912013777575,0.0
4527513662.9895,-13.416347465271706,0.0,-2.433563770577713,0.0
4527528662.989,-13.415015620988932,0.0,-2.389386319094405,0.0
4527543662.9885,-13.415851030885467,0.0,-2.4902442112574947,0.0
4527558662.988,-13.417289566453647,0.0,-2.419020340786679,0.0
4527573662.9875,-13.414651529924866,0.0,-2.416160932808475,0.0
4527588662.987,-13.40908122067466,0.0,-2.4607716657776346,0.0
4527603662.9865,-13.428684864120154,0.0,-2.460267683411206,0.0
4527618662.986,-13.419487372786872,0.0,-2.4206258808814227,0.0
4527633662.9855,-13.413620119882196,0.0,-2.457042939604295,0.0
4527648662.985,-13.414551834723072,0.0,-2.4287209513323234,0.0
4527663662.9845,-13.417879565882236,0.0,-2.5016818696851777,0.0
4527678662.984,-13.416810260808088,0.0,-2.429297072266584,0.0
4527693662.9835,-13.407683576842137,0.0,-2.4749194084978563,0.0
4527708662.983,-13.41627173260157,0.0,-2.455760735547958,0.0
4527723662.9825,-13.41481457879201,0.0,-2.415905646170598,0.0
4527738662.982,-13.417034650841455,0.0,-2.4139133254887675,0.0
4527753662.9815,-13.418605159263617,0.0,-2.494923594122612,0.0
4527768662.981,-13.426216127461174,0.0,-2.4531752826312268,0.0
4527783662.9805,-13.41127607367503,0.0,-2.4756167027949307,0.0
4527798662.98,-13.42176576306054,0.0,-2.4862813482080246,0.0
4527813662.9795,-13.419635059739301,0.0,-2.404212695557935,0.0
4527828662.979,-13.416046746806948,0.0,-2.4375486292372424,0.0
4527843662.9785,-13.418509098411342,0.0,-2.4418480726350733,0.0
4527858662.978,-13.412010202737036,0.0,-2.4746475131105536,0.0
4527873662.9775,-13.419205153013944,0.0,-2.5452188802793443,0.0
4527888662.977,-13.421064349276229,0.0,-2.5410578787386457,0.0
4527903662.9765,-13.420521794262976,0.0,-2.435243508100292,0.0
4527918662.976,-13.41604474371225,0.0,-2.5836754698051094,0.0
4527933662.9755,-13.416804191906326,0.0,-2.5200565289564256,0.0
4527948662.975,-13.421435003512613,0.0,-2.4743660734030497,0.0
4527963662.9745,-13.419289343717242,0.0,-2.439794744370192,0.0
4527978662.974,-13.424194123977205,0.0,-2.5240358685577804,0.0
4527993662.9735,-13.41903986059295,0.0,-2.4686561551782895,0.0
4528008662.973,-13.425578905966242,0.0,-2.4844402412283806,0.0
4528023662.9725,-13.415168925537902,0.0,-2.4902293535525724,0.0
4528038662.972,-13.413329107648043,0.0,-2.51271011959873,0.0
4528053662.9715,-13.416882969199161,0.0,-2.531141302716199,0.0
4528068662.971,-13.419646431083265,0.0,-2.4610321439928677,0.0
4528083662.9705,-13.414692949194313,0.0,-2.486453261672046,0.0
4528098662.97,-13.426959718000393,0.0,-2.5365911990516237,0.0
4528113662.9695,-13.416422864439603,0.0,-2.5329066028034766,0.0
4528128662.969,-13.419165073025315,0.0,-2.471892335262098,0.0
4528143662.9685,-13.418147070153502,0.0,-2.4350221807760906,0.0
4528158662.968,-13.411197543118604,0.0,-2.527655332258387,0.0
4528173662.9675,-13.407278083252796,0.0,-2.5466304958811774,0.0
4528188662.967,-13.415733134583016,0.0,-2.536991671619375,0.0
4528203662.9665,-13.422994739661567,0.0,-2.5013239982635502,0.0
4528218662.966,-13.416227616407328,0.0,-2.489246907879152,0.0
4528233662.9655,-13.416122458154256,0.0,-2.5048742431980604,0.0
4528248662.965,-13.418234825153428,0.0,-2.5376847129526183,0.0
4528263662.9645,-13.414636339656811,0.0,-2.5648411298259877,0.0
4528278662.964,-13.41469316414717,0.0,-2.538156247400579,0.0
4528293662.9635,-13.422809518991972,0.0,-2.5791501854714127,0.0
4528308662.963,-13.418713928485877,0.0,-2.559678353568886,0.0
4528323662.9625,-13.424117579145134,0.0,-2.553734339785972,0.0
4528338662.962,-13.417186540284586,0.0,-2.5954139941057064,0.0
4528353662.9615,-13.41856600049945,0.0,-2.555314649656376,0.0
4528368662.961,-13.426397238191326,0.0,-2.6172561678717225,0.0
4528383662.9605,-13.411831838171162,0.0,-2.571890830706154,0.0
4528398662.96,-13.425153137386731,0.0,-2.569535492928432,0.0
4528413662.9595,-13.411339207043692,0.0,-2.5664362553863094,0.0
4528428662.959,-13.4117348756257,0.0,-2.580935693031874,0.0
4528443662.9585,-13.425257702204165,0.0,-2.5533741728721235,0.0
4528458662.958,-13.419590317226643,0.0,-2.5860424046932176,0.0
4528473662.9575,-13.423196878440818,0.0,-2.5282621606831137,0.0
4528488662.957,-13.415418089727469,0.0,-2.547571783928,0.0
4528503662.9565,-13.416642682331759,0.0,-2.561828171829568,0.0
4528518662.956,-13.420120011920439,0.0,-2.581367936034507,0.0
4528533662.9555,-13.421737533617616,0.0,-2.631546009248696,0.0
4528548662.955,-13.416806717569411,0.0,-2.5695090554960487,0.0
4528563662.9545,-13.421430526871836,0.0,-2.588870186203402,0.0
4528578662.954,-13.42939514398582,0.0,-2.572181974945961,0.0
4528593662.9535,-13.421551966387408,0.0,-2.6251901130824105,0.0
4528608662.953,-13.425003670106555,0.0,-2.605034867633235,0.0
4528623662.9525,-13.422827283470662,0.0,-2.5836006660563124,0.0
4528638662.952,-13.417048825043043,0.0,-2.6579648932130926,0.0
4528653662.9515,-13.42038864615751,0.0,-2.600394937054046,0.0
4528668662.951,-13.419815881958872,0.0,-2.6336983731713564,0.0
4528683662.9505,-13.40881653777059,0.0,-2.609937511855027,0.0
4528698662.95,-13.415133234099574,0.0,-2.5828460518851655,0.0
4528713662.9495,-13.423559546316422,0.0,-2.581204456422567,0.0
4528728662.949,-13.425797383036365,0.0,-2.662411085408934,0.0
4528743662.9485,-13.419874471346912,0.0,-2.6033853264994575,0.0
4528758662.948,-13.419434687912496,0.0,-2.6119471054604597,0.0
4528773662.9475,-13.415710020051087,0.0,-2.648976050720693,0.0
4528788662.947,-13.41762390146564,0.0,-2.665057142634176,0.0
4528803662.9465,-13.418117203009835,0.0,-2.6102284206125534,0.0
4528818662.946,-13.411424699967231,0.0,-2.5905182214852864,0.0
4528833662.9455,-13.406726045128751,0.0,-2.570488512395648,0.0
4528848662.945,-13.41952579460338,0.0,-2.6549521446313795,0.0
4528863662.9445,-13.423534477498396,0.0,-2.5854308359496585,0.0
4528878662.944,-13.418176518832752,0.0,-2.6295127384182324,0.0
4528893662.9435,-13.423184713586554,0.0,-2.690510095059517,0.0
4528908662.943,-13.422539634163055,0.0,-2.630526830164487,0.0
4528923662.9425,-13.41237360996148,0.0,-2.64849870394377,0.0
4528938662.942,-13.418383786283286,0.0,-2.6486463566536376,0.0
4528953662.9415,-13.414825034997133,0.0,-2.632093668343288,0.0
4528968662.941,-13.42404332511662,0.0,-2.6457199908810525,0.0
4528983662.9405,-13.421588659325375,0.0,-2.640640690229637,0.0
4528998662.94,-13.420948473110192,0.0,-2.685519731729372,0.0
4529013662.9395,-13.410565065328177,0.0,-2.6782943255655574,0.0
4529028662.939,-13.42305502636711,0.0,-2.7170447190337406,0.0
4529043662.9385,-13.430855541243254,0.0,-2.6323384136457193,0.0
4529058662.938,-13.42431002497231,0.0,-2.664608935515166,0.0
4529073662.9375,-13.423541773999697,0.0,-2.6630321722673895,0.0
4529088662.937,-13.410765597017972,0.0,-2.619826932732402,0.0
4529103662.9365,-13.422021320985568,0.0,-2.709720665051983,0.0
4529118662.936,-13.41641541210885,0.0,-2.646246141343361,0.0
4529133662.9355,-13.421751607530332,0.0,-2.6856570276121166,0.0
4529148662.935,-13.41956023362425,0.0,-2.666621393093524,0.0
4529163662.9345,-13.418627068328083,0.0,-2.755711138264651,0.0
4529178662.934,-13.424396280542048,0.0,-2.7798167118569665,0.0
4529193662.9335,-13.42753673910908,0.0,-2.6820293154424233,0.0
4529208662.933,-13.42127973997319,0.0,-2.7324527429476766,0.0
4529223662.9325,-13.415646141464752,0.0,-2.666361157637548,0.0
4529238662.932,-13.413159123679076,0.0,-2.6885183456474144,0.0
4529253662.9315,-13.421145666407712,0.0,-2.693996820320097,0.0
4529268662.931,-13.415396090070447,0.0,-2.7055734087498684,0.0
4529283662.9305,-13.436971644858227,0.0,-2.731230811112059,0.0
4529298662.93,-13.421643701613643,0.0,-2.697449213172365,0.0
4529313662.9295,-13.41976068040033,0.0,-2.702315269344639,0.0
4529328662.929,-13.414754091910947,0.0,-2.682043710559531,0.0
4529343662.9285,-13.420480564833163,0.0,-2.7629238350976286,0.0
4529358662.928,-13.425190322338178,0.0,-2.7495437181673177,0.0
4529373662.9275,-13.418377379797874,0.0,-2.7176424319241437,0.0
4529388662.927,-13.423600758857647,0.0,-2.716410483654199,0.0
4529403662.9265,-13.420327521305309,0.0,-2.720763886918186,0.0
4529418662.926,-13.430068932553088,0.0,-2.713768612032742,0.0
4529433662.9255,-13.426700361449985,0.0,-2.7550699211933054,0.0
4529448662.925,-13.42174209455581,0.0,-2.7244617296766314,0.0
4529463662.9245,-13.427129384595313,0.0,-2.7525783483841866,0.0
4529478662.924,-13.419226356322811,0.0,-2.748097475721544,0.0
4529493662.9235,-13.41544226486419,0.0,-2.7347013500305577,0.0
4529508662.923,-13.417140132905391,0.0,-2.7318506219806675,0.0
4529523662.9225,-13.417089376399192,0.0,-2.7857650037838164,0.0
4529538662.922,-13.421484883302766,0.0,-2.732398438264188,0.0
4529553662.9215,-13.424937253899516,0.0,-2.6850798776440223,0.0
4529568662.921,-13.420646345086213,0.0,-2.8066719649546545,0.0
4529583662.9205,-13.416800650758415,0.0,-2.7947663065539956,0.0
4529598662.92,-13.426274213494526,0.0,-2.7419750440361166,0.0
4529613662.9195,-13.435343794564174,0.0,-2.7779295670623223,0.0
4529628662.919,-13.433917743240166,0.0,-2.7087055244148397,0.0
4529643662.9185,-13.418402641513136,0.0,-2.758657918444979,0.0
4529658662.918,-13.422680528851664,0.0,-2.735779917347578,0.0
4529673662.9175,-13.4226682136932,0.0,-2.7594329623202456,0.0
4529688662.917,-13.423260538365442,0.0,-2.7871928055902275,0.0
4529703662.9165,-13.430718024515114,0.0,-2.7875746266276944,0.0
4529718662.916,-13.414955938991023,0.0,-2.8357447360085812,0.0
4529733662.9155,-13.415718504894276,0.0,-2.811542438254983,0.0
4529748662.915,-13.426338228431261,0.0,-2.8230164823873887,0.0
4529763662.9145,-13.424601337747308,0.0,-2.816507056293567,0.0
4529778662.914,-13.42302921762095,0.0,-2.821472015638044,0.0
4529793662.9135,-13.425279966498792,0.0,-2.833011930233598,0.0
4529808662.913,-13.419824368598888,0.0,-2.837868752924731,0.0
4529823662.9125,-13.411818853392088,0.0,-2.8066172931237325,0.0
4529838662.912,-13.42906657021677,0.0,-2.827496504997375,0.0
4529853662.9115,-13.428744843264372,0.0,-2.7939060930704462,0.0
4529868662.911,-13.414134004266895,0.0,-2.7902435477984406,0.0
4529883662.9105,-13.423266621031281,0.0,-2.9389663127817753,0.0
4529898662.91,-13.421071333049596,0.0,-2.822895878210134,0.0
4529913662.9095,-13.42383400628076,0.0,-2.828119122715721,0.0
4529928662.909,-13.425629197095269,0.0,-2.800690594137951,0.0
4529943662.9085,-13.423825378710921,0.0,-2.8471897401029005,0.0
4529958662.908,-13.42313943770922,0.0,-2.8074580077837488,0.0
4529973662.9075,-13.419293394374636,0.0,-2.887953846056298,0.0
4529988662.907,-13.427994151684066,0.0,-2.8267794165374247,0.0
4530003662.9065,-13.423853293781292,0.0,-2.822869115290562,0.0
4530018662.906,-13.424161949584377,0.0,-2.817993913874799,0.0
4530033662.9055,-13.421810820800232,0.0,-2.819893780369401,0.0
4530048662.905,-13.425422788650277,0.0,-2.7988700839741627,0.0
4530063662.9045,-13.425333362689909,0.0,-2.8775544920906033,0.0
4530078662.904,-13.4261594969877,0.0,-2.898589230574514,0.0
4530093662.9035,-13.420741794492336,0.0,-2.8696856042237786,0.0
4530108662.903,-13.424303492408054,0.0,-2.8988474984117527,0.0
4530123662.9025,-13.428691276124251,0.0,-2.824942649937652,0.0
4530138662.902,-13.431608591882894,0.0,-2.9097137745498927,0.0
4530153662.9015,-13.423918369091028,0.0,-2.8312493941143133,0.0
4530168662.901,-13.415848007344264,0.0,-2.8553477306972113,0.0
4530183662.9005,-13.420279987082594,0.0,-2.928968288058558,0.0
4530198662.9,-13.42792245074762,0.0,-2.8728748545251634,0.0
4530213662.8995,-13.42541662350916,0.0,-2.941367035060442,0.0
4530228662.899,-13.419903108915587,0.0,-2.9028551966584693,0.0
4530243662.8985,-13.418737513202553,0.0,-2.926205281526042,0.0
4530258662.898,-13.421323452368679,0.0,-2.9063864250271534,0.0
4530273662.8975,-13.420689984315395,0.0,-2.8770953463404365,0.0
4530288662.897,-13.421544539247312,0.0,-2.9152309665271487,0.0
4530303662.8965,-13.426943728311915,0.0,-2.888485644212521,0.0
4530318662.896,-13.430587059604376,0.0,-2.8889512662235086,0.0
4530333662.8955,-13.425386784554824,0.0,-2.8504889206724133,0.0
4530348662.895,-13.42027404069239,0.0,-2.937398195638884,0.0
4530363662.8945,-13.41478930080989,0.0,-2.8695167562765187,0.0
4530378662.894,-13.429949605609162,0.0,-2.972005535592037,0.0
4530393662.8935,-13.433527464548511,0.0,-2.891736128375254,0.0
4530408662.893,-13.414751301343909,0.0,-2.9563388568147215,0.0
4530423662.8925,-13.424589192041898,0.0,-2.9177842118530846,0.0
4530438662.892,-13.429005695337297,0.0,-2.989098483928092,0.0
4530453662.8915,-13.429185707387564,0.0,-2.915944823755484,0.0
4530468662.891,-13.429725546086932,0.0,-2.942597417609069,0.0
4530483662.8905,-13.424952890990628,0.0,-2.928594293625453,0.0
4530498662.89,-13.420595954559422,0.0,-2.9452191517956723,0.0
4530513662.8895,-13.42270459362847,0.0,-2.947508457058625,0.0
4530528662.889,-13.42646414516964,0.0,-2.9453534901442766,0.0
4530543662.8885,-13.428072428207782,0.0,-2.9650231050762406,0.0
4530558662.888,-13.42846905786316,0.0,-2.909885943352932,0.0
4530573662.8875,-13.422538935903814,0.0,-2.91651613814496,0.0
4530588662.887,-13.431548532005236,0.0,-2.9076785420864772,0.0
4530603662.8865,-13.425738465371975,0.0,-2.933997171239909,0.0
4530618662.886,-13.427919949461785,0.0,-2.951894118206959,0.0
4530633662.8855,-13.430808492939935,0.0,-3.0372998028306655,0.0
4530648662.885,-13.431698933294559,0.0,-3.0523891631056057,0.0
4530663662.8845,-13.421149523925708,0.0,-2.9351736961493344,0.0
4530678662.884,-13.43134031738096,0.0,-2.89145604929827,0.0
4530693662.8835,-13.428815040473378,0.0,-3.003941835066747,0.0
4530708662.883,-13.429189379274952,0.0,-2.9807678726099014,0.0
4530723662.8825,-13.424879463286965,0.0,-3.002803828873768,0.0
4530738662.882,-13.423762340618943,0.0,-2.935069164127845,0.0
4530753662.8815,-13.43716366428964,0.0,-3.024496168025694,0.0
4530768662.881,-13.431165693622383,0.0,-3.0319637577863423,0.0
4530783662.8805,-13.42766238079596,0.0,-2.9564950161638173,0.0
4530798662.88,-13.421039835803349,0.0,-2.959181679970306,0.0
4530813662.8795,-13.424297356413797,0.0,-2.992433320839803,0.0
4530828662.879,-13.42610379305185,0.0,-2.974471482524118,0.0
4530843662.8785,-13.428237745842743,0.0,-3.064937528787351,0.0
4530858662.878,-13.424847236395248,0.0,-3.018968594460402,0.0
4530873662.8775,-13.429035920140208,0.0,-3.034026586250125,0.0
4530888662.877,-13.426183077969114,0.0,-3.010342441696362,0.0
4530903662.8765,-13.422163062268758,0.0,-3.0115530258796617,0.0
4530918662.876,-13.427738349197762,0.0,-2.997644021583354,0.0
4530933662.8755,-13.43356497136828,0.0,-3.0586454309280184,0.0
4530948662.875,-13.42416324457351,0.0,-3.0152556803803487,0.0
4530963662.8745,-13.43360797598012,0.0,-3.0634881755334287,0.0
4530978662.874,-13.43132535050379,0.0,-3.066265438971638,0.0
4530993662.8735,-13.431496458855111,0.0,-3.077038993449556,0.0
4531008662.873,-13.424322985672339,0.0,-3.0762804271625144,0.0
4531023662.8725,-13.433370795556769,0.0,-3.081361892509577,0.0
4531038662.872,-13.423692913123883,0.0,-3.0275344458218236,0.0
4531053662.8715,-13.423081457098966,0.0,-3.11415127920467,0.0
4531068662.871,-13.426461673536148,0.0,-3.0392356796478435,0.0
4531083662.8705,-13.42355943888573,0.0,-3.006508909195006,0.0
4531098662.87,-13.420113682860537,0.0,-3.036865755866754,0.0
4531113662.8695,-13.419572765145027,0.0,-3.014243555558304,0.0
4531128662.869,-13.437043901680862,0.0,-3.0702102553428157,0.0
4531143662.8685,-13.426542081354672,0.0,-3.1276307576949782,0.0
4531158662.868,-13.429708989581513,0.0,-3.0587235739785408,0.0
4531173662.8675,-13.434743412526885,0.0,-2.979468756616008,0.0
4531188662.867,-13.428059396041132,0.0,-3.1216577815945192,0.0
4531203662.8665,-13.424475225527221,0.0,-3.0954325436224144,0.0
4531218662.866,-13.432467917942247,0.0,-3.0622587783029194,0.0
4531233662.8655,-13.429548488476424,0.0,-3.1420690287900728,0.0
4531248662.865,-13.427200534756345,0.0,-3.1573222941318346,0.0
4531263662.8645,-13.423678848109839,0.0,-3.026052006375278,0.0
4531278662.864,-13.43234007636201,0.0,-3.056161684144106,0.0
4531293662.8635,-13.421120938832136,0.0,-3.077818603122099,0.0
4531308662.863,-13.415149653562255,0.0,-3.1322549282783414,0.0
4531323662.8625,-13.426021704864361,0.0,-3.171169568506273,0.0
4531338662.862,-13.42672438169907,0.0,-3.0859104325798064,0.0
4531353662.8615,-13.42808394066186,0.0,-3.1004667081493014,0.0
4531368662.861,-13.43197063316013,0.0,-3.0592899948227426,0.0
4531383662.8605,-13.43730022738125,0.0,-3.1325023960619807,0.0
4531398662.86,-13.423460145152957,0.0,-3.168977064485404,0.0
4531413662.8595,-13.432555573796455,0.0,-3.150675381352515,0.0
4531428662.859,-13.43211821129027,0.0,-3.1822465164349585,0.0
4531443662.8585,-13.43071935089299,0.0,-3.1534294218960213,0.0
4531458662.858,-13.4304839057869,0.0,-3.12136388711372,0.0
4531473662.8575,-13.433181324227405,0.0,-3.1424966941100285,0.0
4531488662.857,-13.43150479648737,0.0,-3.1747070357382468,0.0
4531503662.8565,-13.432765843864058,0.0,-3.2023194272788222,0.0
4531518662.856,-13.424506899315869,0.0,-3.1668304410178667,0.0
4531533662.8555,-13.430410518682887,0.0,-3.1868953228479295,0.0
4531548662.855,-13.432184834259997,0.0,-3.0727475766540047,0.0
4531563662.8545,-13.422678427022968,0.0,-3.1960323692553634,0.0
4531578662.854,-13.424257533581967,0.0,-3.16816512982738,0.0
4531593662.8535,-13.43152985463562,0.0,-3.1889254279649557,0.0
4531608662.853,-13.427194298896449,0.0,-3.186993675440422,0.0
4531623662.8525,-13.431207941591815,0.0,-3.185863795287887,0.0
4531638662.852,-13.428475914334143,0.0,-3.1544853707188656,0.0
4531653662.8515,-13.426567735185282,0.0,-3.2119211229471563,0.0
4531668662.851,-13.42942069575303,0.0,-3.1447298694567927,0.0
4531683662.8505,-13.4247077436695,0.0,-3.213756181089933,0.0
4531698662.85,-13.431197022720395,0.0,-3.229688113817025,0.0
4531713662.8495,-13.432185349074421,0.0,-3.1991696035372987,0.0
4531728662.849,-13.425961509723354,0.0,-3.1720450232165325,0.0
4531743662.8485,-13.430417406862995,0.0,-3.237233759144768,0.0
4531758662.848,-13.434214240745423,0.0,-3.226412978434305,0.0
4531773662.8475,-13.432348080782766,0.0,-3.246799477976923,0.0
4531788662.847,-13.426818817896471,0.0,-3.228539358416123,0.0
4531803662.8465,-13.430688946294815,0.0,-3.2448134666338397,0.0
4531818662.846,-13.424616719230702,0.0,-3.2383338412161673,0.0
4531833662.8455,-13.434048485261492,0.0,-3.2001778621822523,0.0
4531848662.845,-13.42558615622085,0.0,-3.2321322188325263,0.0
4531863662.8445,-13.427647192986464,0.0,-3.2916730966824153,0.0
4531878662.844,-13.428884610836091,0.0,-3.224003638120491,0.0
