Frequency,S11,S11-Q,S11-Phase,S11-Phase-Q
4527198663.0,-13.418563153579179,0.0,-2.5083709010886843,0.0
4527213662.9995,-13.416834846730456,0.0,-2.427494364279671,0.0
4527228662.999,-13.411842178757876,0.0,-2.415148666900208,0.0
4527243662.9985,-13.422614223381462,0.0,-2.3886205111563257,0.0
4527258662.998,-13.411149932210423,0.0,-2.4003589623170525,0.0
4527273662.9975,-13.42241086524934,0.0,-2.4135394804978936,0.0
4527288662.997,-13.42196699642198,0.0,-2.4432238977450194,0.0
4527303662.9965,-13.425690351414495,0.0,-2.4638393239622522,0.0
4527318662.996,-13.406965074436915,0.0,-2.4579870859706077,0.0
4527333662.9955,-13.420125701773609,0.0,-2.4844795300903373,0.0
4527348662.995,-13.418094554117157,0.0,-2.415961671803709,0.0
4527363662.9945,-13.419386933905402,0.0,-2.454855662984799,0.0
4527378662.994,-13.427148438805913,0.0,-2.425271137100489,0.0
4527393662.9935,-13.414504377455817,0.0,-2.4256426857987567,0.0
4527408662.993,-13.414363364285759,0.0,-2.4350830859580297,0.0
4527423662.9925,-13.427010106472537,0.0,-2.467891359652884,0.0
4527438662.992,-13.402602740011107,0.0,-2.491469882367282,0.0
4527453662.9915,-13.419246997591491,0.0,-2.475346891548144,0.0
4527468662.991,-13.416375875870658,0.0,-2.474679317909412,0.0
4527483662.9905,-13.41496382241905,0.0,-2.4349603936886997,0.0
4527498662.99,-13.42138969305281,0.0,-2.4355946539497775,0.0
4527513662.9895,-13.42268078366407,0.0,-2.4091999433098126,0.0
4527528662.989,-13.422521539616454,0.0,-2.4614888888910347,0.0
4527543662.9885,-13.41538395978388,0.0,-2.4727599618492353,0.0
4527558662.988,-13.423972986762621,0.0,-2.4459364501752483,0.0
4527573662.9875,-13.409162058771527,0.0,-2.4062962567084125,0.0
4527588662.987,-13.418298280261926,0.0,-2.4478948619111414,0.0
4527603662.9865,-13.425226193865274,0.0,-2.500377911590151,0.0
4527618662.986,-13.427965978469029,0.0,-2.5192094901560713,0.0
4527633662.9855,-13.421033761344445,0.0,-2.461685771626417,0.0
4527648662.985,-13.414315594772459,0.0,-2.4419419570001337,0.0
4527663662.9845,-13.415095220002108,0.0,-2.5137104550134586,0.0
4527678662.984,-13.424504820315663,0.0,-2.4472637814888465,0.0
4527693662.9835,-13.416026626884472,0.0,-2.4588084057780466,0.0
4527708662.983,-13.41916171030116,0.0,-2.5087817006785764,0.0
4527723662.9825,-13.421054378366165,0.0,-2.482108396231863,0.0
4527738662.982,-13.421159428089965,0.0,-2.4700913985952564,0.0
4527753662.9815,-13.417598937104433,0.0,-2.5313935094842126,0.0
4527768662.981,-13.426438382869872,0.0,-2.526424147361803,0.0
4527783662.9805,-13.419658481187927,0.0,-2.5411902463992595,0.0
4527798662.98,-13.40800594840526,0.0,-2.525533967074276,0.0
4527813662.9795,-13.424790723476212,0.0,-2.4775108376424426,0.0
4527828662.979,-13.416996945848208,0.0,-2.486836107378823,0.0
4527843662.9785,-13.414161776390777,0.0,-2.5840764338258815,0.0
4527858662.978,-13.42532809350859,0.0,-2.500833183412306,0.0
4527873662.9775,-13.415748259101408,0.0,-2.44404712768134,0.0
4527888662.977,-13.420744651082801,0.0,-2.517824535235036,0.0
4527903662.9765,-13.41707646614987,0.0,-2.4833025204738686,0.0
4527918662.976,-13.413192675285224,0.0,-2.4845453671310636,0.0
4527933662.9755,-13.415676356388605,0.0,-2.5179499814072774,0.0
4527948662.975,-13.424807158681723,0.0,-2.5620744242159157,0.0
4527963662.9745,-13.418927957294851,0.0,-2.4967713680484773,0.0
4527978662.974,-13.41816943284633,0.0,-2.5447073412324803,0.0
4527993662.9735,-13.419730427281102,0.0,-2.5498213498116833,0.0
4528008662.973,-13.419686100791308,0.0,-2.5056021716833863,0.0
4528023662.9725,-13.411714387981743,0.0,-2.457054726327087,0.0
4528038662.972,-13.421699395521927,0.0,-2.501645675811074,0.0
4528053662.9715,-13.41804691545243,0.0,-2.5774873160608833,0.0
4528068662.971,-13.422252277923297,0.0,-2.5497335292238934,0.0
4528083662.9705,-13.419633529640162,0.0,-2.5833916852331473,0.0
4528098662.97,-13.410463515654394,0.0,-2.5530521679375977,0.0
4528113662.9695,-13.41482525069008,0.0,-2.5600397687008094,0.0
4528128662.969,-13.422250606384951,0.0,-2.524915682908421,0.0
4528143662.9685,-13.42429284298799,0.0,-2.5341159203638126,0.0
4528158662.968,-13.41784653619569,0.0,-2.503955040839938,0.0
4528173662.9675,-13.434750680863667,0.0,-2.541679719433903,0.0
4528188662.967,-13.421524793134028,0.0,-2.524392062336839,0.0
4528203662.9665,-13.419788745478463,0.0,-2.600357347427807,0.0
4528218662.966,-13.425589453084658,0.0,-2.520241045211353,0.0
4528233662.9655,-13.41662941935544,0.0,-2.5008990428551,0.0
4528248662.965,-13.416234077551849,0.0,-2.570123617633689,0.0
4528263662.9645,-13.431450692214423,0.0,-2.5820763183235553,0.0
4528278662.964,-13.432101250721498,0.0,-2.585763920419852,0.0
4528293662.9635,-13.424102410671484,0.0,-2.570116399443818,0.0
4528308662.963,-13.422338363287441,0.0,-2.5478843862078606,0.0
4528323662.9625,-13.425037480482517,0.0,-2.592508049690788,0.0
4528338662.962,-13.415022100774186,0.0,-2.5837731719100585,0.0
4528353662.9615,-13.420258452975222,0.0,-2.5496450738403262,0.0
4528368662.961,-13.422982401669834,0.0,-2.5579587575350615,0.0
4528383662.9605,-13.414057475022997,0.0,-2.56739605694487,0.0
4528398662.96,-13.421296046702771,0.0,-2.6022876966775863,0.0
4528413662.9595,-13.426538906416711,0.0,-2.561145978079351,0.0
4528428662.959,-13.417555919056674,0.0,-2.551030397677444,0.0
4528443662.9585,-13.418209911420506,0.0,-2.5648095000741464,0.0
4528458662.958,-13.429335452008857,0.0,-2.64140589862482,0.0
4528473662.9575,-13.422485623474355,0.0,-2.560416670495325,0.0
4528488662.957,-13.420959124601058,0.0,-2.5970104906316065,0.0
4528503662.9565,-13.416735338026049,0.0,-2.613771190403102,0.0
4528518662.956,-13.413221350262257,0.0,-2.625198302348382,0.0
4528533662.9555,-13.417156130453904,0.0,-2.603204373769703,0.0
4528548662.955,-13.414054339571628,0.0,-2.598726729958842,0.0
4528563662.9545,-13.420549191489835,0.0,-2.661860638040738,0.0
4528578662.954,-13.422144364450117,0.0,-2.6477620109502165,0.0
4528593662.9535,-13.41771747978379,0.0,-2.651587540988173,0.0
4528608662.953,-13.411493358354052,0.0,-2.5907265881980974,0.0
4528623662.9525,-13.417848267176321,0.0,-2.618248594495064,0.0
4528638662.952,-13.418030005768934,0.0,-2.570637582617787,0.0
4528653662.9515,-13.412610693944025,0.0,-2.650996891123179,0.0
4528668662.951,-13.419297631248286,0.0,-2.6688644562965687,0.0
4528683662.9505,-13.420999263537318,0.0,-2.659966386581829,0.0
4528698662.95,-13.42290361052678,0.0,-2.6310024109435957,0.0
4528713662.9495,-13.422007603852526,0.0,-2.647027209205775,0.0
4528728662.949,-13.415582373992347,0.0,-2.5927281449973125,0.0
4528743662.9485,-13.418589535740722,0.0,-2.6793903095119704,0.0
4528758662.948,-13.413470639346524,0.0,-2.6628473048219816,0.0
4528773662.9475,-13.41871475763414,0.0,-2.655233749445325,0.0
4528788662.947,-13.413325672779276,0.0,-2.600570303043971,0.0
4528803662.9465,-13.429046388251223,0.0,-2.668477621731003,0.0
4528818662.946,-13.418474908476792,0.0,-2.632602702959034,0.0
4528833662.9455,-13.42345110234568,0.0,-2.7126906284088523,0.0
4528848662.945,-13.41877523611275,0.0,-2.6107426593973573,0.0
4528863662.9445,-13.416453581342653,0.0,-2.681872548237169,0.0
4528878662.944,-13.423301203451539,0.0,-2.677520979508618,0.0
4528893662.9435,-13.412379907026683,0.0,-2.7049650907674927,0.0
4528908662.943,-13.425216093719323,0.0,-2.625674615208725,0.0
4528923662.9425,-13.430091515454736,0.0,-2.672317477684715,0.0
4528938662.942,-13.41782446380639,0.0,-2.686936232668238,0.0
4528953662.9415,-13.414635534742319,0.0,-2.7121553552049673,0.0
4528968662.941,-13.42232330571537,0.0,-2.66243799607688,0.0
4528983662.9405,-13.420911276132392,0.0,-2.6706620996401598,0.0
4528998662.94,-13.420517584943244,0.0,-2.632022776394833,0.0
4529013662.9395,-13.424282566104008,0.0,-2.7309482884934146,0.0
4529028662.939,-13.417916771512843,0.0,-2.730318296449661,0.0
4529043662.9385,-13.417498125817932,0.0,-2.7337191530561453,0.0
4529058662.938,-13.423962793562513,0.0,-2.707659021518437,0.0
4529073662.9375,-13.433336104303972,0.0,-2.789048624734992,0.0
4529088662.937,-13.41810150006382,0.0,-2.7018790512212623,0.0
4529103662.9365,-13.419615733640214,0.0,-2.7050404022489376,0.0
4529118662.936,-13.424187881436938,0.0,-2.793930637713387,0.0
4529133662.9355,-13.426931164359532,0.0,-2.715858449143127,0.0
4529148662.935,-13.419368422040982,0.0,-2.6296592045348692,0.0
4529163662.9345,-13.419391326104188,0.0,-2.716966337691078,0.0
4529178662.934,-13.432855143522444,0.0,-2.7576343432133985,0.0
4529193662.9335,-13.418709132602736,0.0,-2.7084237329700085,0.0
4529208662.933,-13.421419290652768,0.0,-2.71352985424271,0.0
4529223662.9325,-13.429744811784648,0.0,-2.733476908210545,0.0
4529238662.932,-13.425343501209305,0.0,-2.7621778297776887,0.0
4529253662.9315,-13.421178024374129,0.0,-2.7318633887101975,0.0
4529268662.931,-13.434692655120992,0.0,-2.6995644496995714,0.0
4529283662.9305,-13.426750721785197,0.0,-2.7784342798893014,0.0
4529298662.93,-13.417662761050348,0.0,-2.757363126789974,0.0
4529313662.9295,-13.42698135975281,0.0,-2.785413568683878,0.0
4529328662.929,-13.42385431443729,0.0,-2.7279430702635317,0.0
4529343662.9285,-13.426506990384265,0.0,-2.7302035553523707,0.0
4529358662.928,-13.418404515179574,0.0,-2.6903082163964998,0.0
4529373662.9275,-13.415769739006818,0.0,-2.717255349419234,0.0
4529388662.927,-13.416966225814019,0.0,-2.713917636835944,0.0
4529403662.9265,-13.418672857566925,0.0,-2.7060668543445923,0.0
4529418662.926,-13.42274152334311,0.0,-2.760954840372719,0.0
4529433662.9255,-13.424286890462557,0.0,-2.787307764492945,0.0
4529448662.925,-13.429288664702483,0.0,-2.755005534932032,0.0
4529463662.9245,-13.42738720334583,0.0,-2.814176147094686,0.0
4529478662.924,-13.42263197600145,0.0,-2.788844328182031,0.0
4529493662.9235,-13.43246811865817,0.0,-2.717445309433539,0.0
4529508662.923,-13.421319011446391,0.0,-2.777000654628486,0.0
4529523662.9225,-13.424200932906627,0.0,-2.8026098829321278,0.0
4529538662.922,-13.427741542480401,0.0,-2.7556009115141427,0.0
4529553662.9215,-13.417193608218852,0.0,-2.771317767531831,0.0
4529568662.921,-13.417178003013603,0.0,-2.8351374890791554,0.0
4529583662.9205,-13.422531624180527,0.0,-2.7718406460825005,0.0
4529598662.92,-13.417020011709813,0.0,-2.843441127380554,0.0
4529613662.9195,-13.42817297949247,0.0,-2.8449437472861145,0.0
4529628662.919,-13.426486850126091,0.0,-2.8604167889630028,0.0
4529643662.9185,-13.421406299574421,0.0,-2.82213486189326,0.0
4529658662.918,-13.419922294973299,0.0,-2.788473513676917,0.0
4529673662.9175,-13.427952783251783,0.0,-2.819071459484536,0.0
4529688662.917,-13.426095087474504,0.0,-2.7754846338964745,0.0
4529703662.9165,-13.420446490789226,0.0,-2.8437751410634573,0.0
4529718662.916,-13.419884691877627,0.0,-2.7843073300377936,0.0
4529733662.9155,-13.425474495091414,0.0,-2.7691344918890604,0.0
4529748662.915,-13.4238909252229,0.0,-2.784846092446745,0.0
4529763662.9145,-13.419387083482924,0.0,-2.7416418029344856,0.0
4529778662.914,-13.416365434652644,0.0,-2.887881337325278,0.0
4529793662.9135,-13.420690201172093,0.0,-2.7994357976390947,0.0
4529808662.913,-13.420785781337049,0.0,-2.7783158503915195,0.0
4529823662.9125,-13.423694260619222,0.0,-2.8089793137185954,0.0
4529838662.912,-13.431203997567977,0.0,-2.8406865686282208,0.0
4529853662.9115,-13.430833382628236,0.0,-2.8473692049433628,0.0
4529868662.911,-13.427558507750756,0.0,-2.8637660409017185,0.0
4529883662.9105,-13.425758143472928,0.0,-2.8436337121420574,0.0
4529898662.91,-13.42446370756946,0.0,-2.8737185102212206,0.0
4529913662.9095,-13.424772833215822,0.0,-2.8115522597439186,0.0
4529928662.909,-13.425618811565132,0.0,-2.8402534718378583,0.0
4529943662.9085,-13.425335810837911,0.0,-2.8030880076269034,0.0
4529958662.908,-13.423597397826379,0.0,-2.8042600108744957,0.0
4529973662.9075,-13.430223586492055,0.0,-2.8518369361633416,0.0
4529988662.907,-13.436505693525827,0.0,-2.79339078612956,0.0
4530003662.9065,-13.419385496511069,0.0,-2.871484223892326,0.0
4530018662.906,-13.431168313008454,0.0,-2.908802229724207,0.0
4530033662.9055,-13.422184498377751,0.0,-2.847320036553686,0.0
4530048662.905,-13.42526998741554,0.0,-2.8496532013807974,0.0
4530063662.9045,-13.423799137027014,0.0,-2.8845459540070144,0.0
4530078662.904,-13.419701290475892,0.0,-2.793390740272334,0.0
4530093662.9035,-13.423340400868806,0.0,-2.8799534998825305,0.0
4530108662.903,-13.425636400322588,0.0,-2.87475424655426,0.0
4530123662.9025,-13.430660575176052,0.0,-2.896460670123304,0.0
4530138662.902,-13.423938398132195,0.0,-2.9199013194724532,0.0
4530153662.9015,-13.419211320362358,0.0,-2.7920578840302257,0.0
4530168662.901,-13.432212325214126,0.0,-2.8648320849779134,0.0
4530183662.9005,-13.417252291705864,0.0,-2.8955201982653054,0.0
4530198662.9,-13.428211113516191,0.0,-2.9005253224312253,0.0
4530213662.8995,-13.420355882782253,0.0,-2.8916325142285535,0.0
4530228662.899,-13.419844856634487,0.0,-2.9427823124795243,0.0
4530243662.8985,-13.426301234992275,0.0,-2.9228554761142154,0.0
4530258662.898,-13.423582608892318,0.0,-2.866214782333133,0.0
4530273662.8975,-13.423751624728162,0.0,-2.9104748394029487,0.0
4530288662.897,-13.434155037512777,0.0,-2.934994522166942,0.0
4530303662.8965,-13.422191018303174,0.0,-2.935877481799277,0.0
4530318662.896,-13.423019148144487,0.0,-2.953882368341688,0.0
4530333662.8955,-13.427762486110819,0.0,-2.9430366245222745,0.0
4530348662.895,-13.43084981241394,0.0,-2.8928533610732616,0.0
4530363662.8945,-13.428010851381359,0.0,-2.957112089143908,0.0
4530378662.894,-13.427422558526684,0.0,-2.8916848298731606,0.0
4530393662.8935,-13.42178512012971,0.0,-2.92330761369303,0.0
4530408662.893,-13.42462505459295,0.0,-2.923285254719355,0.0
4530423662.8925,-13.422949231686474,0.0,-2.9548457675798177,0.0
4530438662.892,-13.420333004127238,0.0,-2.985452229656873,0.0
4530453662.8915,-13.433704063905845,0.0,-2.9647881990148286,0.0
4530468662.891,-13.422657926995802,0.0,-2.9106298753460864,0.0
4530483662.8905,-13.431966962871265,0.0,-2.9345682248667737,0.0
4530498662.89,-13.427108537647968,0.0,-2.97788441878389,0.0
4530513662.8895,-13.423751185649891,0.0,-2.993864230998111,0.0
4530528662.889,-13.424116062512121,0.0,-2.9673353398811493,0.0
4530543662.8885,-13.428672283140479,0.0,-2.9329116916192337,0.0
4530558662.888,-13.423579774929804,0.0,-2.955433126617553,0.0
4530573662.8875,-13.432829286532183,0.0,-3.043437018824674,0.0
4530588662.887,-13.435303185284324,0.0,-3.044537152858345,0.0
4530603662.8865,-13.426786357881282,0.0,-2.990837508150949,0.0
4530618662.886,-13.424957769878887,0.0,-2.965281247156093,0.0
4530633662.8855,-13.429998211324758,0.0,-3.0245280368982956,0.0
4530648662.885,-13.429449586741423,0.0,-3.005465915461381,0.0
4530663662.8845,-13.421727385741116,0.0,-2.9976604255805444,0.0
4530678662.884,-13.428401237675171,0.0,-3.0130829559111882,0.0
4530693662.8835,-13.425690893345257,0.0,-2.974364915896551,0.0
4530708662.883,-13.430270681124334,0.0,-2.958269393321945,0.0
4530723662.8825,-13.430727648563892,0.0,-2.9576784011774158,0.0
4530738662.882,-13.429535370311145,0.0,-3.08008604695907,0.0
4530753662.8815,-13.428994705788382,0.0,-3.050148986227806,0.0
4530768662.881,-13.435587591874432,0.0,-3.0098470055147515,0.0
4530783662.8805,-13.43048156878666,0.0,-2.996749899464918,0.0
4530798662.88,-13.432392075987654,0.0,-3.0058147180482355,0.0
4530813662.8795,-13.42826852296351,0.0,-3.039263156022396,0.0
4530828662.879,-13.4262107015306,0.0,-3.009121690628808,0.0
4530843662.8785,-13.42258254394646,0.0,-3.0668700965631897,0.0
4530858662.878,-13.424894494158137,0.0,-3.0002545179529476,0.0
4530873662.8775,-13.432121191427516,0.0,-3.0303814965606612,0.0
4530888662.877,-13.42657793206138,0.0,-2.990414732430706,0.0
4530903662.8765,-13.427397041354332,0.0,-3.047429104857899,0.0
4530918662.876,-13.431022499748899,0.0,-3.073855005631338,0.0
4530933662.8755,-13.426946632361394,0.0,-3.0962271261437913,0.0
4530948662.875,-13.429068076309683,0.0,-3.0419151119067105,0.0
4530963662.8745,-13.420493142002554,0.0,-3.0741162132097575,0.0
4530978662.874,-13.42575348258302,0.0,-3.0934677906294183,0.0
4530993662.8735,-13.422697397363146,0.0,-3.0678924561552594,0.0
4531008662.873,-13.430353869322406,0.0,-3.0708765795345694,0.0
4531023662.8725,-13.431326795076682,0.0,-3.015501336493377,0.0
4531038662.872,-13.426282924396757,0.0,-3.0669359261765914,0.0
4531053662.8715,-13.439690691588455,0.0,-3.094743371651123,0.0
4531068662.871,-13.428822321658167,0.0,-3.1048923941534805,0.0
4531083662.8705,-13.42843842716495,0.0,-3.0735957591408685,0.0
4531098662.87,-13.429857055976049,0.0,-3.1290878837583356,0.0
4531113662.8695,-13.435451591633178,0.0,-3.1223468078836936,0.0
4531128662.869,-13.420097660496836,0.0,-3.1365680928481408,0.0
4531143662.8685,-13.434590331480447,0.0,-3.047157266127485,0.0
4531158662.868,-13.427030484242383,0.0,-3.154188737098509,0.0
4531173662.8675,-13.43697973894465,0.0,-3.1015869885442275,0.0
4531188662.867,-13.433753555627867,0.0,-3.1459719739468635,0.0
4531203662.8665,-13.423926209681419,0.0,-3.136025434483743,0.0
4531218662.866,-13.432402552655113,0.0,-3.0954211721119522,0.0
4531233662.8655,-13.427761345936737,0.0,-3.157257115642095,0.0
4531248662.865,-13.430568431907165,0.0,-3.1264259357707185,0.0
4531263662.8645,-13.429336209143317,0.0,-3.144722771104991,0.0
4531278662.864,-13.438423246590252,0.0,-3.118104420405724,0.0
4531293662.8635,-13.431360076130272,0.0,-3.1669084035276316,0.0
4531308662.863,-13.430861390589065,0.0,-3.1415333552481637,0.0
4531323662.8625,-13.427182144780787,0.0,-3.1380684698712504,0.0
4531338662.862,-13.428788307919914,0.0,-3.156669866129938,0.0
4531353662.8615,-13.424283041371318,0.0,-3.184273135430332,0.0
4531368662.861,-13.433302801418437,0.0,-3.1215260025299933,0.0
4531383662.8605,-13.435664398620524,0.0,-3.1508096110725976,0.0
4531398662.86,-13.4334249445612,0.0,-3.173921428894819,0.0
4531413662.8595,-13.431627873761078,0.0,-3.1632650494796835,0.0
4531428662.859,-13.419681683452477,0.0,-3.209276996750737,0.0
4531443662.8585,-13.435106397268186,0.0,-3.206598338495433,0.0
4531458662.858,-13.424106239317863,0.0,-3.1672905748811284,0.0
4531473662.8575,-13.423079392048704,0.0,-3.1398965088381137,0.0
4531488662.857,-13.427125329747698,0.0,-3.170541096413267,0.0
4531503662.8565,-13.427112397834602,0.0,-3.177365838515595,0.0
4531518662.856,-13.424748695092784,0.0,-3.2350698236341557,0.0
4531533662.8555,-13.435317253942623,0.0,-3.1904693030977835,0.0
4531548662.855,-13.434227898790192,0.0,-3.1942881765738775,0.0
4531563662.8545,-13.432167586913689,0.0,-3.192305313168378,0.0
4531578662.854,-13.428721355870966,0.0,-3.207290635060455,0.0
4531593662.8535,-13.437411396280654,0.0,-3.221764939524115,0.0
4531608662.853,-13.422932249995092,0.0,-3.2468777813928367,0.0
4531623662.8525,-13.425548779868011,0.0,-3.21263419936601,0.0
4531638662.852,-13.429371618314587,0.0,-3.2067991432164655,0.0
4531653662.8515,-13.426637720658261,0.0,-3.223517285258446,0.0
4531668662.851,-13.42177533626934,0.0,-3.2376976485638234,0.0
4531683662.8505,-13.43652522675017,0.0,-3.2545838080396865,0.0
4531698662.85,-13.42439206236172,0.0,-3.2789886647425397,0.0
4531713662.8495,-13.431140337084383,0.0,-3.218872818433955,0.0
4531728662.849,-13.430216726641934,0.0,-3.2232119849734207,0.0
4531743662.8485,-13.43154830050338,0.0,-3.270277950115208,0.0
4531758662.848,-13.434891572316882,0.0,-3.256554969081889,0.0
4531773662.8475,-13.429997884675833,0.0,-3.298689201189115,0.0
4531788662.847,-13.42766749499848,0.0,-3.235319138572648,0.0
4531803662.8465,-13.432708847228113,0.0,-3.2334780126953238,0.0
4531818662.846,-13.437625620648799,0.0,-3.263465148573104,0.0
4531833662.8455,-13.43009412771539,0.0,-3.265673021870917,0.0
4531848662.845,-13.436300327628645,0.0,-3.2010210028835213,0.0
4531863662.8445,-13.43139047743884,0.0,-3.2487065551572796,0.0
4531878662.844,-13.428102954392184,0.0,-3.2523834660729953,0.0
