Frequency,S11,S11-Q,S11-Phase,S11-Phase-Q
4527198663.0,-13.417022840793361,0.0,-2.3101593383302235,0.0
4527213662.9995,-13.418816360373459,0.0,-2.2669961703269528,0.0
4527228662.999,-13.425252362438549,0.0,-2.3615029215785284,0.0
4527243662.9985,-13.423442252886339,0.0,-2.3830316362199744,0.0
4527258662.998,-13.419310408615546,0.0,-2.3250763742167857,0.0
4527273662.9975,-13.429265878346497,0.0,-2.3311189721824657,0.0
4527288662.997,-13.425647850643765,0.0,-2.37671836859861,0.0
4527303662.9965,-13.421941622553629,0.0,-2.330095558640518,0.0
4527318662.996,-13.431900997194798,0.0,-2.363789040774106,0.0
4527333662.9955,-13.42172582886036,0.0,-2.3912569600809097,0.0
4527348662.995,-13.433483942074151,0.0,-2.3473978290225928,0.0
4527363662.9945,-13.421063193919734,0.0,-2.2759753040635124,0.0
4527378662.994,-13.421917315381851,0.0,-2.348616814048104,0.0
4527393662.9935,-13.419195833571528,0.0,-2.3023807357273047,0.0
4527408662.993,-13.421563278176968,0.0,-2.367791592334002,0.0
4527423662.9925,-13.423794573891165,0.0,-2.2746288040509137,0.0
4527438662.992,-13.432544760149936,0.0,-2.3371709437862394,0.0
4527453662.9915,-13.429070588772733,0.0,-2.43495456198172,0.0
4527468662.991,-13.417654374697548,0.0,-2.3610083572364773,0.0
4527483662.9905,-13.417057691652207,0.0,-2.3289211167068045,0.0
4527498662.99,-13.421234001693422,0.0,-2.35216730487561,0.0
4527513662.9895,-13.420608080680152,0.0,-2.381010235849429,0.0
4527528662.989,-13.420048354240917,0.0,-2.3495258329633573,0.0
4527543662.9885,-13.421855260480504,0.0,-2.309664079920589,0.0
4527558662.988,-13.417544276701772,0.0,-2.3777035726517566,0.0
4527573662.9875,-13.424380829939384,0.0,-2.36332536092049,0.0
4527588662.987,-13.421867985218219,0.0,-2.402314236439376,0.0
4527603662.9865,-13.4231452832819,0.0,-2.3838287601179604,0.0
4527618662.986,-13.431794301444462,0.0,-2.341979444938694,0.0
4527633662.9855,-13.42430626126834,0.0,-2.374795364091084,0.0
4527648662.985,-13.427876051984985,0.0,-2.3595315846821308,0.0
4527663662.9845,-13.432653642808356,0.0,-2.381893456715487,0.0
4527678662.984,-13.422759613510319,0.0,-2.4487891009922715,0.0
4527693662.9835,-13.417436260799139,0.0,-2.4102632200809557,0.0
4527708662.983,-13.425869587413871,0.0,-2.3510378459494636,0.0
4527723662.9825,-13.428061282713102,0.0,-2.3950054973739925,0.0
4527738662.982,-13.423844225590173,0.0,-2.39973158323075,0.0
4527753662.9815,-13.43159867960483,0.0,-2.370859368009966,0.0
4527768662.981,-13.43204544080942,0.0,-2.417789146924294,0.0
4527783662.9805,-13.427147982826185,0.0,-2.4415953692411154,0.0
4527798662.98,-13.4189130869749,0.0,-2.432785012598329,0.0
4527813662.9795,-13.421409115851272,0.0,-2.464527525212969,0.0
4527828662.979,-13.430380495902874,0.0,-2.453912519172495,0.0
4527843662.9785,-13.430724056846842,0.0,-2.402853222287872,0.0
4527858662.978,-13.421352116926693,0.0,-2.370979278441952,0.0
4527873662.9775,-13.41935204164,0.0,-2.442923493971659,0.0
4527888662.977,-13.428742298617223,0.0,-2.406402849901415,0.0
4527903662.9765,-13.429440254170803,0.0,-2.40493871461475,0.0
4527918662.976,-13.423836622737287,0.0,-2.3992006491312945,0.0
4527933662.9755,-13.42730078478134,0.0,-2.4561954181769683,0.0
4527948662.975,-13.426945477763129,0.0,-2.4603394386312716,0.0
4527963662.9745,-13.43324670751252,0.0,-2.4346362742420253,0.0
4527978662.974,-13.431120941164206,0.0,-2.3956659945297694,0.0
4527993662.9735,-13.426931592649092,0.0,-2.4648695669120673,0.0
4528008662.973,-13.422997097467956,0.0,-2.436607108266172,0.0
4528023662.9725,-13.42029710623576,0.0,-2.5097290278217734,0.0
4528038662.972,-13.431662734167208,0.0,-2.4430982213900516,0.0
4528053662.9715,-13.422701452888921,0.0,-2.449831408125237,0.0
4528068662.971,-13.423450227212118,0.0,-2.4597602233161164,0.0
4528083662.9705,-13.433928454156671,0.0,-2.4455132137029616,0.0
4528098662.97,-13.427222970953236,0.0,-2.4044483445822658,0.0
4528113662.9695,-13.432440073184441,0.0,-2.462220930176288,0.0
4528128662.969,-13.432865970500396,0.0,-2.4464923484032246,0.0
4528143662.9685,-13.436448535506463,0.0,-2.438262402218805,0.0
4528158662.968,-13.43519222100429,0.0,-2.508396937508736,0.0
4528173662.9675,-13.421241449602237,0.0,-2.459521399003446,0.0
4528188662.967,-13.422554680131842,0.0,-2.483568641035944,0.0
4528203662.9665,-13.430707851050645,0.0,-2.435224413271709,0.0
4528218662.966,-13.422998307232723,0.0,-2.4397018484540904,0.0
4528233662.9655,-13.416730644052633,0.0,-2.493376124882284,0.0
4528248662.965,-13.437144615197143,0.0,-2.437120852872852,0.0
4528263662.9645,-13.42774873627577,0.0,-2.423130143916009,0.0
4528278662.964,-13.423118566624495,0.0,-2.4866890185722674,0.0
4528293662.9635,-13.424866223963486,0.0,-2.474810458422232,0.0
4528308662.963,-13.427699641789403,0.0,-2.4367690001962448,0.0
4528323662.9625,-13.417804187672598,0.0,-2.40023700974587,0.0
4528338662.962,-13.425708620850978,0.0,-2.4382132276325206,0.0
4528353662.9615,-13.432239814733048,0.0,-2.4479951462235037,0.0
4528368662.961,-13.419611426517617,0.0,-2.457967051919927,0.0
4528383662.9605,-13.42647359793685,0.0,-2.5263215057164152,0.0
4528398662.96,-13.418169293477762,0.0,-2.516917618278631,0.0
4528413662.9595,-13.428305981364721,0.0,-2.483404093615198,0.0
4528428662.959,-13.42006095109198,0.0,-2.513053445989423,0.0
4528443662.9585,-13.433744512994663,0.0,-2.540138278086185,0.0
4528458662.958,-13.427678757750371,0.0,-2.53391500079585,0.0
4528473662.9575,-13.427024204676028,0.0,-2.5164569911540955,0.0
4528488662.957,-13.425679829164448,0.0,-2.5123306928015747,0.0
4528503662.9565,-13.431390868146531,0.0,-2.5245922731626633,0.0
4528518662.956,-13.428752911531117,0.0,-2.5058580944740245,0.0
4528533662.9555,-13.425536083352341,0.0,-2.476579629432533,0.0
4528548662.955,-13.428640556756395,0.0,-2.508712105653271,0.0
4528563662.9545,-13.42654418180617,0.0,-2.5943771372042486,0.0
4528578662.954,-13.418898726158538,0.0,-2.5607527950330145,0.0
4528593662.9535,-13.431795973110622,0.0,-2.6230317392975677,0.0
4528608662.953,-13.421375499881165,0.0,-2.519676664527409,0.0
4528623662.9525,-13.420285953592188,0.0,-2.4942505122907908,0.0
4528638662.952,-13.43960244415679,0.0,-2.5596254894593296,0.0
4528653662.9515,-13.432362449903954,0.0,-2.536723227861551,0.0
4528668662.951,-13.433879379879928,0.0,-2.5518120229181873,0.0
4528683662.9505,-13.428321917802975,0.0,-2.5116389524524387,0.0
4528698662.95,-13.425159370859514,0.0,-2.531987521271661,0.0
4528713662.9495,-13.430224306001147,0.0,-2.5568513771534818,0.0
4528728662.949,-13.43052990747987,0.0,-2.5826383340820436,0.0
4528743662.9485,-13.425312089867134,0.0,-2.5559487588443988,0.0
4528758662.948,-13.436977274306642,0.0,-2.511647475507633,0.0
4528773662.9475,-13.429118601995306,0.0,-2.4897426837267442,0.0
4528788662.947,-13.42297179138449,0.0,-2.571670823719023,0.0
4528803662.9465,-13.425027957678328,0.0,-2.527020213829555,0.0
4528818662.946,-13.43022022297731,0.0,-2.549617857375825,0.0
4528833662.9455,-13.428615737619191,0.0,-2.556357008496872,0.0
4528848662.945,-13.433038350266756,0.0,-2.524223306322298,0.0
4528863662.9445,-13.433035749518327,0.0,-2.510110262424672,0.0
4528878662.944,-13.422098893384335,0.0,-2.559524354615208,0.0
4528893662.9435,-13.425255609116268,0.0,-2.5501134930729434,0.0
4528908662.943,-13.423347951740784,0.0,-2.5467342159650403,0.0
4528923662.9425,-13.418820617987468,0.0,-2.5663703596732588,0.0
4528938662.942,-13.433450474371526,0.0,-2.6328298878920378,0.0
4528953662.9415,-13.438247883513641,0.0,-2.5868972619287343,0.0
4528968662.941,-13.426012999261815,0.0,-2.6004702927926613,0.0
4528983662.9405,-13.419572823960387,0.0,-2.6148906613208993,0.0
4528998662.94,-13.429778591027324,0.0,-2.5985585417111605,0.0
4529013662.9395,-13.434543183120688,0.0,-2.5941631153083495,0.0
4529028662.939,-13.42429279407207,0.0,-2.6186352670960265,0.0
4529043662.9385,-13.426291419776026,0.0,-2.5838352889015654,0.0
4529058662.938,-13.434005406725502,0.0,-2.600253126118619,0.0
4529073662.9375,-13.43154250795639,0.0,-2.641256647065131,0.0
4529088662.937,-13.419436532239981,0.0,-2.5956913000992725,0.0
4529103662.9365,-13.422488010466903,0.0,-2.575126277217145,0.0
4529118662.936,-13.422601409402883,0.0,-2.5713713792065973,0.0
4529133662.9355,-13.42985318172498,0.0,-2.5753501384631496,0.0
4529148662.935,-13.4267218316877,0.0,-2.6200362115356164,0.0
4529163662.9345,-13.419185344976245,0.0,-2.6184198163391437,0.0
4529178662.934,-13.427448431520714,0.0,-2.6624788339892165,0.0
4529193662.9335,-13.436392183539889,0.0,-2.5994207590812626,0.0
4529208662.933,-13.431040592652717,0.0,-2.6660795359399554,0.0
4529223662.9325,-13.430934458935708,0.0,-2.657947809218954,0.0
4529238662.932,-13.41908561350306,0.0,-2.670559343858634,0.0
4529253662.9315,-13.425506148271381,0.0,-2.6812450298447765,0.0
4529268662.931,-13.429865805318377,0.0,-2.669868277204476,0.0
4529283662.9305,-13.442397198546532,0.0,-2.5916199798213557,0.0
4529298662.93,-13.432900431256344,0.0,-2.6370571673000316,0.0
4529313662.9295,-13.43047533824993,0.0,-2.5484964094096787,0.0
4529328662.929,-13.431583894258905,0.0,-2.6927984175467223,0.0
4529343662.9285,-13.435970433569771,0.0,-2.6834124130234374,0.0
4529358662.928,-13.436909968468118,0.0,-2.650441359541152,0.0
4529373662.9275,-13.426610256377572,0.0,-2.6043405551213845,0.0
4529388662.927,-13.428389840312132,0.0,-2.6490872410817277,0.0
4529403662.9265,-13.424474426607238,0.0,-2.6424249959940562,0.0
4529418662.926,-13.436958307675837,0.0,-2.6627239590841945,0.0
4529433662.9255,-13.43037887907047,0.0,-2.664616633450003,0.0
4529448662.925,-13.433469111788568,0.0,-2.570045488220221,0.0
4529463662.9245,-13.430260956478318,0.0,-2.6359096318740085,0.0
4529478662.924,-13.427521075182895,0.0,-2.689275258723618,0.0
4529493662.9235,-13.426654771203275,0.0,-2.7135822396420735,0.0
4529508662.923,-13.425247045888808,0.0,-2.6599196925728195,0.0
4529523662.9225,-13.43146232582567,0.0,-2.638197507163161,0.0
4529538662.922,-13.435911059637194,0.0,-2.6909948604668497,0.0
4529553662.9215,-13.427003406714096,0.0,-2.6213196738845337,0.0
4529568662.921,-13.437680965536938,0.0,-2.67557228778643,0.0
4529583662.9205,-13.42911569153145,0.0,-2.6841315678315243,0.0
4529598662.92,-13.42192097529958,0.0,-2.6346904199508,0.0
4529613662.9195,-13.425181872728395,0.0,-2.6702674508993165,0.0
4529628662.919,-13.431357830816879,0.0,-2.7089969972184824,0.0
4529643662.9185,-13.432745884542976,0.0,-2.638936807578267,0.0
4529658662.918,-13.433624561650326,0.0,-2.6555042701089304,0.0
4529673662.9175,-13.438822419462852,0.0,-2.7436720378636132,0.0
4529688662.917,-13.42626178606781,0.0,-2.682763201846573,0.0
4529703662.9165,-13.431758527647155,0.0,-2.769913301036159,0.0
4529718662.916,-13.43515114915789,0.0,-2.6956563681862917,0.0
4529733662.9155,-13.42641737253637,0.0,-2.6804255703721602,0.0
4529748662.915,-13.431794171118359,0.0,-2.6496421977494,0.0
4529763662.9145,-13.433362853236199,0.0,-2.758203231250631,0.0
4529778662.914,-13.433205115981135,0.0,-2.647733918640863,0.0
4529793662.9135,-13.430325215969381,0.0,-2.7541359859352,0.0
4529808662.913,-13.435042326805483,0.0,-2.6848175931680376,0.0
4529823662.9125,-13.436428053279316,0.0,-2.7558145707836426,0.0
4529838662.912,-13.436966888222575,0.0,-2.695370405227458,0.0
4529853662.9115,-13.435359900381709,0.0,-2.786848918929484,0.0
4529868662.911,-13.417677002179222,0.0,-2.7248945679231946,0.0
4529883662.9105,-13.431465046184544,0.0,-2.751533604616256,0.0
4529898662.91,-13.437469117203795,0.0,-2.713400912238808,0.0
4529913662.9095,-13.432873815769273,0.0,-2.685856226096718,0.0
4529928662.909,-13.428980242195443,0.0,-2.754361737968358,0.0
4529943662.9085,-13.429513720721184,0.0,-2.7768904038969673,0.0
4529958662.908,-13.4335994940313,0.0,-2.759745582276226,0.0
4529973662.9075,-13.429020921171311,0.0,-2.746457037650407,0.0
4529988662.907,-13.433567387858329,0.0,-2.795540828789566,0.0
4530003662.9065,-13.442401169176598,0.0,-2.7562285756599074,0.0
4530018662.906,-13.431307755420349,0.0,-2.7919220632200616,0.0
4530033662.9055,-13.430639629517882,0.0,-2.7791997210978616,0.0
4530048662.905,-13.436902720240012,0.0,-2.7782181873350025,0.0
4530063662.9045,-13.427161257538005,0.0,-2.8004025761519364,0.0
4530078662.904,-13.422399590865627,0.0,-2.7348449985042134,0.0
4530093662.9035,-13.438703784047776,0.0,-2.733012355057921,0.0
4530108662.903,-13.431473846239808,0.0,-2.81969946206715,0.0
4530123662.9025,-13.42939247768848,0.0,-2.8155757926886897,0.0
4530138662.902,-13.44177809962449,0.0,-2.7312365905289546,0.0
4530153662.9015,-13.42177628942837,0.0,-2.7311980260122093,0.0
4530168662.901,-13.43121154690847,0.0,-2.7627217002666997,0.0
4530183662.9005,-13.426815829499253,0.0,-2.8132091363077105,0.0
4530198662.9,-13.440818223698514,0.0,-2.7936315338163893,0.0
4530213662.8995,-13.43145170923463,0.0,-2.777238736152975,0.0
4530228662.899,-13.429344527001252,0.0,-2.8396382520194248,0.0
4530243662.8985,-13.43695845942844,0.0,-2.7789183047141868,0.0
4530258662.898,-13.42495773957933,0.0,-2.8356655153506964,0.0
4530273662.8975,-13.429750284947556,0.0,-2.8080124174561805,0.0
4530288662.897,-13.427600101700612,0.0,-2.8373594103715125,0.0
4530303662.8965,-13.441269390456373,0.0,-2.7943976034156655,0.0
4530318662.896,-13.435997267725405,0.0,-2.9134480214953298,0.0
4530333662.8955,-13.433348887775747,0.0,-2.7995857676222724,0.0
4530348662.895,-13.439706444697697,0.0,-2.829491146760499,0.0
4530363662.8945,-13.438816741274755,0.0,-2.8402368452382603,0.0
4530378662.894,-13.43621445648356,0.0,-2.8085617938136,0.0
4530393662.8935,-13.426692535744266,0.0,-2.876731751421509,0.0
4530408662.893,-13.430024085619527,0.0,-2.860904522848514,0.0
4530423662.8925,-13.432569628065359,0.0,-2.7899852051710057,0.0
4530438662.892,-13.439462308621259,0.0,-2.8645423077234837,0.0
4530453662.8915,-13.431615235010533,0.0,-2.8596531489578263,0.0
4530468662.891,-13.437408321457362,0.0,-2.8643822458693933,0.0
4530483662.8905,-13.44272361264277,0.0,-2.814484843410003,0.0
4530498662.89,-13.429878738903886,0.0,-2.828290157037743,0.0
4530513662.8895,-13.43159872285975,0.0,-2.837074623736419,0.0
4530528662.889,-13.441564762991543,0.0,-2.7649016921170797,0.0
4530543662.8885,-13.433722513727693,0.0,-2.802508158902369,0.0
4530558662.888,-13.439209849599958,0.0,-2.814797344232278,0.0
4530573662.8875,-13.436757580683729,0.0,-2.829870818464211,0.0
4530588662.887,-13.437160269299607,0.0,-2.8585916958514126,0.0
4530603662.8865,-13.440780124302744,0.0,-2.852269941213507,0.0
4530618662.886,-13.433670069437213,0.0,-2.8817665410102795,0.0
4530633662.8855,-13.441617785218067,0.0,-2.878354404142886,0.0
4530648662.885,-13.428062047294647,0.0,-2.8276407527211727,0.0
4530663662.8845,-13.437741137678545,0.0,-2.8941510781558977,0.0
4530678662.884,-13.432772894021372,0.0,-2.8636080489217286,0.0
4530693662.8835,-13.438138305186015,0.0,-2.866746150898737,0.0
4530708662.883,-13.440681089341538,0.0,-2.8715429706289846,0.0
4530723662.8825,-13.442049166398913,0.0,-2.8644159102257527,0.0
4530738662.882,-13.438793027061337,0.0,-2.9028047965650328,0.0
4530753662.8815,-13.440109056324424,0.0,-2.946551982241045,0.0
4530768662.881,-13.432223668076897,0.0,-2.861351585507666,0.0
4530783662.8805,-13.429894655258243,0.0,-2.863041255514751,0.0
4530798662.88,-13.435667620113412,0.0,-2.9027201171275667,0.0
4530813662.8795,-13.42987926567151,0.0,-2.8765245903646948,0.0
4530828662.879,-13.431580154171339,0.0,-2.865038178841356,0.0
4530843662.8785,-13.430787968123452,0.0,-2.8966036701545557,0.0
4530858662.878,-13.429920785764962,0.0,-2.9298277057589517,0.0
4530873662.8775,-13.43817593759165,0.0,-2.925846322660602,0.0
4530888662.877,-13.430537571617405,0.0,-2.9137882398581043,0.0
4530903662.8765,-13.433865859335523,0.0,-2.8863669247106034,0.0
4530918662.876,-13.430353273998385,0.0,-2.9537331142486813,0.0
4530933662.8755,-13.431879094393462,0.0,-2.9432762593418262,0.0
4530948662.875,-13.435158634584766,0.0,-2.91207029412895,0.0
4530963662.8745,-13.428135844013074,0.0,-2.971903443784776,0.0
4530978662.874,-13.434853353933342,0.0,-2.908047950749581,0.0
4530993662.8735,-13.43524687466701,0.0,-2.95500327820376,0.0
4531008662.873,-13.437450514225784,0.0,-2.945356661461704,0.0
4531023662.8725,-13.431805949324147,0.0,-2.964072119346439,0.0
4531038662.872,-13.430478030181304,0.0,-2.9246547868881425,0.0
4531053662.8715,-13.438034554323586,0.0,-2.8939884073515767,0.0
4531068662.871,-13.437958808512661,0.0,-2.9449444909883127,0.0
4531083662.8705,-13.431856982601914,0.0,-3.004124758828152,0.0
4531098662.87,-13.436694931706354,0.0,-3.0103862096276504,0.0
4531113662.8695,-13.441535394662543,0.0,-2.9612386029581184,0.0
4531128662.869,-13.436957605445755,0.0,-2.993601733265736,0.0
4531143662.8685,-13.438085143606472,0.0,-2.953646039413432,0.0
4531158662.868,-13.432758426761161,0.0,-3.037593512520073,0.0
4531173662.8675,-13.425860765114804,0.0,-3.0068985079823074,0.0
4531188662.867,-13.437731005018476,0.0,-3.0042510933738824,0.0
4531203662.8665,-13.438507946212166,0.0,-3.012117029253402,0.0
4531218662.866,-13.435157745350137,0.0,-3.0282564173295166,0.0
4531233662.8655,-13.437004523115286,0.0,-3.008947009013507,0.0
4531248662.865,-13.440388986281981,0.0,-2.9469215514598885,0.0
4531263662.8645,-13.438232225380652,0.0,-3.096328066996629,0.0
4531278662.864,-13.432865228589137,0.0,-3.056666577624676,0.0
4531293662.8635,-13.4385164129856,0.0,-2.974912437552083,0.0
4531308662.863,-13.426597906787245,0.0,-2.97871761390388,0.0
4531323662.8625,-13.433370845697592,0.0,-3.020228225971979,0.0
4531338662.862,-13.433455724212777,0.0,-3.0083476752499108,0.0
4531353662.8615,-13.427113723248016,0.0,-2.964105036572308,0.0
4531368662.861,-13.439447221559423,0.0,-3.001602631079542,0.0
4531383662.8605,-13.438179107100998,0.0,-3.0120613109964185,0.0
4531398662.86,-13.43455552925005,0.0,-2.989475016820804,0.0
4531413662.8595,-13.440862610482853,0.0,-3.0375960244118936,0.0
4531428662.859,-13.439586849267009,0.0,-3.1430137788833834,0.0
4531443662.8585,-13.437562316689009,0.0,-3.019711322055205,0.0
4531458662.858,-13.439319100957723,0.0,-2.941232676939451,0.0
4531473662.8575,-13.43357638952236,0.0,-3.0215921918936464,0.0
4531488662.857,-13.43899648117904,0.0,-2.995593651029683,0.0
4531503662.8565,-13.45075781427034,0.0,-3.1137377710997853,0.0
4531518662.856,-13.441611405112802,0.0,-3.0612141911760262,0.0
4531533662.8555,-13.434858278125969,0.0,-3.0055649884137154,0.0
4531548662.855,-13.434388569043618,0.0,-3.0492920353102644,0.0
4531563662.8545,-13.435746170286615,0.0,-3.0617675333271674,0.0
4531578662.854,-13.432332842691224,0.0,-3.069903308455716,0.0
4531593662.8535,-13.439203910367443,0.0,-3.079110177685061,0.0
4531608662.853,-13.428382804457858,0.0,-3.0591569183270297,0.0
4531623662.8525,-13.43703946684705,0.0,-3.074681789950083,0.0
4531638662.852,-13.44061704161063,0.0,-3.1301425625700503,0.0
4531653662.8515,-13.437754665012582,0.0,-3.116634035272785,0.0
4531668662.851,-13.444401009348933,0.0,-3.0875179284854832,0.0
4531683662.8505,-13.439985174163427,0.0,-3.106331572100523,0.0
4531698662.85,-13.439250839668041,0.0,-3.1324897716254476,0.0
4531713662.8495,-13.43417076928975,0.0,-3.0823174113016973,0.0
4531728662.849,-13.427381085055979,0.0,-3.068348965692428,0.0
4531743662.8485,-13.438051212023236,0.0,-3.1421949735222006,0.0
4531758662.848,-13.430258963876376,0.0,-3.1136254598985698,0.0
4531773662.8475,-13.442838659286998,0.0,-3.1504995416320156,0.0
4531788662.847,-13.442319143249843,0.0,-3.1240466159016433,0.0
4531803662.8465,-13.436622283139528,0.0,-3.094328603021077,0.0
4531818662.846,-13.44542492596532,0.0,-3.1348587403381787,0.0
4531833662.8455,-13.44080356759532,0.0,-3.1071432838889326,0.0
4531848662.845,-13.44535225685747,0.0,-3.1892266344082887,0.0
4531863662.8445,-13.444025586517023,0.0,-3.147376842314051,0.0
4531878662.844,-13.447209180167103,0.0,-3.158802608864396,0.0
