Frequency,S11,S11-Q,S11-Phase,S11-Phase-Q
4527198663.0,-13.42989630283806,0.0,-2.6418329360576474,0.0
4527213662.9995,-13.429644792963044,0.0,-2.5830182833409707,0.0
4527228662.999,-13.424314188666928,0.0,-2.5840885013267907,0.0
4527243662.9985,-13.435312324848487,0.0,-2.593699685664504,0.0
4527258662.998,-13.425158371002778,0.0,-2.573757051925197,0.0
4527273662.9975,-13.436517001634638,0.0,-2.639037524562233,0.0
4527288662.997,-13.417551599213603,0.0,-2.6019499291588493,0.0
4527303662.9965,-13.428031764123547,0.0,-2.5833925645003277,0.0
4527318662.996,-13.427742217115604,0.0,-2.5929202197598005,0.0
4527333662.9955,-13.427083173940947,0.0,-2.631049478063695,0.0
4527348662.995,-13.427476039200252,0.0,-2.587340750149557,0.0
4527363662.9945,-13.43318210288724,0.0,-2.5549946743182645,0.0
4527378662.994,-13.425029628125474,0.0,-2.5831936341040387,0.0
4527393662.9935,-13.429350240767242,0.0,-2.5961933255445313,0.0
4527408662.993,-13.434146229774306,0.0,-2.62500514552412,0.0
4527423662.9925,-13.421792924433518,0.0,-2.616994795333723,0.0
4527438662.992,-13.428795100419332,0.0,-2.6290659530002074,0.0
4527453662.9915,-13.42217582723443,0.0,-2.5856392156554233,0.0
4527468662.991,-13.430562412340983,0.0,-2.663746427795567,0.0
4527483662.9905,-13.421061167740936,0.0,-2.65238643673821,0.0
4527498662.99,-13.430556467181166,0.0,-2.6250160330811507,0.0
4527513662.9895,-13.42835332673258,0.0,-2.5822433375425997,0.0
4527528662.989,-13.436369638336384,0.0,-2.5975820762823627,0.0
4527543662.9885,-13.425777369311396,0.0,-2.719070379737865,0.0
4527558662.988,-13.431443537206002,0.0,-2.606075259373052,0.0
4527573662.9875,-13.430216558122547,0.0,-2.6671622641246415,0.0
4527588662.987,-13.430579565381844,0.0,-2.6570312156585074,0.0
4527603662.9865,-13.41823746373684,0.0,-2.7237015694472655,0.0
4527618662.986,-13.426368277121632,0.0,-2.638534085213603,0.0
4527633662.9855,-13.430943734475505,0.0,-2.696146193503731,0.0
4527648662.985,-13.425468626348394,0.0,-2.6876806807331524,0.0
4527663662.9845,-13.4309981581319,0.0,-2.6566873325885223,0.0
4527678662.984,-13.430799148817176,0.0,-2.6792494311855863,0.0
4527693662.9835,-13.432095450594106,0.0,-2.7504333294240135,0.0
4527708662.983,-13.42224130946777,0.0,-2.695052275288332,0.0
4527723662.9825,-13.42821344641943,0.0,-2.6506770451548594,0.0
4527738662.982,-13.417227656209942,0.0,-2.6511888531743404,0.0
4527753662.9815,-13.42633781489614,0.0,-2.6888909925760642,0.0
4527768662.981,-13.431494014448756,0.0,-2.674386795335694,0.0
4527783662.9805,-13.428494389998134,0.0,-2.6963191565934026,0.0
4527798662.98,-13.430633856598588,0.0,-2.6943282708254395,0.0
4527813662.9795,-13.43085148952477,0.0,-2.690209390407606,0.0
4527828662.979,-13.425048654595207,0.0,-2.710388414591734,0.0
4527843662.9785,-13.431992176683526,0.0,-2.6654071488057367,0.0
4527858662.978,-13.43094839487046,0.0,-2.7169939845910056,0.0
4527873662.9775,-13.437529490675358,0.0,-2.6621452369930347,0.0
4527888662.977,-13.435150506143746,0.0,-2.7178037420472045,0.0
4527903662.9765,-13.427401199022842,0.0,-2.695451175935717,0.0
4527918662.976,-13.430287947787276,0.0,-2.7702023282093013,0.0
4527933662.9755,-13.429876075901666,0.0,-2.720949011488999,0.0
4527948662.975,-13.428277980570337,0.0,-2.7012531966907205,0.0
4527963662.9745,-13.425429580092407,0.0,-2.7547742823127312,0.0
4527978662.974,-13.426990720880678,0.0,-2.7546534238337888,0.0
4527993662.9735,-13.427883345234617,0.0,-2.772115935026465,0.0
4528008662.973,-13.426053747715272,0.0,-2.6624981223521127,0.0
4528023662.9725,-13.422619506447912,0.0,-2.787751411021313,0.0
4528038662.972,-13.423831908134957,0.0,-2.7219144953667884,0.0
4528053662.9715,-13.428901854740843,0.0,-2.7009734921828725,0.0
4528068662.971,-13.431522571146875,0.0,-2.794713067295945,0.0
4528083662.9705,-13.431004949168575,0.0,-2.7229617669755584,0.0
4528098662.97,-13.425263857118978,0.0,-2.6989506389212305,0.0
4528113662.9695,-13.429192924048209,0.0,-2.7692191124621863,0.0
4528128662.969,-13.424598947785999,0.0,-2.7583720690350035,0.0
4528143662.9685,-13.431461059252925,0.0,-2.757803629328294,0.0
4528158662.968,-13.427462929280935,0.0,-2.6680603896179305,0.0
4528173662.9675,-13.430209145343001,0.0,-2.71608642803462,0.0
4528188662.967,-13.42061785720852,0.0,-2.750490667604217,0.0
4528203662.9665,-13.435713804630574,0.0,-2.7176027644694227,0.0
4528218662.966,-13.429015677501221,0.0,-2.8004907458955404,0.0
4528233662.9655,-13.430383921109039,0.0,-2.781955754729804,0.0
4528248662.965,-13.427514726687647,0.0,-2.7586774219543746,0.0
4528263662.9645,-13.43274005445486,0.0,-2.794409167064753,0.0
4528278662.964,-13.428989886506177,0.0,-2.7864693779876766,0.0
4528293662.9635,-13.423836861103487,0.0,-2.8157104354400992,0.0
4528308662.963,-13.430788285700903,0.0,-2.77039366998231,0.0
4528323662.9625,-13.42496261778482,0.0,-2.7700420815418774,0.0
4528338662.962,-13.43410563697526,0.0,-2.821159607168633,0.0
4528353662.9615,-13.427128354006094,0.0,-2.7935568227925844,0.0
4528368662.961,-13.422793313472074,0.0,-2.8278218112085827,0.0
4528383662.9605,-13.42223584822933,0.0,-2.822050837128657,0.0
4528398662.96,-13.427096798428044,0.0,-2.81228859540607,0.0
4528413662.9595,-13.432317588889578,0.0,-2.776322500479577,0.0
4528428662.959,-13.42132346634115,0.0,-2.7675694694913786,0.0
4528443662.9585,-13.432519175441941,0.0,-2.7623369428103075,0.0
4528458662.958,-13.427526949281852,0.0,-2.7934326000254885,0.0
4528473662.9575,-13.422948235101579,0.0,-2.780696389142571,0.0
4528488662.957,-13.418292842689537,0.0,-2.8386637881224606,0.0
4528503662.9565,-13.430403366256717,0.0,-2.8206219798516594,0.0
4528518662.956,-13.418553592740771,0.0,-2.7906817429412505,0.0
4528533662.9555,-13.426779413530166,0.0,-2.850555323263831,0.0
4528548662.955,-13.424488661233383,0.0,-2.8700059069428105,0.0
4528563662.9545,-13.430170424003435,0.0,-2.8223432772539203,0.0
4528578662.954,-13.428849837821058,0.0,-2.8516809246478023,0.0
4528593662.9535,-13.434543279135474,0.0,-2.8220506937158385,0.0
4528608662.953,-13.430781330056671,0.0,-2.802691659512621,0.0
4528623662.9525,-13.42933462915829,0.0,-2.8463123963395396,0.0
4528638662.952,-13.433738728095213,0.0,-2.8105399632110664,0.0
4528653662.9515,-13.432045753490709,0.0,-2.861091369046215,0.0
4528668662.951,-13.427538978250046,0.0,-2.901709669960058,0.0
4528683662.9505,-13.43441418290565,0.0,-2.852592228648256,0.0
4528698662.95,-13.430978187360925,0.0,-2.8186729140172315,0.0
4528713662.9495,-13.427172553772333,0.0,-2.858413882090853,0.0
4528728662.949,-13.426582149098918,0.0,-2.830655351464889,0.0
4528743662.9485,-13.433136407471856,0.0,-2.8830864279843653,0.0
4528758662.948,-13.434019824867411,0.0,-2.8297488384911,0.0
4528773662.9475,-13.435223471492858,0.0,-2.845093517479026,0.0
4528788662.947,-13.43700212268871,0.0,-2.8050332289295903,0.0
4528803662.9465,-13.422046896987725,0.0,-2.8742051522974026,0.0
4528818662.946,-13.435966949202207,0.0,-2.838198073124679,0.0
4528833662.9455,-13.43742797199161,0.0,-2.8607176641931207,0.0
4528848662.945,-13.432352481903944,0.0,-2.9218699022885355,0.0
4528863662.9445,-13.424583225483529,0.0,-2.9023348422057227,0.0
4528878662.944,-13.428905144969054,0.0,-2.860936228758416,0.0
4528893662.9435,-13.423635463353758,0.0,-2.9231095379892027,0.0
4528908662.943,-13.430423378577734,0.0,-2.8896127374259066,0.0
4528923662.9425,-13.423980715626449,0.0,-2.9066915543832885,0.0
4528938662.942,-13.425462455864386,0.0,-2.9206483056024495,0.0
4528953662.9415,-13.431357069570705,0.0,-2.9052943090492898,0.0
4528968662.941,-13.432629812985066,0.0,-2.949427525266922,0.0
4528983662.9405,-13.419181630690264,0.0,-2.9295735141015466,0.0
4528998662.94,-13.43681793399642,0.0,-2.953462827281484,0.0
4529013662.9395,-13.431988930871501,0.0,-2.9090011568767737,0.0
4529028662.939,-13.43318508980363,0.0,-2.911419950129743,0.0
4529043662.9385,-13.43079049398073,0.0,-2.919467824254811,0.0
4529058662.938,-13.427570310499778,0.0,-2.984097412820624,0.0
4529073662.9375,-13.432250771534449,0.0,-2.914616344053452,0.0
4529088662.937,-13.429189071424245,0.0,-2.961662803849192,0.0
4529103662.9365,-13.426452931594483,0.0,-2.9437961186038106,0.0
4529118662.936,-13.435786890440294,0.0,-2.934590519561251,0.0
4529133662.9355,-13.430830827708549,0.0,-2.935400291406874,0.0
4529148662.935,-13.431983889309704,0.0,-2.962696854167503,0.0
4529163662.9345,-13.434881257684957,0.0,-2.9074076804199773,0.0
4529178662.934,-13.421030995452233,0.0,-2.957913269814667,0.0
4529193662.9335,-13.428582186447127,0.0,-2.932050040881009,0.0
4529208662.933,-13.435761057065621,0.0,-2.9342960608113433,0.0
4529223662.9325,-13.427598184687447,0.0,-2.989691116407018,0.0
4529238662.932,-13.431354801670405,0.0,-2.8904135960221446,0.0
4529253662.9315,-13.423614485151806,0.0,-2.9670289194645645,0.0
4529268662.931,-13.427974339037617,0.0,-3.001240136329755,0.0
4529283662.9305,-13.422490256565965,0.0,-2.9773726822855098,0.0
4529298662.93,-13.416493656662315,0.0,-2.971501696389195,0.0
4529313662.9295,-13.42889159819308,0.0,-2.959701876598136,0.0
4529328662.929,-13.4303239410853,0.0,-2.960654708953739,0.0
4529343662.9285,-13.427591527353869,0.0,-2.9372526040863836,0.0
4529358662.928,-13.423735970430617,0.0,-2.957154082968972,0.0
4529373662.9275,-13.42997026022735,0.0,-3.003139685527795,0.0
4529388662.927,-13.430913459232192,0.0,-2.955354890230759,0.0
4529403662.9265,-13.42825416851113,0.0,-2.960713020539795,0.0
4529418662.926,-13.430875122768857,0.0,-3.0099238310263194,0.0
4529433662.9255,-13.42830969847263,0.0,-2.984610128605009,0.0
4529448662.925,-13.430662714483601,0.0,-2.995653030136999,0.0
4529463662.9245,-13.43348126489781,0.0,-2.99713882654539,0.0
4529478662.924,-13.425845421987127,0.0,-2.9646598425712454,0.0
4529493662.9235,-13.426805321231157,0.0,-3.030144669936556,0.0
4529508662.923,-13.436572833147789,0.0,-3.122468730210296,0.0
4529523662.9225,-13.43124614914625,0.0,-2.995975535780701,0.0
4529538662.922,-13.437329293385387,0.0,-3.039907241923818,0.0
4529553662.9215,-13.43749588149672,0.0,-3.0277677724967758,0.0
4529568662.921,-13.431008531402828,0.0,-2.980561078804673,0.0
4529583662.9205,-13.432074103493502,0.0,-3.0234063772325364,0.0
4529598662.92,-13.435912189617571,0.0,-3.018547193535383,0.0
4529613662.9195,-13.43110677495046,0.0,-3.0491570899730736,0.0
4529628662.919,-13.43283581617871,0.0,-3.0009157183158957,0.0
4529643662.9185,-13.425664638496052,0.0,-3.1153247481611746,0.0
4529658662.918,-13.43208505744451,0.0,-3.057379574831565,0.0
4529673662.9175,-13.434689998518223,0.0,-3.068710155971551,0.0
4529688662.917,-13.4418484867068,0.0,-3.0398642219370644,0.0
4529703662.9165,-13.438782368052921,0.0,-3.04235997661998,0.0
4529718662.916,-13.436454310712417,0.0,-3.0613692710887124,0.0
4529733662.9155,-13.439908980989802,0.0,-3.0739374608541854,0.0
4529748662.915,-13.432355941578315,0.0,-3.0241192040737976,0.0
4529763662.9145,-13.427438677129892,0.0,-3.0526168853909126,0.0
4529778662.914,-13.43606900750772,0.0,-3.0599437448867484,0.0
4529793662.9135,-13.43750205977545,0.0,-3.1485913311881952,0.0
4529808662.913,-13.434969015899936,0.0,-3.093616850602826,0.0
4529823662.9125,-13.426466876088249,0.0,-3.1186950341046735,0.0
4529838662.912,-13.431272115369321,0.0,-3.104041154896745,0.0
4529853662.9115,-13.435600756487222,0.0,-3.1111066799358054,0.0
4529868662.911,-13.442046772374054,0.0,-3.0658353302272885,0.0
4529883662.9105,-13.422487129255785,0.0,-3.0562594306139457,0.0
4529898662.91,-13.427282228830537,0.0,-3.061121190740938,0.0
4529913662.9095,-13.432968865511263,0.0,-3.1191366188219223,0.0
4529928662.909,-13.431482052957849,0.0,-3.176097387263499,0.0
4529943662.9085,-13.435749864966699,0.0,-3.1080069609205565,0.0
4529958662.908,-13.434033850877455,0.0,-3.089085646099555,0.0
4529973662.9075,-13.44068869420025,0.0,-3.0527336887045418,0.0
4529988662.907,-13.42741756047561,0.0,-3.1195234690675426,0.0
4530003662.9065,-13.438790692129398,0.0,-3.1355997402307674,0.0
4530018662.906,-13.433310845520339,0.0,-3.041655301505424,0.0
4530033662.9055,-13.431858068675904,0.0,-3.196853437546985,0.0
4530048662.905,-13.427462537667065,0.0,-3.139944494586729,0.0
4530063662.9045,-13.43072524861427,0.0,-3.1169829204389354,0.0
4530078662.904,-13.43379854115679,0.0,-3.167073864807255,0.0
4530093662.9035,-13.438971867360321,0.0,-3.196743528052805,0.0
4530108662.903,-13.43495900840747,0.0,-3.12182939466051,0.0
4530123662.9025,-13.438933397088178,0.0,-3.2142305268089597,0.0
4530138662.902,-13.43286120097438,0.0,-3.1505949712734926,0.0
4530153662.9015,-13.43122215262121,0.0,-3.1686359051219415,0.0
4530168662.901,-13.436028951970576,0.0,-3.16301354246902,0.0
4530183662.9005,-13.434618699128949,0.0,-3.184789713328891,0.0
4530198662.9,-13.43453859356866,0.0,-3.1547983959712753,0.0
4530213662.8995,-13.431691200795761,0.0,-3.1809562472005517,0.0
4530228662.899,-13.439306811329093,0.0,-3.21972547060369,0.0
4530243662.8985,-13.44027420442088,0.0,-3.151037537744951,0.0
4530258662.898,-13.444053999814907,0.0,-3.1824628255765286,0.0
4530273662.8975,-13.439791087490995,0.0,-3.17292195672235,0.0
4530288662.897,-13.434235222238906,0.0,-3.220659405087899,0.0
4530303662.8965,-13.434863008007607,0.0,-3.1785693144765625,0.0
4530318662.896,-13.433172570498602,0.0,-3.1796525272365512,0.0
4530333662.8955,-13.43824071912659,0.0,-3.2023836064254665,0.0
4530348662.895,-13.43702440852422,0.0,-3.2210823696193676,0.0
4530363662.8945,-13.436824565401714,0.0,-3.2870270377411686,0.0
4530378662.894,-13.429131069881109,0.0,-3.2015337411010485,0.0
4530393662.8935,-13.428868630614195,0.0,-3.2419466546570117,0.0
4530408662.893,-13.429151493708787,0.0,-3.219619682714651,0.0
4530423662.8925,-13.43498185161411,0.0,-3.210427715863231,0.0
4530438662.892,-13.436046785553053,0.0,-3.2423591290800804,0.0
4530453662.8915,-13.433578076439348,0.0,-3.2364929328787486,0.0
4530468662.891,-13.436897779770607,0.0,-3.218478138589826,0.0
4530483662.8905,-13.434953185080431,0.0,-3.2598339579629285,0.0
4530498662.89,-13.42497671123072,0.0,-3.30008649773738,0.0
4530513662.8895,-13.438476320969237,0.0,-3.263213028502064,0.0
4530528662.889,-13.438046755303654,0.0,-3.2970294913748095,0.0
4530543662.8885,-13.438005882402786,0.0,-3.3101039265878796,0.0
4530558662.888,-13.440066532335152,0.0,-3.206496493632472,0.0
4530573662.8875,-13.437062478691272,0.0,-3.262863962978214,0.0
4530588662.887,-13.434080861205995,0.0,-3.2909396610203805,0.0
4530603662.8865,-13.435284843120535,0.0,-3.297113142344512,0.0
4530618662.886,-13.436322361022931,0.0,-3.2781418690777673,0.0
4530633662.8855,-13.44080891998848,0.0,-3.3139039704338793,0.0
4530648662.885,-13.440444412577463,0.0,-3.287118343071779,0.0
4530663662.8845,-13.44244150703917,0.0,-3.3192287015232713,0.0
4530678662.884,-13.43641855723211,0.0,-3.3050344826948965,0.0
4530693662.8835,-13.432347036892756,0.0,-3.2886289430957283,0.0
4530708662.883,-13.436559522926736,0.0,-3.302230205422366,0.0
4530723662.8825,-13.442854195673625,0.0,-3.3153247902256413,0.0
4530738662.882,-13.442284922905944,0.0,-3.271501298071844,0.0
4530753662.8815,-13.444975443565175,0.0,-3.332312616484021,0.0
4530768662.881,-13.44217773171078,0.0,-3.2886717437668587,0.0
4530783662.8805,-13.439444404335863,0.0,-3.3171453990796027,0.0
4530798662.88,-13.441762731516757,0.0,-3.285053401505781,0.0
4530813662.8795,-13.434020940375515,0.0,-3.304148260161081,0.0
4530828662.879,-13.433768562467588,0.0,-3.32637763965984,0.0
4530843662.8785,-13.437305153894323,0.0,-3.4022284555000706,0.0
4530858662.878,-13.439863599269637,0.0,-3.4024483562825423,0.0
4530873662.8775,-13.441871648654919,0.0,-3.398155659627695,0.0
4530888662.877,-13.441961449201418,0.0,-3.3353480602765577,0.0
4530903662.8765,-13.43782872135553,0.0,-3.3461775409134944,0.0
4530918662.876,-13.437977546538011,0.0,-3.356029612305566,0.0
4530933662.8755,-13.436813977583345,0.0,-3.3040167475068993,0.0
4530948662.875,-13.435883618034431,0.0,-3.352135412316501,0.0
4530963662.8745,-13.438204337253541,0.0,-3.4156066080967986,0.0
4530978662.874,-13.444544447183155,0.0,-3.3967417764251717,0.0
4530993662.8735,-13.434098024782086,0.0,-3.3987875447381923,0.0
4531008662.873,-13.443296400447156,0.0,-3.381410047218106,0.0
4531023662.8725,-13.435167456573758,0.0,-3.3262725103793387,0.0
4531038662.872,-13.436314264037929,0.0,-3.3923554128545614,0.0
4531053662.8715,-13.43721401255425,0.0,-3.396389462390349,0.0
4531068662.871,-13.434657362173814,0.0,-3.4330997472805955,0.0
4531083662.8705,-13.433896034096552,0.0,-3.400762131347196,0.0
4531098662.87,-13.439557314536994,0.0,-3.401672009760444,0.0
4531113662.8695,-13.436164580279968,0.0,-3.3400094013522788,0.0
4531128662.869,-13.443008907888647,0.0,-3.4067327861430354,0.0
4531143662.8685,-13.437790257338564,0.0,-3.457675727881464,0.0
4531158662.868,-13.442708993253445,0.0,-3.404078412907055,0.0
4531173662.8675,-13.443696104227683,0.0,-3.3619145946806754,0.0
4531188662.867,-13.42856738271652,0.0,-3.4005045377573193,0.0
4531203662.8665,-13.434352737373793,0.0,-3.4414803195079138,0.0
4531218662.866,-13.443142422056237,0.0,-3.379785026360664,0.0
4531233662.8655,-13.43276016534374,0.0,-3.4272356070076615,0.0
4531248662.865,-13.433267902429604,0.0,-3.510660754463903,0.0
4531263662.8645,-13.446521664450872,0.0,-3.4843120532953398,0.0
4531278662.864,-13.441424043757095,0.0,-3.473075777565478,0.0
4531293662.8635,-13.441001735182107,0.0,-3.486439675894156,0.0
4531308662.863,-13.438206344065058,0.0,-3.4900987811168744,0.0
4531323662.8625,-13.445865743771916,0.0,-3.4214535662934766,0.0
4531338662.862,-13.442883966949676,0.0,-3.4571097186617803,0.0
4531353662.8615,-13.438109661764102,0.0,-3.4704174956474576,0.0
4531368662.861,-13.439787135467334,0.0,-3.471538475389389,0.0
4531383662.8605,-13.440019086733379,0.0,-3.5156734768544093,0.0
4531398662.86,-13.442734641714644,0.0,-3.5016015804003318,0.0
4531413662.8595,-13.436201485026338,0.0,-3.4719437771445985,0.0
4531428662.859,-13.439397255229654,0.0,-3.457506014192936,0.0
4531443662.8585,-13.437096530118133,0.0,-3.505600708516982,0.0
4531458662.858,-13.435401128177059,0.0,-3.51467977758107,0.0
4531473662.8575,-13.443793197712793,0.0,-3.507222654243063,0.0
4531488662.857,-13.442053808594485,0.0,-3.4972442065793885,0.0
4531503662.8565,-13.440248235622274,0.0,-3.553053810476209,0.0
4531518662.856,-13.439928822026246,0.0,-3.5190253459830463,0.0
4531533662.8555,-13.446250223587251,0.0,-3.4983225989365674,0.0
4531548662.855,-13.437482317143669,0.0,-3.5371843100372433,0.0
4531563662.8545,-13.44529735725911,0.0,-3.5173092805300237,0.0
4531578662.854,-13.436574521422067,0.0,-3.5191057460384676,0.0
4531593662.8535,-13.451870139944862,0.0,-3.5070675906815696,0.0
4531608662.853,-13.435328686406688,0.0,-3.582689482802481,0.0
4531623662.8525,-13.451197577729143,0.0,-3.5801391352071965,0.0
4531638662.852,-13.445517240935402,0.0,-3.576440075523896,0.0
4531653662.8515,-13.44251129000768,0.0,-3.5506691658600698,0.0
4531668662.851,-13.445647891911495,0.0,-3.5461397490518154,0.0
4531683662.8505,-13.436191558874043,0.0,-3.614738071269045,0.0
4531698662.85,-13.450598838872995,0.0,-3.5822418419799966,0.0
4531713662.8495,-13.444673798374254,0.0,-3.577962422175045,0.0
4531728662.849,-13.444591962787843,0.0,-3.6236109929547147,0.0
4531743662.8485,-13.443016854723515,0.0,-3.6040142840487595,0.0
4531758662.848,-13.44526951234508,0.0,-3.6125364497527754,0.0
4531773662.8475,-13.450144413782958,0.0,-3.6416698039756352,0.0
4531788662.847,-13.4381073702699,0.0,-3.5735249159870426,0.0
4531803662.8465,-13.444312786294692,0.0,-3.577175894409133,0.0
4531818662.846,-13.447305499578885,0.0,-3.6413376806145568,0.0
4531833662.8455,-13.446915768191033,0.0,-3.546225509333488,0.0
4531848662.845,-13.44020812724988,0.0,-3.6165827168022644,0.0
4531863662.8445,-13.443063700045956,0.0,-3.655617161817145,0.0
4531878662.844,-13.44051898282886,0.0,-3.6551972250555558,0.0
