Frequency,S11,S11-Q,S11-Phase,S11-Phase-Q
4527198663.0,-13.43005109461104,0.0,-2.5656124807188223,0.0
4527213662.9995,-13.42337360628359,0.0,-2.5231755331269357,0.0
4527228662.999,-13.428495189814658,0.0,-2.5493125388089375,0.0
4527243662.9985,-13.430855917588877,0.0,-2.5162827172054514,0.0
4527258662.998,-13.422956067741348,0.0,-2.5099775141229808,0.0
4527273662.9975,-13.426747469860981,0.0,-2.4876846940953654,0.0
4527288662.997,-13.426479446834914,0.0,-2.567881072355029,0.0
4527303662.9965,-13.422503467538176,0.0,-2.615391052430675,0.0
4527318662.996,-13.432148052834993,0.0,-2.5664587965643393,0.0
4527333662.9955,-13.421572104307295,0.0,-2.5460494733625514,0.0
4527348662.995,-13.419398228289708,0.0,-2.5335825813111934,0.0
4527363662.9945,-13.427119089278115,0.0,-2.6000266805714753,0.0
4527378662.994,-13.42618953249622,0.0,-2.576916715791716,0.0
4527393662.9935,-13.434859307763931,0.0,-2.522184497726052,0.0
4527408662.993,-13.427600332468073,0.0,-2.5884873281896628,0.0
4527423662.9925,-13.436035369294881,0.0,-2.5352377613539803,0.0
4527438662.992,-13.42598901337799,0.0,-2.56068398125436,0.0
4527453662.9915,-13.43399201251853,0.0,-2.5757158374607596,0.0
4527468662.991,-13.428945772603928,0.0,-2.5700840071255504,0.0
4527483662.9905,-13.431005501389501,0.0,-2.561115834998195,0.0
4527498662.99,-13.434970543795295,0.0,-2.658820246166679,0.0
4527513662.9895,-13.431765507412077,0.0,-2.578274763972963,0.0
4527528662.989,-13.4340228421172,0.0,-2.546995416166585,0.0
4527543662.9885,-13.426902432577737,0.0,-2.5313321788869887,0.0
4527558662.988,-13.425097064138324,0.0,-2.53050253117463,0.0
4527573662.9875,-13.425904379812346,0.0,-2.6236179118114373,0.0
4527588662.987,-13.4323530017772,0.0,-2.579662842744781,0.0
4527603662.9865,-13.435646259181626,0.0,-2.6071760343706654,0.0
4527618662.986,-13.431437287928045,0.0,-2.5744835130356876,0.0
4527633662.9855,-13.430552352084455,0.0,-2.5710619997465303,0.0
4527648662.985,-13.42168992905141,0.0,-2.562303997885193,0.0
4527663662.9845,-13.436586222723514,0.0,-2.6438933253700903,0.0
4527678662.984,-13.423201378032521,0.0,-2.5861914105955583,0.0
4527693662.9835,-13.420112967820364,0.0,-2.606215488307063,0.0
4527708662.983,-13.42243035019747,0.0,-2.574834341694178,0.0
4527723662.9825,-13.4244061527372,0.0,-2.6161295829926576,0.0
4527738662.982,-13.429315374994196,0.0,-2.5955844091829547,0.0
4527753662.9815,-13.421860811648362,0.0,-2.6582829413665556,0.0
4527768662.981,-13.422004540571546,0.0,-2.6511459704676397,0.0
4527783662.9805,-13.435562044866082,0.0,-2.649133384826475,0.0
4527798662.98,-13.423683609802202,0.0,-2.6317003408275,0.0
4527813662.9795,-13.42517304864451,0.0,-2.6516377182872435,0.0
4527828662.979,-13.428420511653382,0.0,-2.611456278454141,0.0
4527843662.9785,-13.419683614490655,0.0,-2.592845923042611,0.0
4527858662.978,-13.424868811680543,0.0,-2.6417200368384286,0.0
4527873662.9775,-13.431855784889228,0.0,-2.672531694718524,0.0
4527888662.977,-13.4175991903523,0.0,-2.659807908931126,0.0
4527903662.9765,-13.432736576361874,0.0,-2.654023259415328,0.0
4527918662.976,-13.42457157299698,0.0,-2.6469104211829197,0.0
4527933662.9755,-13.428485618445139,0.0,-2.620437949450183,0.0
4527948662.975,-13.4236198471761,0.0,-2.6648496711740552,0.0
4527963662.9745,-13.425740702383756,0.0,-2.664509590783626,0.0
4527978662.974,-13.42917449282411,0.0,-2.6150038252273697,0.0
4527993662.9735,-13.4158917849337,0.0,-2.5973064539242423,0.0
4528008662.973,-13.419186792931352,0.0,-2.6197960919471295,0.0
4528023662.9725,-13.428664996514,0.0,-2.643270828094053,0.0
4528038662.972,-13.423890979262886,0.0,-2.6731322365292125,0.0
4528053662.9715,-13.429356183947478,0.0,-2.6872482415991947,0.0
4528068662.971,-13.42592033628783,0.0,-2.6651775204063592,0.0
4528083662.9705,-13.423924276619639,0.0,-2.6321151907975557,0.0
4528098662.97,-13.425800415630807,0.0,-2.6041407261052,0.0
4528113662.9695,-13.424173681849043,0.0,-2.683916201999291,0.0
4528128662.969,-13.430339218603367,0.0,-2.6417949405413137,0.0
4528143662.9685,-13.436089787568033,0.0,-2.6678281752166493,0.0
4528158662.968,-13.434500363548675,0.0,-2.6209274652380388,0.0
4528173662.9675,-13.429950625643695,0.0,-2.7210552371211043,0.0
4528188662.967,-13.43573189100036,0.0,-2.638368901590731,0.0
4528203662.9665,-13.425734711798222,0.0,-2.6456145107472175,0.0
4528218662.966,-13.433756862397214,0.0,-2.670724894553045,0.0
4528233662.9655,-13.427829396878934,0.0,-2.7041113637775225,0.0
4528248662.965,-13.430280384293155,0.0,-2.6918467812323796,0.0
4528263662.9645,-13.429782879535972,0.0,-2.6637796629958177,0.0
4528278662.964,-13.429773057239325,0.0,-2.6359303094622604,0.0
4528293662.9635,-13.428490009781282,0.0,-2.6766855038762936,0.0
4528308662.963,-13.423885148301288,0.0,-2.701099184639123,0.0
4528323662.9625,-13.429249253629198,0.0,-2.692257530016584,0.0
4528338662.962,-13.430989974145328,0.0,-2.646217473447575,0.0
4528353662.9615,-13.421815692212995,0.0,-2.665864357106409,0.0
4528368662.961,-13.431170192632838,0.0,-2.71741231473484,0.0
4528383662.9605,-13.425316357871601,0.0,-2.7084298001245237,0.0
4528398662.96,-13.432022634523697,0.0,-2.7130862016702304,0.0
4528413662.9595,-13.434017247474419,0.0,-2.7487699865719053,0.0
4528428662.959,-13.42675330234382,0.0,-2.675872273965605,0.0
4528443662.9585,-13.423615373600237,0.0,-2.7686111458498672,0.0
4528458662.958,-13.42655938110183,0.0,-2.736400831078244,0.0
4528473662.9575,-13.430639110085359,0.0,-2.736946916493319,0.0
4528488662.957,-13.436862842910955,0.0,-2.692590439548481,0.0
4528503662.9565,-13.42698501594918,0.0,-2.7157263529672773,0.0
4528518662.956,-13.42428285972645,0.0,-2.7763439564392,0.0
4528533662.9555,-13.42380541529732,0.0,-2.7596192180345036,0.0
4528548662.955,-13.421836127061459,0.0,-2.7625076854858652,0.0
4528563662.9545,-13.43196397614803,0.0,-2.7546076294806903,0.0
4528578662.954,-13.42574175230008,0.0,-2.767709745489682,0.0
4528593662.9535,-13.43250772422611,0.0,-2.7282456453951953,0.0
4528608662.953,-13.432324885774069,0.0,-2.695193279213751,0.0
4528623662.9525,-13.424925701263614,0.0,-2.806622890438887,0.0
4528638662.952,-13.429388877711547,0.0,-2.755235421904138,0.0
4528653662.9515,-13.427366429168648,0.0,-2.7510547620479073,0.0
4528668662.951,-13.428741074581154,0.0,-2.784764799237482,0.0
4528683662.9505,-13.435507590472543,0.0,-2.7668636453161772,0.0
4528698662.95,-13.436461192879655,0.0,-2.7631398139298193,0.0
4528713662.9495,-13.434225114694172,0.0,-2.7538255612598315,0.0
4528728662.949,-13.428702615948856,0.0,-2.7612733549068706,0.0
4528743662.9485,-13.430803721902215,0.0,-2.845928934287835,0.0
4528758662.948,-13.421542200261204,0.0,-2.790073257326433,0.0
4528773662.9475,-13.42509808501548,0.0,-2.8318424999237473,0.0
4528788662.947,-13.439036342123803,0.0,-2.7289205756342687,0.0
4528803662.9465,-13.424694488224914,0.0,-2.799312395762124,0.0
4528818662.946,-13.425371734500537,0.0,-2.7730527658626243,0.0
4528833662.9455,-13.422943926938636,0.0,-2.850127085393181,0.0
4528848662.945,-13.433666368814624,0.0,-2.806046895542999,0.0
4528863662.9445,-13.437029890620568,0.0,-2.712552891169434,0.0
4528878662.944,-13.429214467633265,0.0,-2.825183678033276,0.0
4528893662.9435,-13.431820844804584,0.0,-2.7592473672940483,0.0
4528908662.943,-13.42252849767103,0.0,-2.8018609446021876,0.0
4528923662.9425,-13.431426498019306,0.0,-2.8783708917649116,0.0
4528938662.942,-13.428062923583969,0.0,-2.8414947764752596,0.0
4528953662.9415,-13.436030787902027,0.0,-2.834935810384406,0.0
4528968662.941,-13.431428667696698,0.0,-2.8120934298023643,0.0
4528983662.9405,-13.418169383771442,0.0,-2.858479584416375,0.0
4528998662.94,-13.424755133327078,0.0,-2.8169336456706344,0.0
4529013662.9395,-13.429039086354743,0.0,-2.8046995498797838,0.0
4529028662.939,-13.431800065581726,0.0,-2.855866912081052,0.0
4529043662.9385,-13.430987058324295,0.0,-2.835338446524783,0.0
4529058662.938,-13.425052862223943,0.0,-2.8025698300189488,0.0
4529073662.9375,-13.423364979102537,0.0,-2.842645651818152,0.0
4529088662.937,-13.43474329175459,0.0,-2.8624496327445867,0.0
4529103662.9365,-13.431088163940444,0.0,-2.848934857743948,0.0
4529118662.936,-13.436678180226455,0.0,-2.810335368131023,0.0
4529133662.9355,-13.432369309184018,0.0,-2.9171713498932808,0.0
4529148662.935,-13.432753732160679,0.0,-2.8907022965792417,0.0
4529163662.9345,-13.423234721511701,0.0,-2.8554152696133475,0.0
4529178662.934,-13.42995909514978,0.0,-2.837059223924899,0.0
4529193662.9335,-13.430915266157479,0.0,-2.853563844604531,0.0
4529208662.933,-13.434119758698325,0.0,-2.8873738843861054,0.0
4529223662.9325,-13.43503247424545,0.0,-2.871184827904603,0.0
4529238662.932,-13.432788652614619,0.0,-2.8466782229871037,0.0
4529253662.9315,-13.42567694566111,0.0,-2.8457704659996383,0.0
4529268662.931,-13.43152466935959,0.0,-2.867157358200685,0.0
4529283662.9305,-13.432070140190778,0.0,-2.8874356264627368,0.0
4529298662.93,-13.43496207222618,0.0,-2.8250677431839817,0.0
4529313662.9295,-13.432250269123685,0.0,-2.895504646241075,0.0
4529328662.929,-13.431195239778663,0.0,-2.8492079024671684,0.0
4529343662.9285,-13.440500665950392,0.0,-2.844370309330959,0.0
4529358662.928,-13.438806415992854,0.0,-2.907195347722916,0.0
4529373662.9275,-13.430283928812909,0.0,-2.880484901308917,0.0
4529388662.927,-13.430391664327637,0.0,-2.862362618305766,0.0
4529403662.9265,-13.440059772774323,0.0,-2.9298941755254475,0.0
4529418662.926,-13.433314733401275,0.0,-2.8616548405137507,0.0
4529433662.9255,-13.425675774614806,0.0,-2.9026947484339862,0.0
4529448662.925,-13.436133978274405,0.0,-2.9686957945655292,0.0
4529463662.9245,-13.427490132313151,0.0,-2.91122572199191,0.0
4529478662.924,-13.42142512510554,0.0,-2.8765819318391634,0.0
4529493662.9235,-13.433385300697811,0.0,-2.8593371519608075,0.0
4529508662.923,-13.425373104195943,0.0,-2.9802272661651767,0.0
4529523662.9225,-13.428854709666801,0.0,-2.956648497944914,0.0
4529538662.922,-13.432112298056449,0.0,-2.9411417597954097,0.0
4529553662.9215,-13.436446296873862,0.0,-2.8964500153163963,0.0
4529568662.921,-13.434265403303833,0.0,-2.925845899464527,0.0
4529583662.9205,-13.428940645452705,0.0,-2.938948520823385,0.0
4529598662.92,-13.427106526226563,0.0,-2.9299021840368535,0.0
4529613662.9195,-13.44045747969614,0.0,-2.9206173940930666,0.0
4529628662.919,-13.429242366541876,0.0,-3.0176303698560325,0.0
4529643662.9185,-13.437128416408157,0.0,-2.9631729258424953,0.0
4529658662.918,-13.43555615766006,0.0,-2.979141073118527,0.0
4529673662.9175,-13.434205121275642,0.0,-2.9849632440691547,0.0
4529688662.917,-13.435562273709794,0.0,-2.968704178038135,0.0
4529703662.9165,-13.433094622133826,0.0,-2.927464597518184,0.0
4529718662.916,-13.433490480443037,0.0,-2.9418925828927334,0.0
4529733662.9155,-13.424128747875931,0.0,-3.0283463758246487,0.0
4529748662.915,-13.430729813025915,0.0,-3.058237790226753,0.0
4529763662.9145,-13.431085420422711,0.0,-2.965776411361744,0.0
4529778662.914,-13.427127836381834,0.0,-3.0169182968117703,0.0
4529793662.9135,-13.429661392118273,0.0,-2.9820008310432957,0.0
4529808662.913,-13.426031703086728,0.0,-3.002819226079129,0.0
4529823662.9125,-13.429348522696362,0.0,-2.9454905572728993,0.0
4529838662.912,-13.432372424172279,0.0,-2.9855775375226803,0.0
4529853662.9115,-13.446818537913662,0.0,-2.997198714196527,0.0
4529868662.911,-13.429274405536393,0.0,-2.9713307370057205,0.0
4529883662.9105,-13.436131682295837,0.0,-2.99929434812848,0.0
4529898662.91,-13.436700116974329,0.0,-3.0344698263375873,0.0
4529913662.9095,-13.434967134395823,0.0,-3.035255172924737,0.0
4529928662.909,-13.435129415580434,0.0,-3.0875375008316484,0.0
4529943662.9085,-13.442356148274188,0.0,-3.053524365397008,0.0
4529958662.908,-13.43718110887028,0.0,-3.0129567060097777,0.0
4529973662.9075,-13.434117501995903,0.0,-2.9903758547456913,0.0
4529988662.907,-13.426729216876648,0.0,-2.992393016596649,0.0
4530003662.9065,-13.436654738361309,0.0,-3.0373704248244446,0.0
4530018662.906,-13.440701207868852,0.0,-3.0302587922934285,0.0
4530033662.9055,-13.4249656607951,0.0,-3.010891258104315,0.0
4530048662.905,-13.438285498590153,0.0,-3.022467562168921,0.0
4530063662.9045,-13.434217803150379,0.0,-3.0554633562467517,0.0
4530078662.904,-13.433539439327578,0.0,-3.0788611124288416,0.0
4530093662.9035,-13.426330321614708,0.0,-3.054252174872215,0.0
4530108662.903,-13.430295483637419,0.0,-3.011169688520518,0.0
4530123662.9025,-13.440573682837657,0.0,-3.0888191201702018,0.0
4530138662.902,-13.428160673003775,0.0,-3.053512797887155,0.0
4530153662.9015,-13.433465869364403,0.0,-3.026137986309269,0.0
4530168662.901,-13.42845158383897,0.0,-3.0583029192579207,0.0
4530183662.9005,-13.442005437220905,0.0,-3.139524449845038,0.0
4530198662.9,-13.440261323043723,0.0,-3.043327899613882,0.0
4530213662.8995,-13.435838905424554,0.0,-3.0599694873626913,0.0
4530228662.899,-13.431895972103263,0.0,-3.067752734487896,0.0
4530243662.8985,-13.434480369115192,0.0,-3.054714545112835,0.0
4530258662.898,-13.432529379521458,0.0,-3.0663173390334624,0.0
4530273662.8975,-13.436195677278285,0.0,-3.0530458538274163,0.0
4530288662.897,-13.439617911710812,0.0,-3.105210986534767,0.0
4530303662.8965,-13.436275697228226,0.0,-3.087894158930619,0.0
4530318662.896,-13.432434375909978,0.0,-3.107815590566586,0.0
4530333662.8955,-13.436933867178155,0.0,-3.1423847344877287,0.0
4530348662.895,-13.433017175319726,0.0,-3.0902160051419125,0.0
4530363662.8945,-13.429638484561053,0.0,-3.0522447663887813,0.0
4530378662.894,-13.440736325566236,0.0,-3.132867603630864,0.0
4530393662.8935,-13.442781667451627,0.0,-3.1007255409513785,0.0
4530408662.893,-13.435173344831885,0.0,-3.1001289089794213,0.0
4530423662.8925,-13.436670863894552,0.0,-3.1144979050605834,0.0
4530438662.892,-13.428247254663102,0.0,-3.1360148803423296,0.0
4530453662.8915,-13.434296787056573,0.0,-3.1719623745230923,0.0
4530468662.891,-13.425808247661482,0.0,-3.142705945785718,0.0
4530483662.8905,-13.440821131584602,0.0,-3.1371155329299163,0.0
4530498662.89,-13.434136572314557,0.0,-3.1029542035990856,0.0
4530513662.8895,-13.43346673184633,0.0,-3.1395197669357495,0.0
4530528662.889,-13.43263308247736,0.0,-3.1521883631625087,0.0
4530543662.8885,-13.43578899742319,0.0,-3.135751230307259,0.0
4530558662.888,-13.441770839889989,0.0,-3.1697166964404446,0.0
4530573662.8875,-13.425294412658925,0.0,-3.1654081199146984,0.0
4530588662.887,-13.435066600744177,0.0,-3.151837020457923,0.0
4530603662.8865,-13.436296677171931,0.0,-3.1455478300889337,0.0
4530618662.886,-13.434278317468,0.0,-3.1095783541296456,0.0
4530633662.8855,-13.432100074788265,0.0,-3.214466320349377,0.0
4530648662.885,-13.434789059292155,0.0,-3.1657203257173845,0.0
4530663662.8845,-13.439632076340924,0.0,-3.1401843974208647,0.0
4530678662.884,-13.435356831286462,0.0,-3.20348188176512,0.0
4530693662.8835,-13.436061182274756,0.0,-3.1779191294612303,0.0
4530708662.883,-13.443253913540412,0.0,-3.1981078934742464,0.0
4530723662.8825,-13.437874472518782,0.0,-3.1073820303783815,0.0
4530738662.882,-13.442979989208531,0.0,-3.160481155084954,0.0
4530753662.8815,-13.444789572130475,0.0,-3.199172606029073,0.0
4530768662.881,-13.434410083184304,0.0,-3.2504926700839953,0.0
4530783662.8805,-13.433661943228348,0.0,-3.2216137096567117,0.0
4530798662.88,-13.442786726466116,0.0,-3.2063313350885094,0.0
4530813662.8795,-13.42904612900172,0.0,-3.1549145881432206,0.0
4530828662.879,-13.442180248651157,0.0,-3.1996725578697114,0.0
4530843662.8785,-13.439691893786463,0.0,-3.202143823329802,0.0
4530858662.878,-13.449914161996432,0.0,-3.2555674113993294,0.0
4530873662.8775,-13.429978218898706,0.0,-3.2824335474078774,0.0
4530888662.877,-13.433272841679626,0.0,-3.2093036395682253,0.0
4530903662.8765,-13.438539579466271,0.0,-3.267933315239664,0.0
4530918662.876,-13.443818229884286,0.0,-3.2353782380997558,0.0
4530933662.8755,-13.43652800786286,0.0,-3.190279085790146,0.0
4530948662.875,-13.430478108535453,0.0,-3.230349284801085,0.0
4530963662.8745,-13.438617534577354,0.0,-3.2419525499971082,0.0
4530978662.874,-13.426950545789087,0.0,-3.238072321112238,0.0
4530993662.8735,-13.428921914676565,0.0,-3.1787757085145394,0.0
4531008662.873,-13.443525578237924,0.0,-3.2406239624758895,0.0
4531023662.8725,-13.440775781526085,0.0,-3.2343216590338644,0.0
4531038662.872,-13.43972967162847,0.0,-3.274032857841168,0.0
4531053662.8715,-13.441528793640563,0.0,-3.2632686129067396,0.0
4531068662.871,-13.43704693127136,0.0,-3.3163276407344875,0.0
4531083662.8705,-13.436208802261802,0.0,-3.2325939517498696,0.0
4531098662.87,-13.43763350295907,0.0,-3.2396822380604426,0.0
4531113662.8695,-13.437930381479024,0.0,-3.2556683958992694,0.0
4531128662.869,-13.430816240149944,0.0,-3.289530015266391,0.0
4531143662.8685,-13.441076611127745,0.0,-3.2957080764932964,0.0
4531158662.868,-13.434417603810116,0.0,-3.308606864565637,0.0
4531173662.8675,-13.44779836330793,0.0,-3.348759367868336,0.0
4531188662.867,-13.440045330457908,0.0,-3.264286652268625,0.0
4531203662.8665,-13.43414300423622,0.0,-3.3146482881014316,0.0
4531218662.866,-13.441988811065649,0.0,-3.314197008214171,0.0
4531233662.8655,-13.428629049277887,0.0,-3.3164392776880667,0.0
4531248662.865,-13.439853466442752,0.0,-3.308430940441175,0.0
4531263662.8645,-13.43350097796943,0.0,-3.312498793463729,0.0
4531278662.864,-13.445760987556316,0.0,-3.378832609444915,0.0
4531293662.8635,-13.43815356064843,0.0,-3.2967197732049875,0.0
4531308662.863,-13.440350063568482,0.0,-3.336251337880179,0.0
4531323662.8625,-13.436999404226492,0.0,-3.342885813919378,0.0
4531338662.862,-13.436278481351536,0.0,-3.317433431670682,0.0
4531353662.8615,-13.4305940848109,0.0,-3.3607548317661338,0.0
4531368662.861,-13.44458004033238,0.0,-3.316342233661812,0.0
4531383662.8605,-13.430602790997133,0.0,-3.3721133254345017,0.0
4531398662.86,-13.442853874732334,0.0,-3.388161431675151,0.0
4531413662.8595,-13.440775419412835,0.0,-3.364868017929507,0.0
4531428662.859,-13.431772307248108,0.0,-3.3368618189712063,0.0
4531443662.8585,-13.432521909168342,0.0,-3.3614668990122802,0.0
4531458662.858,-13.443739717590933,0.0,-3.335239204429581,0.0
4531473662.8575,-13.444337625708647,0.0,-3.4020575755270563,0.0
4531488662.857,-13.448589794652436,0.0,-3.3869686218344746,0.0
4531503662.8565,-13.44793540607197,0.0,-3.404234768679455,0.0
4531518662.856,-13.445960303599872,0.0,-3.375872451249882,0.0
4531533662.8555,-13.4358226868385,0.0,-3.3875750809337113,0.0
4531548662.855,-13.434458026975824,0.0,-3.422270128614556,0.0
4531563662.8545,-13.437965139553166,0.0,-3.45776917056485,0.0
4531578662.854,-13.439157889784266,0.0,-3.4257762379650667,0.0
4531593662.8535,-13.43376146978649,0.0,-3.424988967077778,0.0
4531608662.853,-13.447401240354196,0.0,-3.458818380933369,0.0
4531623662.8525,-13.442824903294973,0.0,-3.4882093815539945,0.0
4531638662.852,-13.442890321309804,0.0,-3.3981980027691163,0.0
4531653662.8515,-13.441581527968998,0.0,-3.444147093396707,0.0
4531668662.851,-13.441399486213106,0.0,-3.419221849837143,0.0
4531683662.8505,-13.432778469342209,0.0,-3.3694842425242633,0.0
4531698662.85,-13.442941460613099,0.0,-3.4401693108631424,0.0
4531713662.8495,-13.44568822098848,0.0,-3.40899264750028,0.0
4531728662.849,-13.438590275537214,0.0,-3.4344942173195814,0.0
4531743662.8485,-13.441538723165582,0.0,-3.4152415241707716,0.0
4531758662.848,-13.445837782866391,0.0,-3.4018947100118155,0.0
4531773662.8475,-13.440033440476105,0.0,-3.4807132736735706,0.0
4531788662.847,-13.436343728037505,0.0,-3.5150363411049925,0.0
4531803662.8465,-13.439087615419671,0.0,-3.5043147346942685,0.0
4531818662.846,-13.441269757664633,0.0,-3.492174570489315,0.0
4531833662.8455,-13.442591671377455,0.0,-3.470491344152701,0.0
4531848662.845,-13.438420920103272,0.0,-3.4932721401308173,0.0
4531863662.8445,-13.444875308256623,0.0,-3.440809960237032,0.0
4531878662.844,-13.438638609954603,0.0,-3.4396479380890743,0.0
