Frequency,S11,S11-Q,S11-Phase,S11-Phase-Q
4527198663.0,-13.423900059177736,0.0,-2.2696707765244546,0.0
4527213662.9995,-13.428319133703033,0.0,-2.261153974625251,0.0
4527228662.999,-13.428367940131254,0.0,-2.2739877454920574,0.0
4527243662.9985,-13.424792244729758,0.0,-2.3088908086872957,0.0
4527258662.998,-13.422525046678366,0.0,-2.220583924101437,0.0
4527273662.9975,-13.428225327114326,0.0,-2.279671413828161,0.0
4527288662.997,-13.430432248421349,0.0,-2.2700590319015284,0.0
4527303662.9965,-13.41975828081612,0.0,-2.314493363138077,0.0
4527318662.996,-13.42679535912999,0.0,-2.2778363794508336,0.0
4527333662.9955,-13.41999871955188,0.0,-2.307408756613215,0.0
4527348662.995,-13.42255896466289,0.0,-2.3145094045762518,0.0
4527363662.9945,-13.42874752263106,0.0,-2.2643126797188713,0.0
4527378662.994,-13.419221056372434,0.0,-2.264156313000111,0.0
4527393662.9935,-13.438067979258268,0.0,-2.2884014453860986,0.0
4527408662.993,-13.431019327596651,0.0,-2.3021556910592547,0.0
4527423662.9925,-13.425904229660901,0.0,-2.337952545479673,0.0
4527438662.992,-13.424368315881336,0.0,-2.263346666322501,0.0
4527453662.9915,-13.42543386219289,0.0,-2.277905878014681,0.0
4527468662.991,-13.435681215415931,0.0,-2.2595794221831396,0.0
4527483662.9905,-13.426094928500378,0.0,-2.280258122025982,0.0
4527498662.99,-13.429424807546578,0.0,-2.277930450750761,0.0
4527513662.9895,-13.437455778313353,0.0,-2.2930481486547696,0.0
4527528662.989,-13.433865524989177,0.0,-2.2996260017799113,0.0
4527543662.9885,-13.43144892982042,0.0,-2.2816503110740496,0.0
4527558662.988,-13.43453588713797,0.0,-2.3030874525559866,0.0
4527573662.9875,-13.423665985877983,0.0,-2.2520253236373997,0.0
4527588662.987,-13.425683908937627,0.0,-2.256859456509064,0.0
4527603662.9865,-13.433772791043383,0.0,-2.3154245285226187,0.0
4527618662.986,-13.427844433341969,0.0,-2.3482856794070432,0.0
4527633662.9855,-13.421391824116874,0.0,-2.315268142661999,0.0
4527648662.985,-13.418799591769904,0.0,-2.3024177351428,0.0
4527663662.9845,-13.425389762033987,0.0,-2.3332630418508544,0.0
4527678662.984,-13.435177612198,0.0,-2.2831695671301326,0.0
4527693662.9835,-13.429755741153626,0.0,-2.3887978980359974,0.0
4527708662.983,-13.43826972087877,0.0,-2.302705541454747,0.0
4527723662.9825,-13.428520471578402,0.0,-2.3421652997665783,0.0
4527738662.982,-13.431912302137503,0.0,-2.395659256277325,0.0
4527753662.9815,-13.430356630382295,0.0,-2.3209752291459034,0.0
4527768662.981,-13.427414815121171,0.0,-2.311617226739657,0.0
4527783662.9805,-13.436707037708777,0.0,-2.2278281508884303,0.0
4527798662.98,-13.426779623152193,0.0,-2.3261554955046124,0.0
4527813662.9795,-13.427340918915892,0.0,-2.3504846251463976,0.0
4527828662.979,-13.432592401528067,0.0,-2.292164067382983,0.0
4527843662.9785,-13.427955094279529,0.0,-2.364895954378656,0.0
4527858662.978,-13.430849916931656,0.0,-2.320516678596532,0.0
4527873662.9775,-13.431002559841083,0.0,-2.3357298582599784,0.0
4527888662.977,-13.425822760894592,0.0,-2.301136706595025,0.0
4527903662.9765,-13.438686516215995,0.0,-2.4029780609299816,0.0
4527918662.976,-13.428505787097961,0.0,-2.3136558885455294,0.0
4527933662.9755,-13.434960890873164,0.0,-2.3466140993576796,0.0
4527948662.975,-13.424975870494793,0.0,-2.346796395698384,0.0
4527963662.9745,-13.434502552915816,0.0,-2.377215314116135,0.0
4527978662.974,-13.430109464843367,0.0,-2.322924185651763,0.0
4527993662.9735,-13.425737570540079,0.0,-2.331808323435137,0.0
4528008662.973,-13.431645063511738,0.0,-2.3736506697186943,0.0
4528023662.9725,-13.438394271041352,0.0,-2.3625188120780076,0.0
4528038662.972,-13.418033039851878,0.0,-2.3860641916048557,0.0
4528053662.9715,-13.432185282752817,0.0,-2.3831940134735445,0.0
4528068662.971,-13.423189692861639,0.0,-2.2943743648771036,0.0
4528083662.9705,-13.421597659626176,0.0,-2.3493128907311522,0.0
4528098662.97,-13.429865950382956,0.0,-2.3060476408319848,0.0
4528113662.9695,-13.432255685814551,0.0,-2.378440547863225,0.0
4528128662.969,-13.428807965660784,0.0,-2.377087987941381,0.0
4528143662.9685,-13.42042154923731,0.0,-2.368452810511635,0.0
4528158662.968,-13.43917228955262,0.0,-2.36992001001577,0.0
4528173662.9675,-13.432469389395777,0.0,-2.350666956882588,0.0
4528188662.967,-13.431311091992292,0.0,-2.3430499818610917,0.0
4528203662.9665,-13.43710380409714,0.0,-2.3833829891756855,0.0
4528218662.966,-13.44144461161851,0.0,-2.3679235914069716,0.0
4528233662.9655,-13.431871871124857,0.0,-2.348817672725548,0.0
4528248662.965,-13.429527857266127,0.0,-2.386009972297575,0.0
4528263662.9645,-13.432201055826967,0.0,-2.4340920254688165,0.0
4528278662.964,-13.429483281896173,0.0,-2.4387932788630016,0.0
4528293662.9635,-13.434671442091163,0.0,-2.3221370015560336,0.0
4528308662.963,-13.433320367463486,0.0,-2.4096661136134374,0.0
4528323662.9625,-13.430566787740513,0.0,-2.4473693546400463,0.0
4528338662.962,-13.437389979770572,0.0,-2.4298149937248477,0.0
4528353662.9615,-13.437483380424968,0.0,-2.403443636523517,0.0
4528368662.961,-13.430659424360524,0.0,-2.3836877982859566,0.0
4528383662.9605,-13.434980638904923,0.0,-2.4283535890741414,0.0
4528398662.96,-13.43006551902916,0.0,-2.4271207711801672,0.0
4528413662.9595,-13.4258754519374,0.0,-2.4518682704238395,0.0
4528428662.959,-13.426395067455484,0.0,-2.429163035068082,0.0
4528443662.9585,-13.423657926531497,0.0,-2.4158798623721616,0.0
4528458662.958,-13.439884946712786,0.0,-2.4433430446438384,0.0
4528473662.9575,-13.425440140537003,0.0,-2.4443395589370502,0.0
4528488662.957,-13.433715447415302,0.0,-2.4188612159374867,0.0
4528503662.9565,-13.432796176618801,0.0,-2.453308007581849,0.0
4528518662.956,-13.43749835215622,0.0,-2.5032639098376595,0.0
4528533662.9555,-13.423385585881578,0.0,-2.4497667258288542,0.0
4528548662.955,-13.42239939219775,0.0,-2.4661728928595,0.0
4528563662.9545,-13.428267623106398,0.0,-2.487465920469408,0.0
4528578662.954,-13.435594717726037,0.0,-2.436703787442781,0.0
4528593662.9535,-13.430478338124205,0.0,-2.4936255852843643,0.0
4528608662.953,-13.436101362148257,0.0,-2.465113473181623,0.0
4528623662.9525,-13.42908815095436,0.0,-2.5356995328756593,0.0
4528638662.952,-13.429529401991516,0.0,-2.514651154346217,0.0
4528653662.9515,-13.435118854556393,0.0,-2.4613638910419104,0.0
4528668662.951,-13.438568722536852,0.0,-2.458834741620466,0.0
4528683662.9505,-13.42693975981401,0.0,-2.4651805784620513,0.0
4528698662.95,-13.434027044635375,0.0,-2.353684489748418,0.0
4528713662.9495,-13.435567327110771,0.0,-2.449827607000905,0.0
4528728662.949,-13.434537026889382,0.0,-2.4653647403364207,0.0
4528743662.9485,-13.439569217819187,0.0,-2.4663165128955282,0.0
4528758662.948,-13.43006452628703,0.0,-2.481231870489077,0.0
4528773662.9475,-13.427750637588584,0.0,-2.4542100714977684,0.0
4528788662.947,-13.425831118206306,0.0,-2.5204411611773843,0.0
4528803662.9465,-13.423950404450578,0.0,-2.4565786281504765,0.0
4528818662.946,-13.436618594610106,0.0,-2.4497928899487396,0.0
4528833662.9455,-13.431024331773806,0.0,-2.450417848157412,0.0
4528848662.945,-13.42298549410958,0.0,-2.54851955634937,0.0
4528863662.9445,-13.429370010479424,0.0,-2.4385142522751497,0.0
4528878662.944,-13.421745977041319,0.0,-2.5266927264048524,0.0
4528893662.9435,-13.43219065097296,0.0,-2.4687910793845877,0.0
4528908662.943,-13.431214032666421,0.0,-2.4957515583554484,0.0
4528923662.9425,-13.423196765584045,0.0,-2.4623684236957706,0.0
4528938662.942,-13.425178810691579,0.0,-2.4849085137537608,0.0
4528953662.9415,-13.434191713542635,0.0,-2.4603408222635084,0.0
4528968662.941,-13.429007522086057,0.0,-2.553148335447261,0.0
4528983662.9405,-13.423842108429412,0.0,-2.462190040798868,0.0
4528998662.94,-13.418254386329734,0.0,-2.4630842356028264,0.0
4529013662.9395,-13.433852133261116,0.0,-2.4649021797479267,0.0
4529028662.939,-13.420066109294995,0.0,-2.545078546365641,0.0
4529043662.9385,-13.43498509309913,0.0,-2.4783393651225296,0.0
4529058662.938,-13.436588685735622,0.0,-2.5528877805337102,0.0
4529073662.9375,-13.430478757568808,0.0,-2.5583171303575973,0.0
4529088662.937,-13.432230591713763,0.0,-2.570427662587112,0.0
4529103662.9365,-13.433422546215986,0.0,-2.499896060872679,0.0
4529118662.936,-13.440967709759182,0.0,-2.5726049828215074,0.0
4529133662.9355,-13.435890561618269,0.0,-2.500356111533208,0.0
4529148662.935,-13.425782803704774,0.0,-2.5104286908107207,0.0
4529163662.9345,-13.430865081217542,0.0,-2.470169378082668,0.0
4529178662.934,-13.442389993745731,0.0,-2.53097149433941,0.0
4529193662.9335,-13.432261014375793,0.0,-2.4741138957642885,0.0
4529208662.933,-13.43126893063381,0.0,-2.5293014791588693,0.0
4529223662.9325,-13.429574750545905,0.0,-2.591883794417473,0.0
4529238662.932,-13.437374006367218,0.0,-2.520327654059798,0.0
4529253662.9315,-13.434895831314282,0.0,-2.5231635358839983,0.0
4529268662.931,-13.437809297204614,0.0,-2.603712234258867,0.0
4529283662.9305,-13.435964213164834,0.0,-2.547067354827353,0.0
4529298662.93,-13.443186700264754,0.0,-2.499957292822615,0.0
4529313662.9295,-13.423720360703653,0.0,-2.5379482608778177,0.0
4529328662.929,-13.431531823781011,0.0,-2.530373784395218,0.0
4529343662.9285,-13.419737492652349,0.0,-2.5372387968520185,0.0
4529358662.928,-13.441006612123727,0.0,-2.604487730950555,0.0
4529373662.9275,-13.440022210704079,0.0,-2.5406914906814704,0.0
4529388662.927,-13.428101030512307,0.0,-2.501135310008079,0.0
4529403662.9265,-13.42790887706098,0.0,-2.6220429807606354,0.0
4529418662.926,-13.43791655481466,0.0,-2.575625775864771,0.0
4529433662.9255,-13.434832761829135,0.0,-2.5660423565704544,0.0
4529448662.925,-13.430625731906803,0.0,-2.4959847157732393,0.0
4529463662.9245,-13.432144923401754,0.0,-2.55344407405742,0.0
4529478662.924,-13.428506824322389,0.0,-2.5291805127142224,0.0
4529493662.9235,-13.439163051163224,0.0,-2.5364953593317834,0.0
4529508662.923,-13.43385426035118,0.0,-2.609866477304518,0.0
4529523662.9225,-13.433241455291348,0.0,-2.658771706226628,0.0
4529538662.922,-13.433222235605145,0.0,-2.5981883067274003,0.0
4529553662.9215,-13.439238187467687,0.0,-2.6020472295237123,0.0
4529568662.921,-13.436067449459069,0.0,-2.5999933184989086,0.0
4529583662.9205,-13.4317640418595,0.0,-2.5384964646006503,0.0
4529598662.92,-13.429369898271386,0.0,-2.550069803520324,0.0
4529613662.9195,-13.430838379917795,0.0,-2.604099630204285,0.0
4529628662.919,-13.453268462596986,0.0,-2.5858732704072613,0.0
4529643662.9185,-13.429275507437348,0.0,-2.6205160312820084,0.0
4529658662.918,-13.433556648566011,0.0,-2.5798468742246112,0.0
4529673662.9175,-13.436335715135982,0.0,-2.6279999199723876,0.0
4529688662.917,-13.438674418825453,0.0,-2.613300041435131,0.0
4529703662.9165,-13.432312191362456,0.0,-2.6219725684264996,0.0
4529718662.916,-13.4330346829659,0.0,-2.6747059938239586,0.0
4529733662.9155,-13.437533866510991,0.0,-2.604142800065125,0.0
4529748662.915,-13.433453923007832,0.0,-2.6959593808373707,0.0
4529763662.9145,-13.436409959905312,0.0,-2.6465325225240317,0.0
4529778662.914,-13.43587554348848,0.0,-2.571407683875824,0.0
4529793662.9135,-13.441151576905098,0.0,-2.6128148214581897,0.0
4529808662.913,-13.433418746174686,0.0,-2.6232378045792606,0.0
4529823662.9125,-13.43004056433385,0.0,-2.703954717012378,0.0
4529838662.912,-13.432280941915128,0.0,-2.697551150419015,0.0
4529853662.9115,-13.436752415010783,0.0,-2.6359129616223584,0.0
4529868662.911,-13.426156471888376,0.0,-2.63687815500526,0.0
4529883662.9105,-13.436677864596868,0.0,-2.649448705772592,0.0
4529898662.91,-13.432860935503498,0.0,-2.6375907579304574,0.0
4529913662.9095,-13.434638743349414,0.0,-2.6991306406614886,0.0
4529928662.909,-13.435468341715861,0.0,-2.6278443306728057,0.0
4529943662.9085,-13.432482356049684,0.0,-2.649566228978947,0.0
4529958662.908,-13.437760758392088,0.0,-2.6957879713293114,0.0
4529973662.9075,-13.428839017135541,0.0,-2.6671588340325783,0.0
4529988662.907,-13.43878706273282,0.0,-2.669099601811784,0.0
4530003662.9065,-13.432426299372919,0.0,-2.6187012261604794,0.0
4530018662.906,-13.435169615015372,0.0,-2.6361428452743,0.0
4530033662.9055,-13.442816610246469,0.0,-2.6475746232891715,0.0
4530048662.905,-13.438784469170535,0.0,-2.675564880086401,0.0
4530063662.9045,-13.437792837920464,0.0,-2.6860919768606233,0.0
4530078662.904,-13.440357930648215,0.0,-2.707430573176371,0.0
4530093662.9035,-13.436012631467761,0.0,-2.6742026039342206,0.0
4530108662.903,-13.437517504043646,0.0,-2.6576608721945743,0.0
4530123662.9025,-13.435782824052737,0.0,-2.732013385944573,0.0
4530138662.902,-13.437738788291497,0.0,-2.687630557515573,0.0
4530153662.9015,-13.437267632164964,0.0,-2.6633421290063053,0.0
4530168662.901,-13.432517176780616,0.0,-2.592115107386566,0.0
4530183662.9005,-13.43455820048553,0.0,-2.623292781089629,0.0
4530198662.9,-13.436713318666438,0.0,-2.687616372886278,0.0
4530213662.8995,-13.42070476281563,0.0,-2.657203096324164,0.0
4530228662.899,-13.439508764625485,0.0,-2.6972989393671534,0.0
4530243662.8985,-13.441180561555136,0.0,-2.6922213729203412,0.0
4530258662.898,-13.43452757075009,0.0,-2.6821661764901754,0.0
4530273662.8975,-13.43935788360579,0.0,-2.7184500377585272,0.0
4530288662.897,-13.446265090927149,0.0,-2.7090858875779,0.0
4530303662.8965,-13.44076493280648,0.0,-2.7279405211582604,0.0
4530318662.896,-13.436606565535431,0.0,-2.749751233302868,0.0
4530333662.8955,-13.442379681934984,0.0,-2.6873170650238145,0.0
4530348662.895,-13.438594123331944,0.0,-2.721317131352976,0.0
4530363662.8945,-13.435868737588397,0.0,-2.737587362630732,0.0
4530378662.894,-13.434376489428246,0.0,-2.722031760814963,0.0
4530393662.8935,-13.43961810641394,0.0,-2.684154415024432,0.0
4530408662.893,-13.434763381910926,0.0,-2.7616022945473158,0.0
4530423662.8925,-13.440021487491132,0.0,-2.774724359274257,0.0
4530438662.892,-13.444446285611264,0.0,-2.738348479626001,0.0
4530453662.8915,-13.444299931316507,0.0,-2.7573713684184056,0.0
4530468662.891,-13.433546945489033,0.0,-2.6969992035413144,0.0
4530483662.8905,-13.433932415757045,0.0,-2.7773483619049584,0.0
4530498662.89,-13.438440057335052,0.0,-2.7389408351186515,0.0
4530513662.8895,-13.434188857694195,0.0,-2.741893891852455,0.0
4530528662.889,-13.446418814149661,0.0,-2.7395785276521805,0.0
4530543662.8885,-13.435464819727652,0.0,-2.7141954228283494,0.0
4530558662.888,-13.433419733347531,0.0,-2.756494060442701,0.0
4530573662.8875,-13.434113281062833,0.0,-2.759962244207975,0.0
4530588662.887,-13.440475856157763,0.0,-2.765723199318533,0.0
4530603662.8865,-13.437235425926424,0.0,-2.7713519784371368,0.0
4530618662.886,-13.437044946932408,0.0,-2.820096371434896,0.0
4530633662.8855,-13.43804242020675,0.0,-2.7678355368638554,0.0
4530648662.885,-13.436832015198501,0.0,-2.7913961649439516,0.0
4530663662.8845,-13.427383116136564,0.0,-2.795081979676138,0.0
4530678662.884,-13.44237376306368,0.0,-2.7704844962887365,0.0
4530693662.8835,-13.445958464939114,0.0,-2.7265670422689876,0.0
4530708662.883,-13.437671452901261,0.0,-2.817076407200118,0.0
4530723662.8825,-13.448232622267929,0.0,-2.7868979407225605,0.0
4530738662.882,-13.433550110718276,0.0,-2.813960103665059,0.0
4530753662.8815,-13.436366301050143,0.0,-2.763079595933135,0.0
4530768662.881,-13.440136154660387,0.0,-2.862184772967072,0.0
4530783662.8805,-13.442438064541735,0.0,-2.8477139280366988,0.0
4530798662.88,-13.437692652388357,0.0,-2.820249449415742,0.0
4530813662.8795,-13.434947531440155,0.0,-2.8528663124488443,0.0
4530828662.879,-13.4413519279865,0.0,-2.7899881291039614,0.0
4530843662.8785,-13.43578584208349,0.0,-2.8362477970188844,0.0
4530858662.878,-13.434992996874541,0.0,-2.8021723751292837,0.0
4530873662.8775,-13.429166046180363,0.0,-2.816161156672744,0.0
4530888662.877,-13.44371529465197,0.0,-2.8012599489511194,0.0
4530903662.8765,-13.434576504164324,0.0,-2.851734067839054,0.0
4530918662.876,-13.433980677092713,0.0,-2.7834762477485095,0.0
4530933662.8755,-13.444321469504395,0.0,-2.815317329038061,0.0
4530948662.875,-13.440762739543644,0.0,-2.820775927740302,0.0
4530963662.8745,-13.441432413339285,0.0,-2.862668194404124,0.0
4530978662.874,-13.444292817987689,0.0,-2.8722583607554464,0.0
4530993662.8735,-13.448929519150074,0.0,-2.8943092417608436,0.0
4531008662.873,-13.444668633422587,0.0,-2.844560740581718,0.0
4531023662.8725,-13.439856342985227,0.0,-2.8820078073038906,0.0
4531038662.872,-13.43704616254925,0.0,-2.8336549662449215,0.0
4531053662.8715,-13.453604819849525,0.0,-2.8756578850762873,0.0
4531068662.871,-13.445296856123377,0.0,-2.806962517699461,0.0
4531083662.8705,-13.44551938107842,0.0,-2.806547581583245,0.0
4531098662.87,-13.434691440357655,0.0,-2.898302805384014,0.0
4531113662.8695,-13.43781077528897,0.0,-2.873920447711231,0.0
4531128662.869,-13.441849452765542,0.0,-2.855995497674151,0.0
4531143662.8685,-13.43815420223899,0.0,-2.873423267998198,0.0
4531158662.868,-13.440435686004736,0.0,-2.8696115499202506,0.0
4531173662.8675,-13.442709639986067,0.0,-2.8625029595337397,0.0
4531188662.867,-13.451185203440632,0.0,-2.8433100356769705,0.0
4531203662.8665,-13.43937987226299,0.0,-2.8557916462659896,0.0
4531218662.866,-13.449021722730981,0.0,-2.875590528591563,0.0
4531233662.8655,-13.456360397690597,0.0,-2.9358265407342388,0.0
4531248662.865,-13.442388006945771,0.0,-2.919996608021597,0.0
4531263662.8645,-13.440326795352977,0.0,-2.8800997992536854,0.0
4531278662.864,-13.444778476694461,0.0,-2.954256614576337,0.0
4531293662.8635,-13.43693150432694,0.0,-2.8710415762899983,0.0
4531308662.863,-13.435177092934623,0.0,-2.9424623825664127,0.0
4531323662.8625,-13.45347984153658,0.0,-2.886529383847362,0.0
4531338662.862,-13.445844443298725,0.0,-2.895823061922148,0.0
4531353662.8615,-13.45125554493735,0.0,-2.8796375034766797,0.0
4531368662.861,-13.442747914860858,0.0,-2.9369515090918794,0.0
4531383662.8605,-13.45110995415941,0.0,-2.910204522999406,0.0
4531398662.86,-13.437097090906633,0.0,-2.948458160764255,0.0
4531413662.8595,-13.441196084952567,0.0,-2.9005168571679207,0.0
4531428662.859,-13.449112922751702,0.0,-3.0034049416045394,0.0
4531443662.8585,-13.440877789586986,0.0,-2.9450711841153425,0.0
4531458662.858,-13.440576879501485,0.0,-2.9692766323194784,0.0
4531473662.8575,-13.456084940306694,0.0,-2.905311853525588,0.0
4531488662.857,-13.445259035139303,0.0,-2.907615391290457,0.0
4531503662.8565,-13.438398327473555,0.0,-2.9283159356835227,0.0
4531518662.856,-13.439535729219934,0.0,-2.9742810632802295,0.0
4531533662.8555,-13.436955826015488,0.0,-2.980675769315847,0.0
4531548662.855,-13.441808695155702,0.0,-2.9344908605014655,0.0
4531563662.8545,-13.447232519212156,0.0,-2.926495867674363,0.0
4531578662.854,-13.448620066636476,0.0,-2.9590498071803286,0.0
4531593662.8535,-13.436566113734171,0.0,-2.979469912359486,0.0
4531608662.853,-13.447333097787501,0.0,-2.9365083489230064,0.0
4531623662.8525,-13.443135155461338,0.0,-2.985670647812708,0.0
4531638662.852,-13.437811884645853,0.0,-2.964755991026706,0.0
4531653662.8515,-13.44700609658271,0.0,-2.955159399345069,0.0
4531668662.851,-13.436824597158385,0.0,-2.9842307899041085,0.0
4531683662.8505,-13.4414195146625,0.0,-2.947131420602514,0.0
4531698662.85,-13.4407265650135,0.0,-3.0249996675187023,0.0
4531713662.8495,-13.443277234521918,0.0,-2.9807003728381614,0.0
4531728662.849,-13.445738143742949,0.0,-2.9885915436816033,0.0
4531743662.8485,-13.442868156382204,0.0,-3.0126816542014114,0.0
4531758662.848,-13.449849235448202,0.0,-3.0289837345876984,0.0
4531773662.8475,-13.437274872077724,0.0,-3.071480186895964,0.0
4531788662.847,-13.438972170855475,0.0,-2.9758478329387166,0.0
4531803662.8465,-13.433833447729498,0.0,-3.024637869099224,0.0
4531818662.846,-13.445256765173141,0.0,-3.064304504033575,0.0
4531833662.8455,-13.444806469762066,0.0,-2.9840530919878434,0.0
4531848662.845,-13.443707202499391,0.0,-2.941256737582168,0.0
4531863662.8445,-13.44188073779548,0.0,-3.0299792463727724,0.0
4531878662.844,-13.438428482602784,0.0,-3.0926849533790697,0.0
