Frequency,S11,S11-Q,S11-Phase,S11-Phase-Q
4527198663.0,-13.4373189930152,0.0,-2.135281804169727,0.0
4527213662.9995,-13.442757894667894,0.0,-2.2076713492729074,0.0
4527228662.999,-13.442150684690395,0.0,-2.1918033413567617,0.0
4527243662.9985,-13.43646149948912,0.0,-2.1112526536881275,0.0
4527258662.998,-13.435046961114107,0.0,-2.141278289089152,0.0
4527273662.9975,-13.445948298427261,0.0,-2.1241002615732705,0.0
4527288662.997,-13.447644014468096,0.0,-2.1275052099796032,0.0
4527303662.9965,-13.435188131240094,0.0,-2.119263282974626,0.0
4527318662.996,-13.443805933613831,0.0,-2.13195517161961,0.0
4527333662.9955,-13.443151686217291,0.0,-2.117853417736568,0.0
4527348662.995,-13.450090561589414,0.0,-2.144755248251455,0.0
4527363662.9945,-13.442475146469162,0.0,-2.1305970450257052,0.0
4527378662.994,-13.437840274523818,0.0,-2.2102193492044506,0.0
4527393662.9935,-13.440397656105027,0.0,-2.187896456025893,0.0
4527408662.993,-13.43029771341559,0.0,-2.215907022323379,0.0
4527423662.9925,-13.436856209537346,0.0,-2.198199584730356,0.0
4527438662.992,-13.43370977550829,0.0,-2.219077793150763,0.0
4527453662.9915,-13.437700758614916,0.0,-2.174117756763538,0.0
4527468662.991,-13.43763085787762,0.0,-2.185674760676676,0.0
4527483662.9905,-13.441894529116764,0.0,-2.25557152038503,0.0
4527498662.99,-13.44697151673804,0.0,-2.1507881855216224,0.0
4527513662.9895,-13.44089070767282,0.0,-2.1846184856156756,0.0
4527528662.989,-13.441615794783775,0.0,-2.183028092044746,0.0
4527543662.9885,-13.43536562535373,0.0,-2.152565000808372,0.0
4527558662.988,-13.442460656618326,0.0,-2.2001599084717935,0.0
4527573662.9875,-13.435082560989187,0.0,-2.173071243524137,0.0
4527588662.987,-13.438010138698505,0.0,-2.1686948663302905,0.0
4527603662.9865,-13.441173274996316,0.0,-2.1574222821007654,0.0
4527618662.986,-13.438816429418551,0.0,-2.1746405667686486,0.0
4527633662.9855,-13.436252649979208,0.0,-2.216987527118262,0.0
4527648662.985,-13.437314845495118,0.0,-2.1640782007572303,0.0
4527663662.9845,-13.443503124339312,0.0,-2.2045281331894975,0.0
4527678662.984,-13.431599913231366,0.0,-2.2555378900638368,0.0
4527693662.9835,-13.44212354842243,0.0,-2.1771676547971452,0.0
4527708662.983,-13.4361635227946,0.0,-2.1993499639619456,0.0
4527723662.9825,-13.430948090527277,0.0,-2.212585008745941,0.0
4527738662.982,-13.439675392228827,0.0,-2.220518634888959,0.0
4527753662.9815,-13.436592133190173,0.0,-2.2450297662420904,0.0
4527768662.981,-13.43771173938191,0.0,-2.21194475248394,0.0
4527783662.9805,-13.441787331551529,0.0,-2.243230283739046,0.0
4527798662.98,-13.439708071423883,0.0,-2.251508653910376,0.0
4527813662.9795,-13.446102784215787,0.0,-2.2075245295331167,0.0
4527828662.979,-13.448014575979938,0.0,-2.29749297594085,0.0
4527843662.9785,-13.43960490772352,0.0,-2.255711421161565,0.0
4527858662.978,-13.430561258852762,0.0,-2.174620048760807,0.0
4527873662.9775,-13.441547226415778,0.0,-2.2418928106853655,0.0
4527888662.977,-13.438202517759436,0.0,-2.214772597414158,0.0
4527903662.9765,-13.439545036858373,0.0,-2.3157137350186154,0.0
4527918662.976,-13.446804411635863,0.0,-2.2715946801481866,0.0
4527933662.9755,-13.44594320393636,0.0,-2.2495459454812816,0.0
4527948662.975,-13.442715574336253,0.0,-2.1445201115838928,0.0
4527963662.9745,-13.440620216435025,0.0,-2.1825887454249244,0.0
4527978662.974,-13.438900248426958,0.0,-2.2543084515061724,0.0
4527993662.9735,-13.447450524966174,0.0,-2.2309738614904293,0.0
4528008662.973,-13.438817460666117,0.0,-2.2427402135681187,0.0
4528023662.9725,-13.43327541913955,0.0,-2.2809137627886,0.0
4528038662.972,-13.44336870952832,0.0,-2.2150987792970835,0.0
4528053662.9715,-13.43491019843168,0.0,-2.271015118502604,0.0
4528068662.971,-13.43921278393523,0.0,-2.1914363182674403,0.0
4528083662.9705,-13.447249114208937,0.0,-2.2449196764750363,0.0
4528098662.97,-13.446595320066743,0.0,-2.2364636338454726,0.0
4528113662.9695,-13.442055674261473,0.0,-2.17606823961852,0.0
4528128662.969,-13.434496452976108,0.0,-2.2388030621810304,0.0
4528143662.9685,-13.437144089705804,0.0,-2.2918774626054383,0.0
4528158662.968,-13.438085487201178,0.0,-2.286012566089902,0.0
4528173662.9675,-13.43343289225869,0.0,-2.2794068378333066,0.0
4528188662.967,-13.435180624676278,0.0,-2.308785826512804,0.0
4528203662.9665,-13.435832937286262,0.0,-2.2861213067204367,0.0
4528218662.966,-13.44272118067906,0.0,-2.355892240791074,0.0
4528233662.9655,-13.440070182931818,0.0,-2.199387395975764,0.0
4528248662.965,-13.438279417619452,0.0,-2.311028755150353,0.0
4528263662.9645,-13.436040556689136,0.0,-2.287597041169398,0.0
4528278662.964,-13.444926582957144,0.0,-2.3072867574388445,0.0
4528293662.9635,-13.436732998188381,0.0,-2.215072994762612,0.0
4528308662.963,-13.443468476855502,0.0,-2.287127666670244,0.0
4528323662.9625,-13.448615741071428,0.0,-2.2683233298814383,0.0
4528338662.962,-13.444117573683803,0.0,-2.301142326366634,0.0
4528353662.9615,-13.438568673065255,0.0,-2.2520224073293087,0.0
4528368662.961,-13.439484108076801,0.0,-2.2708634187011403,0.0
4528383662.9605,-13.455396565077184,0.0,-2.3338136448389633,0.0
4528398662.96,-13.43926373307038,0.0,-2.36461260214448,0.0
4528413662.9595,-13.434162158321532,0.0,-2.3000315770067,0.0
4528428662.959,-13.430319098492763,0.0,-2.307488405513007,0.0
4528443662.9585,-13.450022727976197,0.0,-2.2646286804733573,0.0
4528458662.958,-13.440027221143424,0.0,-2.271502264778418,0.0
4528473662.9575,-13.429563525551025,0.0,-2.3205899651606967,0.0
4528488662.957,-13.438643182394408,0.0,-2.3305893529349437,0.0
4528503662.9565,-13.4476315162085,0.0,-2.251512413217276,0.0
4528518662.956,-13.441172823278386,0.0,-2.3465255600267754,0.0
4528533662.9555,-13.43982989238955,0.0,-2.3627628129949176,0.0
4528548662.955,-13.431951698415531,0.0,-2.2967149059259455,0.0
4528563662.9545,-13.435578560331834,0.0,-2.3252905257258254,0.0
4528578662.954,-13.434103911869457,0.0,-2.362444573530661,0.0
4528593662.9535,-13.439097583472378,0.0,-2.3223730934631686,0.0
4528608662.953,-13.4357854845681,0.0,-2.312714956574536,0.0
4528623662.9525,-13.43276471304421,0.0,-2.3424141294742533,0.0
4528638662.952,-13.43527830128018,0.0,-2.351229033975989,0.0
4528653662.9515,-13.443605120489261,0.0,-2.333702580640989,0.0
4528668662.951,-13.437585104883443,0.0,-2.3231398953921225,0.0
4528683662.9505,-13.43876946831356,0.0,-2.253597069843368,0.0
4528698662.95,-13.445821042250117,0.0,-2.3722443348439186,0.0
4528713662.9495,-13.442249612835402,0.0,-2.3183020728093497,0.0
4528728662.949,-13.448205164568876,0.0,-2.3760757550621334,0.0
4528743662.9485,-13.449336704556652,0.0,-2.2595334493060366,0.0
4528758662.948,-13.435053185539338,0.0,-2.338648601178553,0.0
4528773662.9475,-13.441972975133947,0.0,-2.3504308732400534,0.0
4528788662.947,-13.437556670768156,0.0,-2.3124126322336678,0.0
4528803662.9465,-13.44276486524683,0.0,-2.3970926495484686,0.0
4528818662.946,-13.432149483105785,0.0,-2.3637295539473886,0.0
4528833662.9455,-13.4418553828937,0.0,-2.4326083450653218,0.0
4528848662.945,-13.441268608731571,0.0,-2.3509532293524438,0.0
4528863662.9445,-13.446483391419566,0.0,-2.3213345320336423,0.0
4528878662.944,-13.442379376861615,0.0,-2.342322276280341,0.0
4528893662.9435,-13.445010515545931,0.0,-2.3153886821130016,0.0
4528908662.943,-13.449845900786704,0.0,-2.4042603225669255,0.0
4528923662.9425,-13.43632381787337,0.0,-2.360181051393215,0.0
4528938662.942,-13.438251460186702,0.0,-2.405132248905879,0.0
4528953662.9415,-13.440238905767295,0.0,-2.361749472940012,0.0
4528968662.941,-13.451126431904445,0.0,-2.339037928065515,0.0
4528983662.9405,-13.445331281413937,0.0,-2.376465544140074,0.0
4528998662.94,-13.44483456796713,0.0,-2.4214915837643236,0.0
4529013662.9395,-13.445131614154224,0.0,-2.4258930380130352,0.0
4529028662.939,-13.441389499074482,0.0,-2.3733071918856457,0.0
4529043662.9385,-13.441130113487576,0.0,-2.4476401816001454,0.0
4529058662.938,-13.436385267560336,0.0,-2.3652772192917126,0.0
4529073662.9375,-13.436522752786361,0.0,-2.411790929202968,0.0
4529088662.937,-13.433692285587197,0.0,-2.3346163883406312,0.0
4529103662.9365,-13.438216692678377,0.0,-2.412549545176223,0.0
4529118662.936,-13.432672406674609,0.0,-2.4329605240724246,0.0
4529133662.9355,-13.450184399400042,0.0,-2.368698195342459,0.0
4529148662.935,-13.43100703180122,0.0,-2.3980461942337894,0.0
4529163662.9345,-13.448572201655155,0.0,-2.4616328733579977,0.0
4529178662.934,-13.438782161488326,0.0,-2.406295057945125,0.0
4529193662.9335,-13.445173969870638,0.0,-2.4719192649423922,0.0
4529208662.933,-13.436655856290084,0.0,-2.4062829017302234,0.0
4529223662.9325,-13.444910151634765,0.0,-2.384260078490404,0.0
4529238662.932,-13.446015625526329,0.0,-2.405479147420266,0.0
4529253662.9315,-13.44577916729677,0.0,-2.3613185191609114,0.0
4529268662.931,-13.44053497898015,0.0,-2.465954054980556,0.0
4529283662.9305,-13.444084942352106,0.0,-2.473823576107741,0.0
4529298662.93,-13.43698624826674,0.0,-2.375843515801585,0.0
4529313662.9295,-13.443651363182362,0.0,-2.4980473546720487,0.0
4529328662.929,-13.443728007870966,0.0,-2.42521594978434,0.0
4529343662.9285,-13.436102597699586,0.0,-2.421326600949647,0.0
4529358662.928,-13.435298771194722,0.0,-2.453126624408698,0.0
4529373662.9275,-13.451914926546294,0.0,-2.430582051443724,0.0
4529388662.927,-13.450414467193747,0.0,-2.3718687121731157,0.0
4529403662.9265,-13.448013187666703,0.0,-2.4220073955980874,0.0
4529418662.926,-13.440178571967955,0.0,-2.411209606504735,0.0
4529433662.9255,-13.446306393142153,0.0,-2.433076151731974,0.0
4529448662.925,-13.439865051881807,0.0,-2.419633711413667,0.0
4529463662.9245,-13.43704807337839,0.0,-2.413978987188788,0.0
4529478662.924,-13.447193759545806,0.0,-2.406141659598525,0.0
4529493662.9235,-13.444424887528601,0.0,-2.4155088521972896,0.0
4529508662.923,-13.441999930334125,0.0,-2.4810191279940526,0.0
4529523662.9225,-13.447189818272108,0.0,-2.456687447074796,0.0
4529538662.922,-13.448826204268782,0.0,-2.4998224903490507,0.0
4529553662.9215,-13.448903547069467,0.0,-2.411398201930612,0.0
4529568662.921,-13.44898614470315,0.0,-2.456802560605452,0.0
4529583662.9205,-13.440144799736162,0.0,-2.528700552315707,0.0
4529598662.92,-13.443087850041396,0.0,-2.400377673789456,0.0
4529613662.9195,-13.44834481863186,0.0,-2.4597665771584967,0.0
4529628662.919,-13.44081232257808,0.0,-2.561895025491427,0.0
4529643662.9185,-13.443923181482194,0.0,-2.527790425143341,0.0
4529658662.918,-13.437943888677262,0.0,-2.4865755494296153,0.0
4529673662.9175,-13.445641235686502,0.0,-2.5264315244635633,0.0
4529688662.917,-13.440506717578664,0.0,-2.4825936152457415,0.0
4529703662.9165,-13.431475287881813,0.0,-2.5513822733020497,0.0
4529718662.916,-13.444277624044659,0.0,-2.498245441648378,0.0
4529733662.9155,-13.439890096338143,0.0,-2.4887598869052967,0.0
4529748662.915,-13.433796645055466,0.0,-2.511441986222357,0.0
4529763662.9145,-13.44548976613821,0.0,-2.4779780972895757,0.0
4529778662.914,-13.445607495192736,0.0,-2.5227616088376594,0.0
4529793662.9135,-13.440673949333188,0.0,-2.5464036574772257,0.0
4529808662.913,-13.443315566917743,0.0,-2.4960181885597854,0.0
4529823662.9125,-13.44701059050059,0.0,-2.4906880776358564,0.0
4529838662.912,-13.446948023759306,0.0,-2.5769277838761906,0.0
4529853662.9115,-13.445223968070207,0.0,-2.5212067250867367,0.0
4529868662.911,-13.44891995343832,0.0,-2.5765863382828633,0.0
4529883662.9105,-13.443951220644648,0.0,-2.507876811435511,0.0
4529898662.91,-13.44833655560771,0.0,-2.5255770647526834,0.0
4529913662.9095,-13.449789410562332,0.0,-2.482191612709807,0.0
4529928662.909,-13.442995401657774,0.0,-2.5027283944086656,0.0
4529943662.9085,-13.457380707134552,0.0,-2.608437343912065,0.0
4529958662.908,-13.445644503583862,0.0,-2.4937967092528663,0.0
4529973662.9075,-13.443870428938283,0.0,-2.622645689954391,0.0
4529988662.907,-13.447068259154022,0.0,-2.497548785416741,0.0
4530003662.9065,-13.443613350894585,0.0,-2.5483479015294894,0.0
4530018662.906,-13.44448559581986,0.0,-2.5143649767484804,0.0
4530033662.9055,-13.445711881414056,0.0,-2.5831761105780595,0.0
4530048662.905,-13.445278294236358,0.0,-2.4746271841830665,0.0
4530063662.9045,-13.44635329605136,0.0,-2.56428259644197,0.0
4530078662.904,-13.448919493834694,0.0,-2.5900638144689596,0.0
4530093662.9035,-13.450301811852821,0.0,-2.5352259240030235,0.0
4530108662.903,-13.439984627414137,0.0,-2.582796187310069,0.0
4530123662.9025,-13.443903191714654,0.0,-2.5553064506674703,0.0
4530138662.902,-13.450338845810483,0.0,-2.556213792388666,0.0
4530153662.9015,-13.456166181187525,0.0,-2.582261373956479,0.0
4530168662.901,-13.447199714546063,0.0,-2.59790530395063,0.0
4530183662.9005,-13.451123179175609,0.0,-2.533522806467471,0.0
4530198662.9,-13.443605729303451,0.0,-2.5838222392226493,0.0
4530213662.8995,-13.442956588425547,0.0,-2.6024668656927945,0.0
4530228662.899,-13.44722927615262,0.0,-2.583757416235655,0.0
4530243662.8985,-13.441318826648574,0.0,-2.559165730969118,0.0
4530258662.898,-13.444978957195946,0.0,-2.556704464456305,0.0
4530273662.8975,-13.454190298231692,0.0,-2.566174164775346,0.0
4530288662.897,-13.445192662144018,0.0,-2.5601139631698553,0.0
4530303662.8965,-13.439396181125298,0.0,-2.5879294294877657,0.0
4530318662.896,-13.441523040725,0.0,-2.6119429810127937,0.0
4530333662.8955,-13.446260928283284,0.0,-2.5467063616423893,0.0
4530348662.895,-13.456426980355662,0.0,-2.6383299417876156,0.0
4530363662.8945,-13.449932524068162,0.0,-2.5945339903195794,0.0
4530378662.894,-13.447796331533597,0.0,-2.6286182436472423,0.0
4530393662.8935,-13.457790106548114,0.0,-2.615594068538367,0.0
4530408662.893,-13.452503189292786,0.0,-2.593916651829733,0.0
4530423662.8925,-13.444902485484814,0.0,-2.6585723556451915,0.0
4530438662.892,-13.444091440329736,0.0,-2.6068163311820833,0.0
4530453662.8915,-13.441573170728633,0.0,-2.661380067944939,0.0
4530468662.891,-13.44039476065535,0.0,-2.5975302059548837,0.0
4530483662.8905,-13.446246596735413,0.0,-2.636448822223151,0.0
4530498662.89,-13.447304724999842,0.0,-2.561198875157486,0.0
4530513662.8895,-13.45352948284094,0.0,-2.6365449579700235,0.0
4530528662.889,-13.443039756817756,0.0,-2.594697803933438,0.0
4530543662.8885,-13.448229055841725,0.0,-2.6553825219283547,0.0
4530558662.888,-13.449626728277979,0.0,-2.593225853399298,0.0
4530573662.8875,-13.442100619303115,0.0,-2.680719734703686,0.0
4530588662.887,-13.447872554293305,0.0,-2.6338679460763976,0.0
4530603662.8865,-13.442373573697937,0.0,-2.6466138922373212,0.0
4530618662.886,-13.445747560999926,0.0,-2.67071934868504,0.0
4530633662.8855,-13.451633489066325,0.0,-2.7001683680340536,0.0
4530648662.885,-13.453630117702657,0.0,-2.635352418584046,0.0
4530663662.8845,-13.454549628559008,0.0,-2.6560479978069256,0.0
4530678662.884,-13.450414764786325,0.0,-2.6724006779423712,0.0
4530693662.8835,-13.447194709651098,0.0,-2.626597239214719,0.0
4530708662.883,-13.453579991348237,0.0,-2.674187556610674,0.0
4530723662.8825,-13.455441052964858,0.0,-2.70330973081702,0.0
4530738662.882,-13.448858955466962,0.0,-2.6684941698586537,0.0
4530753662.8815,-13.448986402125755,0.0,-2.659990676313282,0.0
4530768662.881,-13.456279865202704,0.0,-2.6597994585988824,0.0
4530783662.8805,-13.450036580260083,0.0,-2.716982424398442,0.0
4530798662.88,-13.447361889449649,0.0,-2.7273853108200705,0.0
4530813662.8795,-13.453976488178807,0.0,-2.664223213587265,0.0
4530828662.879,-13.449031441162578,0.0,-2.703137190534789,0.0
4530843662.8785,-13.460332547704528,0.0,-2.6863827271255087,0.0
4530858662.878,-13.455663788468621,0.0,-2.7084442764849608,0.0
4530873662.8775,-13.440167543207744,0.0,-2.6936023752347498,0.0
4530888662.877,-13.457377782117756,0.0,-2.7142317154463873,0.0
4530903662.8765,-13.448732045089795,0.0,-2.723266179373848,0.0
4530918662.876,-13.459521530158298,0.0,-2.584538409769423,0.0
4530933662.8755,-13.446864027211937,0.0,-2.663902035533127,0.0
4530948662.875,-13.456286859787504,0.0,-2.698570104893757,0.0
4530963662.8745,-13.456901675146678,0.0,-2.6990137249865476,0.0
4530978662.874,-13.457249015299823,0.0,-2.6618458980320843,0.0
4530993662.8735,-13.445280604826435,0.0,-2.6780701808100926,0.0
4531008662.873,-13.449423654338684,0.0,-2.7062517518860996,0.0
4531023662.8725,-13.449609279722399,0.0,-2.714625017135453,0.0
4531038662.872,-13.445399205380447,0.0,-2.7436405650974227,0.0
4531053662.8715,-13.451714559615793,0.0,-2.6971696623661194,0.0
4531068662.871,-13.450037300600485,0.0,-2.71915503365793,0.0
4531083662.8705,-13.447765770618563,0.0,-2.6559537173367045,0.0
4531098662.87,-13.4603451665761,0.0,-2.756831130357882,0.0
4531113662.8695,-13.45228129203499,0.0,-2.711306555150744,0.0
4531128662.869,-13.446491000184647,0.0,-2.7996176840789135,0.0
4531143662.8685,-13.45258466778354,0.0,-2.8091806434472963,0.0
4531158662.868,-13.44400912010035,0.0,-2.716611488387953,0.0
4531173662.8675,-13.440793479296147,0.0,-2.795142965790262,0.0
4531188662.867,-13.456071491880477,0.0,-2.781899421636839,0.0
4531203662.8665,-13.459134922380052,0.0,-2.792161048482022,0.0
4531218662.866,-13.461281917715311,0.0,-2.688567261321986,0.0
4531233662.8655,-13.447914656503015,0.0,-2.733205255409589,0.0
4531248662.865,-13.448634422043739,0.0,-2.805750512040972,0.0
4531263662.8645,-13.44516827826872,0.0,-2.7622889142317444,0.0
4531278662.864,-13.450087241954902,0.0,-2.7019586498105697,0.0
4531293662.8635,-13.44526886508304,0.0,-2.7792824908546896,0.0
4531308662.863,-13.451842037372906,0.0,-2.7607690278386827,0.0
4531323662.8625,-13.458799778699714,0.0,-2.7642370512517243,0.0
4531338662.862,-13.446517330268566,0.0,-2.798732256565168,0.0
4531353662.8615,-13.448404665604414,0.0,-2.6971614916579694,0.0
4531368662.861,-13.44742961291281,0.0,-2.772659450450487,0.0
4531383662.8605,-13.45794578698415,0.0,-2.7568325317285987,0.0
4531398662.86,-13.447530367849513,0.0,-2.7482117105831505,0.0
4531413662.8595,-13.452178566571238,0.0,-2.8582957301069354,0.0
4531428662.859,-13.443211782289357,0.0,-2.7337913659111353,0.0
4531443662.8585,-13.455933107836032,0.0,-2.788398165330875,0.0
4531458662.858,-13.448385761303133,0.0,-2.7838007385077868,0.0
4531473662.8575,-13.450636750577633,0.0,-2.7818300600319943,0.0
4531488662.857,-13.448572276438737,0.0,-2.8484377900746995,0.0
4531503662.8565,-13.448233115187495,0.0,-2.823919922573515,0.0
4531518662.856,-13.454648512356668,0.0,-2.8210416794787214,0.0
4531533662.8555,-13.439079167174121,0.0,-2.8375923396912945,0.0
4531548662.855,-13.451887661751275,0.0,-2.830787609571867,0.0
4531563662.8545,-13.452255014746964,0.0,-2.8317318090872354,0.0
4531578662.854,-13.450833701182338,0.0,-2.7868940873635055,0.0
4531593662.8535,-13.4582169527302,0.0,-2.844079274406052,0.0
4531608662.853,-13.445900444984302,0.0,-2.8143408572445803,0.0
4531623662.8525,-13.453489394878178,0.0,-2.827662425513192,0.0
4531638662.852,-13.445624554132111,0.0,-2.788289086897129,0.0
4531653662.8515,-13.453612483743182,0.0,-2.8977493111576265,0.0
4531668662.851,-13.457399724042897,0.0,-2.888847617610233,0.0
4531683662.8505,-13.44960580653662,0.0,-2.83199902151262,0.0
4531698662.85,-13.448432100817184,0.0,-2.84050585304391,0.0
4531713662.8495,-13.449875447452664,0.0,-2.8029468406788,0.0
4531728662.849,-13.452645138554612,0.0,-2.8397562905903464,0.0
4531743662.8485,-13.453712545112712,0.0,-2.8692031205748756,0.0
4531758662.848,-13.4514869595925,0.0,-2.753673224703427,0.0
4531773662.8475,-13.457062199394986,0.0,-2.823080617384991,0.0
4531788662.847,-13.458563559418042,0.0,-2.845764217477729,0.0
4531803662.8465,-13.44992623949764,0.0,-2.85096118305287,0.0
4531818662.846,-13.461183263001395,0.0,-2.9100387594270436,0.0
4531833662.8455,-13.456165220381088,0.0,-2.875333086080315,0.0
4531848662.845,-13.451468632531986,0.0,-2.840871273502269,0.0
4531863662.8445,-13.456869621785541,0.0,-2.824878940082944,0.0
4531878662.844,-13.45454240482736,0.0,-2.881216182586546,0.0
