Frequency,S11,S11-Q,S11-Phase,S11-Phase-Q
4527198663.0,-13.411766347536176,0.0,-2.8104027252434265,0.0
4527213662.9995,-13.403783227327942,0.0,-2.8019510456253753,0.0
4527228662.999,-13.406682314566673,0.0,-2.822223944157838,0.0
4527243662.9985,-13.40479106378927,0.0,-2.821268595094393,0.0
4527258662.998,-13.402024417905697,0.0,-2.885031705523831,0.0
4527273662.9975,-13.41075035298089,0.0,-2.8201816255809287,0.0
4527288662.997,-13.406820759694394,0.0,-2.869917235041567,0.0
4527303662.9965,-13.41365662557977,0.0,-2.8984641398048607,0.0
4527318662.996,-13.412973778108368,0.0,-2.8626893323374465,0.0
4527333662.9955,-13.41287595644255,0.0,-2.867082252843023,0.0
4527348662.995,-13.407729149056722,0.0,-2.86806083604712,0.0
4527363662.9945,-13.398692256790397,0.0,-2.8670792775749394,0.0
4527378662.994,-13.401854528878719,0.0,-2.8231208727752612,0.0
4527393662.9935,-13.41340315377155,0.0,-2.8372103900183028,0.0
4527408662.993,-13.407016011636184,0.0,-2.889265815382398,0.0
4527423662.9925,-13.405907444222155,0.0,-2.7871023908225845,0.0
4527438662.992,-13.407383680695377,0.0,-2.8287353085280835,0.0
4527453662.9915,-13.413473566120055,0.0,-2.844596971134687,0.0
4527468662.991,-13.411627859428064,0.0,-2.846245584364307,0.0
4527483662.9905,-13.411035609151615,0.0,-2.9115411012554615,0.0
4527498662.99,-13.401587399608513,0.0,-2.86872880053536,0.0
4527513662.9895,-13.408009334791275,0.0,-2.9395178483248747,0.0
4527528662.989,-13.41528632560733,0.0,-2.8024290380725025,0.0
4527543662.9885,-13.413716422847774,0.0,-2.882842512327907,0.0
4527558662.988,-13.415782379679888,0.0,-2.8345431119115325,0.0
4527573662.9875,-13.40998395403477,0.0,-2.9452907386136045,0.0
4527588662.987,-13.400425635472955,0.0,-2.891229230208056,0.0
4527603662.9865,-13.404386755356546,0.0,-2.9172908306986964,0.0
4527618662.986,-13.413964614049597,0.0,-2.9202279815975407,0.0
4527633662.9855,-13.411154907335433,0.0,-2.9152212018512333,0.0
4527648662.985,-13.413087130029883,0.0,-2.918251486481544,0.0
4527663662.9845,-13.41413930554374,0.0,-2.8743068144460118,0.0
4527678662.984,-13.41111455424825,0.0,-2.8888510092259554,0.0
4527693662.9835,-13.413122414568841,0.0,-2.883008093868211,0.0
4527708662.983,-13.41581777965844,0.0,-2.908712377616731,0.0
4527723662.9825,-13.415029371857827,0.0,-2.9257171719339095,0.0
4527738662.982,-13.402985353592008,0.0,-2.929747322182017,0.0
4527753662.9815,-13.401151158804685,0.0,-3.0002034295771027,0.0
4527768662.981,-13.41141359344621,0.0,-2.9030033589878332,0.0
4527783662.9805,-13.415875409043247,0.0,-2.8937269905332967,0.0
4527798662.98,-13.405734113040705,0.0,-2.8790442641628555,0.0
4527813662.9795,-13.402802304477744,0.0,-2.944256831391732,0.0
4527828662.979,-13.413211941024645,0.0,-2.9313748097270516,0.0
4527843662.9785,-13.413238549010169,0.0,-2.9480906424860356,0.0
4527858662.978,-13.406568279121043,0.0,-2.958779927195409,0.0
4527873662.9775,-13.408378238032146,0.0,-2.952299900075908,0.0
4527888662.977,-13.40196289330729,0.0,-2.97925310880711,0.0
4527903662.9765,-13.418821881863858,0.0,-2.9191052516681175,0.0
4527918662.976,-13.406057572286505,0.0,-2.958658003606966,0.0
4527933662.9755,-13.414507558891838,0.0,-2.923439891143585,0.0
4527948662.975,-13.410450310601313,0.0,-2.9714517114954933,0.0
4527963662.9745,-13.404380723290462,0.0,-2.9699883370136506,0.0
4527978662.974,-13.4110372296174,0.0,-2.9512082364926218,0.0
4527993662.9735,-13.404462703983667,0.0,-2.917074057124651,0.0
4528008662.973,-13.412507891890824,0.0,-2.9772448478351596,0.0
4528023662.9725,-13.412645844066777,0.0,-2.9750862965554066,0.0
4528038662.972,-13.407848057941576,0.0,-2.980831656807001,0.0
4528053662.9715,-13.408686853174178,0.0,-3.0065776539263727,0.0
4528068662.971,-13.407129748043829,0.0,-2.906736616366049,0.0
4528083662.9705,-13.416871735528256,0.0,-3.023829848418395,0.0
4528098662.97,-13.408909087867425,0.0,-2.9574795410567907,0.0
4528113662.9695,-13.413598817011195,0.0,-3.022294627412064,0.0
4528128662.969,-13.409392162594118,0.0,-2.9886510061783897,0.0
4528143662.9685,-13.407741725580046,0.0,-3.0149704339848844,0.0
4528158662.968,-13.41672348874364,0.0,-2.958220390198114,0.0
4528173662.9675,-13.41363251848785,0.0,-2.984329756389507,0.0
4528188662.967,-13.404167669177236,0.0,-2.96910598679614,0.0
4528203662.9665,-13.409380391354953,0.0,-2.963996658744839,0.0
4528218662.966,-13.4209955954089,0.0,-3.045933865763261,0.0
4528233662.9655,-13.403134557359033,0.0,-2.9601162211857246,0.0
4528248662.965,-13.410100678418145,0.0,-2.96822597269641,0.0
4528263662.9645,-13.41454958010128,0.0,-3.0229394129134017,0.0
4528278662.964,-13.4141676277517,0.0,-2.981099465687506,0.0
4528293662.9635,-13.400200253596275,0.0,-2.9497397221190926,0.0
4528308662.963,-13.411976016151709,0.0,-2.8988629078092703,0.0
4528323662.9625,-13.415010440100483,0.0,-3.040607468291884,0.0
4528338662.962,-13.407414927361419,0.0,-2.985816276373483,0.0
4528353662.9615,-13.418068108737181,0.0,-3.0035254245086156,0.0
4528368662.961,-13.418887355337452,0.0,-3.013229658559776,0.0
4528383662.9605,-13.409529445062152,0.0,-3.0023936045570685,0.0
4528398662.96,-13.42167171475809,0.0,-3.019646372029536,0.0
4528413662.9595,-13.40374416621168,0.0,-2.9778461247608283,0.0
4528428662.959,-13.410544749465013,0.0,-3.068876168743017,0.0
4528443662.9585,-13.418339528870328,0.0,-3.052614398221552,0.0
4528458662.958,-13.415824370761358,0.0,-3.041344977746098,0.0
4528473662.9575,-13.41311054237815,0.0,-3.09334083166586,0.0
4528488662.957,-13.421466195129954,0.0,-3.0542616710193022,0.0
4528503662.9565,-13.40817515738879,0.0,-3.048561924330161,0.0
4528518662.956,-13.417240516728926,0.0,-3.073239368422222,0.0
4528533662.9555,-13.414779395300386,0.0,-3.030582640756124,0.0
4528548662.955,-13.413393591749593,0.0,-2.982563493978491,0.0
4528563662.9545,-13.407580009411461,0.0,-3.043530932919011,0.0
4528578662.954,-13.408143500368766,0.0,-3.0459898034654675,0.0
4528593662.9535,-13.417909688468715,0.0,-2.9895331537179235,0.0
4528608662.953,-13.411820915259645,0.0,-3.0464690367719554,0.0
4528623662.9525,-13.41302114399345,0.0,-3.025987084615559,0.0
4528638662.952,-13.419257157244493,0.0,-3.0778858242856835,0.0
4528653662.9515,-13.409171757437825,0.0,-3.075897500547557,0.0
4528668662.951,-13.408246171146628,0.0,-3.022014792102578,0.0
4528683662.9505,-13.410209296943552,0.0,-3.0628755037777853,0.0
4528698662.95,-13.411232412301697,0.0,-3.141774876156566,0.0
4528713662.9495,-13.413217588957426,0.0,-3.0926700330851493,0.0
4528728662.949,-13.41398262542137,0.0,-3.060934770369635,0.0
4528743662.9485,-13.401947445157278,0.0,-3.0676093337312444,0.0
4528758662.948,-13.413031428938801,0.0,-3.125275268201524,0.0
4528773662.9475,-13.410074832065353,0.0,-3.128300100520892,0.0
4528788662.947,-13.413906398838819,0.0,-3.054832549296358,0.0
4528803662.9465,-13.418490964705015,0.0,-3.1211954347754314,0.0
4528818662.946,-13.4106936770965,0.0,-3.057185427405424,0.0
4528833662.9455,-13.41328032952432,0.0,-3.0880882183285014,0.0
4528848662.945,-13.40803795671934,0.0,-3.1712668643814825,0.0
4528863662.9445,-13.420988334481878,0.0,-3.078489335038039,0.0
4528878662.944,-13.41478552231997,0.0,-3.1663370088890823,0.0
4528893662.9435,-13.412543917762987,0.0,-3.121800289789496,0.0
4528908662.943,-13.417425274776903,0.0,-3.132200166901406,0.0
4528923662.9425,-13.407130681998414,0.0,-3.1212635010362044,0.0
4528938662.942,-13.411979464809674,0.0,-3.146962654617887,0.0
4528953662.9415,-13.413279491650682,0.0,-3.081216352570131,0.0
4528968662.941,-13.409319816474047,0.0,-3.1548800858245305,0.0
4528983662.9405,-13.404723212978793,0.0,-3.0808223134668093,0.0
4528998662.94,-13.41339496548851,0.0,-3.1323550679072083,0.0
4529013662.9395,-13.406217083707489,0.0,-3.136272464481126,0.0
4529028662.939,-13.412227870838674,0.0,-3.172924058543104,0.0
4529043662.9385,-13.40616597020944,0.0,-3.1817681893319247,0.0
4529058662.938,-13.409179592610274,0.0,-3.215332107270721,0.0
4529073662.9375,-13.416897449281457,0.0,-3.1756010900467007,0.0
4529088662.937,-13.413354518523228,0.0,-3.0871187895270262,0.0
4529103662.9365,-13.408560303381387,0.0,-3.1425864436461644,0.0
4529118662.936,-13.411105559373386,0.0,-3.1515013641266045,0.0
4529133662.9355,-13.409347196526753,0.0,-3.159904587289679,0.0
4529148662.935,-13.415833278198441,0.0,-3.147189437379487,0.0
4529163662.9345,-13.410648182998656,0.0,-3.161967112761123,0.0
4529178662.934,-13.417625559493242,0.0,-3.140575306730785,0.0
4529193662.9335,-13.415260775678014,0.0,-3.1547042387656434,0.0
4529208662.933,-13.413684054499193,0.0,-3.128181069823556,0.0
4529223662.9325,-13.413792234733627,0.0,-3.1436551589580928,0.0
4529238662.932,-13.412513553170179,0.0,-3.099701818228167,0.0
4529253662.9315,-13.411003333738908,0.0,-3.150841200930196,0.0
4529268662.931,-13.424981356031346,0.0,-3.130981232626087,0.0
4529283662.9305,-13.409580509667844,0.0,-3.185266375471604,0.0
4529298662.93,-13.409469392473806,0.0,-3.218514318549494,0.0
4529313662.9295,-13.411199793378666,0.0,-3.114666898205217,0.0
4529328662.929,-13.41197270449854,0.0,-3.2199454793182958,0.0
4529343662.9285,-13.416121914927565,0.0,-3.1876052055916273,0.0
4529358662.928,-13.420559324951547,0.0,-3.163033216761472,0.0
4529373662.9275,-13.412581194818738,0.0,-3.1889797262832174,0.0
4529388662.927,-13.417661154164989,0.0,-3.202793478019638,0.0
4529403662.9265,-13.41215364016944,0.0,-3.177205056094788,0.0
4529418662.926,-13.41944929740028,0.0,-3.250191615470989,0.0
4529433662.9255,-13.407279399325688,0.0,-3.214270773553222,0.0
4529448662.925,-13.407553076933507,0.0,-3.22696067524559,0.0
4529463662.9245,-13.396589743759304,0.0,-3.246933996713453,0.0
4529478662.924,-13.418682522043824,0.0,-3.2388522089379643,0.0
4529493662.9235,-13.41076514122641,0.0,-3.2884365366378026,0.0
4529508662.923,-13.416101158027365,0.0,-3.2101187987618203,0.0
4529523662.9225,-13.40106436217643,0.0,-3.2407319211892456,0.0
4529538662.922,-13.417405406529781,0.0,-3.234643466237234,0.0
4529553662.9215,-13.410586351427895,0.0,-3.2736111262006657,0.0
4529568662.921,-13.415256109039543,0.0,-3.2069882912363217,0.0
4529583662.9205,-13.418169416548551,0.0,-3.2347095736699,0.0
4529598662.92,-13.420274248466473,0.0,-3.217976489628992,0.0
4529613662.9195,-13.417142663832495,0.0,-3.2147870860132306,0.0
4529628662.919,-13.425836912416543,0.0,-3.1866255779872903,0.0
4529643662.9185,-13.418137455707884,0.0,-3.2356913361964517,0.0
4529658662.918,-13.420326394722796,0.0,-3.2271002019705155,0.0
4529673662.9175,-13.41633500829146,0.0,-3.224372198506687,0.0
4529688662.917,-13.418578949710902,0.0,-3.288123301652149,0.0
4529703662.9165,-13.420854779069336,0.0,-3.288472648763963,0.0
4529718662.916,-13.418295856095313,0.0,-3.23487099718211,0.0
4529733662.9155,-13.421370987805798,0.0,-3.349452194472697,0.0
4529748662.915,-13.410870615027974,0.0,-3.2708962532291634,0.0
4529763662.9145,-13.41519843548362,0.0,-3.2336243863892657,0.0
4529778662.914,-13.412553609028377,0.0,-3.303816429397326,0.0
4529793662.9135,-13.418431509343272,0.0,-3.2473065418366605,0.0
4529808662.913,-13.423500027812613,0.0,-3.3027415634474258,0.0
4529823662.9125,-13.41091178002403,0.0,-3.237311373481774,0.0
4529838662.912,-13.420155841939103,0.0,-3.288522258176151,0.0
4529853662.9115,-13.420041707199687,0.0,-3.256995936846067,0.0
4529868662.911,-13.406244607718351,0.0,-3.325813486556003,0.0
4529883662.9105,-13.410459385107519,0.0,-3.278499743964024,0.0
4529898662.91,-13.419833105772483,0.0,-3.3166150709490516,0.0
4529913662.9095,-13.420005570087808,0.0,-3.308813238991222,0.0
4529928662.909,-13.414241390641806,0.0,-3.2583020629174335,0.0
4529943662.9085,-13.424919117783272,0.0,-3.348032315454562,0.0
4529958662.908,-13.4038731986133,0.0,-3.316692888451936,0.0
4529973662.9075,-13.418035644342627,0.0,-3.3289871903195074,0.0
4529988662.907,-13.423310976389368,0.0,-3.336367600666866,0.0
4530003662.9065,-13.422099104211354,0.0,-3.3487079062858847,0.0
4530018662.906,-13.42853137439434,0.0,-3.2988988723616264,0.0
4530033662.9055,-13.415992907184307,0.0,-3.3056012753334043,0.0
4530048662.905,-13.412481077806948,0.0,-3.2541352699010453,0.0
4530063662.9045,-13.421600459137633,0.0,-3.266560855182579,0.0
4530078662.904,-13.417798296220067,0.0,-3.2958729397849837,0.0
4530093662.9035,-13.418552639826034,0.0,-3.3996373863870777,0.0
4530108662.903,-13.416741773935975,0.0,-3.3354050463822773,0.0
4530123662.9025,-13.421118541452273,0.0,-3.386011056747016,0.0
4530138662.902,-13.412350393964704,0.0,-3.3448622898396265,0.0
4530153662.9015,-13.413659471086092,0.0,-3.3451485486765367,0.0
4530168662.901,-13.41923777569118,0.0,-3.401730161483623,0.0
4530183662.9005,-13.422224849636796,0.0,-3.3940446449803643,0.0
4530198662.9,-13.410295823496831,0.0,-3.350662498322708,0.0
4530213662.8995,-13.411247259693795,0.0,-3.3407348272326813,0.0
4530228662.899,-13.41480828546781,0.0,-3.39640151124235,0.0
4530243662.8985,-13.41631059145591,0.0,-3.398893653307555,0.0
4530258662.898,-13.41812293646208,0.0,-3.3513853222073355,0.0
4530273662.8975,-13.414596144843474,0.0,-3.3733637156285807,0.0
4530288662.897,-13.423357078911968,0.0,-3.447242036059732,0.0
4530303662.8965,-13.422331370238807,0.0,-3.342028931513984,0.0
4530318662.896,-13.413349822721461,0.0,-3.346941481292162,0.0
4530333662.8955,-13.411175611771311,0.0,-3.431146081725004,0.0
4530348662.895,-13.421219857984097,0.0,-3.443328995615896,0.0
4530363662.8945,-13.41987373175234,0.0,-3.387892458385611,0.0
4530378662.894,-13.420139941086092,0.0,-3.396242808073818,0.0
4530393662.8935,-13.416891359082594,0.0,-3.5081391437467593,0.0
4530408662.893,-13.407001027977142,0.0,-3.421056228466839,0.0
4530423662.8925,-13.422835585745679,0.0,-3.4058170476665306,0.0
4530438662.892,-13.41949642917612,0.0,-3.4484488143830005,0.0
4530453662.8915,-13.421660973462394,0.0,-3.3779133807093724,0.0
4530468662.891,-13.417861318293854,0.0,-3.4083432661877966,0.0
4530483662.8905,-13.417345704535686,0.0,-3.4233182517325873,0.0
4530498662.89,-13.414949823912721,0.0,-3.3898164987333064,0.0
4530513662.8895,-13.414018355449077,0.0,-3.444778691946112,0.0
4530528662.889,-13.416382019347786,0.0,-3.43890485700816,0.0
4530543662.8885,-13.423880147583422,0.0,-3.4444670856031245,0.0
4530558662.888,-13.422454809618733,0.0,-3.446317409388541,0.0
4530573662.8875,-13.424799253348084,0.0,-3.4660674480918354,0.0
4530588662.887,-13.408319355660428,0.0,-3.421242849532344,0.0
4530603662.8865,-13.419406196683418,0.0,-3.4333115731979325,0.0
4530618662.886,-13.416588960283315,0.0,-3.3840591206227413,0.0
4530633662.8855,-13.418137622534177,0.0,-3.4891241859934943,0.0
4530648662.885,-13.412030610915572,0.0,-3.439880077113188,0.0
4530663662.8845,-13.421500303948182,0.0,-3.475408462274257,0.0
4530678662.884,-13.42618558418497,0.0,-3.480688660243352,0.0
4530693662.8835,-13.422664381881342,0.0,-3.470040199586144,0.0
4530708662.883,-13.430670203508615,0.0,-3.4612931025942393,0.0
4530723662.8825,-13.415934780570538,0.0,-3.4582384748669583,0.0
4530738662.882,-13.42242207863784,0.0,-3.4623909644503015,0.0
4530753662.8815,-13.412642414093911,0.0,-3.542097492898024,0.0
4530768662.881,-13.415698087791764,0.0,-3.4810944124731327,0.0
4530783662.8805,-13.416280650779285,0.0,-3.519667780619735,0.0
4530798662.88,-13.42029504916521,0.0,-3.5197555571908334,0.0
4530813662.8795,-13.430666966688145,0.0,-3.527407398617286,0.0
4530828662.879,-13.415582734174201,0.0,-3.476903336451805,0.0
4530843662.8785,-13.419916522935104,0.0,-3.5816790346778715,0.0
4530858662.878,-13.41471057771092,0.0,-3.522348885634224,0.0
4530873662.8775,-13.415890970644313,0.0,-3.4891532738521533,0.0
4530888662.877,-13.422688272885555,0.0,-3.513244650562166,0.0
4530903662.8765,-13.423499858523662,0.0,-3.485600048786206,0.0
4530918662.876,-13.422805023118595,0.0,-3.504873993566252,0.0
4530933662.8755,-13.42255144549844,0.0,-3.544835994089671,0.0
4530948662.875,-13.428996418348868,0.0,-3.549830397884089,0.0
4530963662.8745,-13.427359071223412,0.0,-3.5461213861458285,0.0
4530978662.874,-13.4147431812322,0.0,-3.5152108124188484,0.0
4530993662.8735,-13.419785768891458,0.0,-3.5862081591067785,0.0
4531008662.873,-13.426072219824785,0.0,-3.521513175134439,0.0
4531023662.8725,-13.415348920549645,0.0,-3.5114784311159624,0.0
4531038662.872,-13.428316570506011,0.0,-3.5987493447695784,0.0
4531053662.8715,-13.419599260239252,0.0,-3.5361707335012147,0.0
4531068662.871,-13.427361424817864,0.0,-3.562478402140194,0.0
4531083662.8705,-13.42533585074037,0.0,-3.560612499992586,0.0
4531098662.87,-13.422493376198917,0.0,-3.5954824384146575,0.0
4531113662.8695,-13.419634267836125,0.0,-3.5672473446879165,0.0
4531128662.869,-13.420737783455113,0.0,-3.6124071738974943,0.0
4531143662.8685,-13.415199704778122,0.0,-3.569812095362915,0.0
4531158662.868,-13.413489464912498,0.0,-3.6112964538557013,0.0
4531173662.8675,-13.4262988429202,0.0,-3.558684917464037,0.0
4531188662.867,-13.42106101220815,0.0,-3.644813293340779,0.0
4531203662.8665,-13.421287867990252,0.0,-3.5622569937643145,0.0
4531218662.866,-13.425127753765123,0.0,-3.6262135196037337,0.0
4531233662.8655,-13.420358368428486,0.0,-3.646786513150462,0.0
4531248662.865,-13.4226077510056,0.0,-3.6069944248614823,0.0
4531263662.8645,-13.420034106964941,0.0,-3.602432265496599,0.0
4531278662.864,-13.418303085476255,0.0,-3.632371730077076,0.0
4531293662.8635,-13.424606443109958,0.0,-3.5749544353355773,0.0
4531308662.863,-13.428742491514079,0.0,-3.6234176412694925,0.0
4531323662.8625,-13.420140699832677,0.0,-3.688765409412123,0.0
4531338662.862,-13.417509699802848,0.0,-3.6063364930207875,0.0
4531353662.8615,-13.415613108719269,0.0,-3.6459298486186626,0.0
4531368662.861,-13.42447137715814,0.0,-3.635977329519051,0.0
4531383662.8605,-13.426464369877795,0.0,-3.6682310501012214,0.0
4531398662.86,-13.424792973927019,0.0,-3.593798281316835,0.0
4531413662.8595,-13.422933564347446,0.0,-3.698006791524134,0.0
4531428662.859,-13.428097500561353,0.0,-3.7294857900895932,0.0
4531443662.8585,-13.422577887267924,0.0,-3.6211263685187873,0.0
4531458662.858,-13.419998647749118,0.0,-3.6681331950268503,0.0
4531473662.8575,-13.42124640582577,0.0,-3.6276871085799622,0.0
4531488662.857,-13.424833437195321,0.0,-3.6893266526722166,0.0
4531503662.8565,-13.43218597148323,0.0,-3.6485296966615035,0.0
4531518662.856,-13.425471951990556,0.0,-3.6585493435053213,0.0
4531533662.8555,-13.427837356290208,0.0,-3.6509222086875837,0.0
4531548662.855,-13.42052585158693,0.0,-3.703828223110342,0.0
4531563662.8545,-13.42630142774792,0.0,-3.7267778655212567,0.0
4531578662.854,-13.428796930519715,0.0,-3.6499173306496138,0.0
4531593662.8535,-13.425008700780072,0.0,-3.638320363495026,0.0
4531608662.853,-13.423765354862066,0.0,-3.68596090257373,0.0
4531623662.8525,-13.423401178602521,0.0,-3.686596955756985,0.0
4531638662.852,-13.418064466601594,0.0,-3.668986568424355,0.0
4531653662.8515,-13.422856997090033,0.0,-3.7175882842107177,0.0
4531668662.851,-13.41422505304646,0.0,-3.7622566619531796,0.0
4531683662.8505,-13.42109710803533,0.0,-3.743646038479279,0.0
4531698662.85,-13.43490334078779,0.0,-3.687305607496476,0.0
4531713662.8495,-13.420289914948802,0.0,-3.6902231513630874,0.0
4531728662.849,-13.42496789939609,0.0,-3.680240770368874,0.0
4531743662.8485,-13.429436155427636,0.0,-3.7108960064327783,0.0
4531758662.848,-13.422679458032885,0.0,-3.7346492227174046,0.0
4531773662.8475,-13.431317847354105,0.0,-3.758389822560468,0.0
4531788662.847,-13.419722960762765,0.0,-3.7560847032937446,0.0
4531803662.8465,-13.418728110400407,0.0,-3.781102840342122,0.0
4531818662.846,-13.415363412190747,0.0,-3.7414728025009074,0.0
4531833662.8455,-13.422403695890527,0.0,-3.7878284996760265,0.0
4531848662.845,-13.427942420293025,0.0,-3.7671530755502727,0.0
4531863662.8445,-13.425679210514136,0.0,-3.788728138904351,0.0
4531878662.844,-13.421596058657297,0.0,-3.7932626975337302,0.0
