Frequency,S11,S11-Q,S11-Phase,S11-Phase-Q
4527198663.0,-13.402783251484289,0.0,-2.860101371122306,0.0
4527213662.9995,-13.40856050667038,0.0,-2.8559529750017947,0.0
4527228662.999,-13.417487684611542,0.0,-2.7711149623595936,0.0
4527243662.9985,-13.414701475009148,0.0,-2.8479363768396153,0.0
4527258662.998,-13.411734451519365,0.0,-2.8528534867035678,0.0
4527273662.9975,-13.41448234136752,0.0,-2.850183051450573,0.0
4527288662.997,-13.395801405032369,0.0,-2.808430818741084,0.0
4527303662.9965,-13.405582526899602,0.0,-2.8249597691081623,0.0
4527318662.996,-13.410483747349033,0.0,-2.851308120885201,0.0
4527333662.9955,-13.410167403977795,0.0,-2.841354376410614,0.0
4527348662.995,-13.40305582193986,0.0,-2.896092022044211,0.0
4527363662.9945,-13.41392604517903,0.0,-2.8398797143951717,0.0
4527378662.994,-13.417712382832791,0.0,-2.83919254517498,0.0
4527393662.9935,-13.399683734621462,0.0,-2.8851484507765623,0.0
4527408662.993,-13.410221630172268,0.0,-2.8941169729699574,0.0
4527423662.9925,-13.420376114055601,0.0,-2.828636261520836,0.0
4527438662.992,-13.405087832035294,0.0,-2.8671828111188984,0.0
4527453662.9915,-13.41009544282043,0.0,-2.8879571805336957,0.0
4527468662.991,-13.401102824974778,0.0,-2.936544037402828,0.0
4527483662.9905,-13.407562431968172,0.0,-2.9449217369574745,0.0
4527498662.99,-13.415329234321451,0.0,-2.922606360010276,0.0
4527513662.9895,-13.403846091601977,0.0,-2.9024622812338703,0.0
4527528662.989,-13.407814964912273,0.0,-2.9051128559181447,0.0
4527543662.9885,-13.402443515308551,0.0,-2.878746931237861,0.0
4527558662.988,-13.413894180086416,0.0,-2.8906315518904644,0.0
4527573662.9875,-13.414212289725347,0.0,-2.9072591867953994,0.0
4527588662.987,-13.405314245730393,0.0,-2.86284114971085,0.0
4527603662.9865,-13.40834994881038,0.0,-2.904514428766594,0.0
4527618662.986,-13.407990487212045,0.0,-2.9156893708703735,0.0
4527633662.9855,-13.416711198495115,0.0,-2.947159454608023,0.0
4527648662.985,-13.402448537660714,0.0,-2.930643164365098,0.0
4527663662.9845,-13.412188910294208,0.0,-2.949760239821934,0.0
4527678662.984,-13.3989229473661,0.0,-2.874205648000996,0.0
4527693662.9835,-13.409708711041258,0.0,-2.947574479426517,0.0
4527708662.983,-13.403631911044688,0.0,-2.9456026868241647,0.0
4527723662.9825,-13.412216834267333,0.0,-2.852929065634154,0.0
4527738662.982,-13.415886962631374,0.0,-2.870949025979635,0.0
4527753662.9815,-13.414377792478549,0.0,-2.9071301173777466,0.0
4527768662.981,-13.400921673862275,0.0,-2.8699803676639943,0.0
4527783662.9805,-13.404492571196318,0.0,-2.9152606582063143,0.0
4527798662.98,-13.409689299779451,0.0,-2.952692972403011,0.0
4527813662.9795,-13.403063680357942,0.0,-2.8813400018044995,0.0
4527828662.979,-13.406173678673976,0.0,-2.887582637405595,0.0
4527843662.9785,-13.406726846549278,0.0,-2.9637163560282427,0.0
4527858662.978,-13.420024452594498,0.0,-2.9431962104655,0.0
4527873662.9775,-13.399406892160764,0.0,-2.9179096815350234,0.0
4527888662.977,-13.420207327918899,0.0,-2.9137123087365473,0.0
4527903662.9765,-13.410723489653076,0.0,-2.934715890969856,0.0
4527918662.976,-13.417641078599674,0.0,-2.9948721918271075,0.0
4527933662.9755,-13.411936752118297,0.0,-2.9904601155952886,0.0
4527948662.975,-13.403149274715261,0.0,-2.985422066220627,0.0
4527963662.9745,-13.40112869489972,0.0,-2.9678372508800366,0.0
4527978662.974,-13.407183028431827,0.0,-3.0098197029491245,0.0
4527993662.9735,-13.417265843346165,0.0,-2.883388294865603,0.0
4528008662.973,-13.415192374593055,0.0,-2.9091219470514496,0.0
4528023662.9725,-13.41496804444797,0.0,-2.906637859350828,0.0
4528038662.972,-13.411889228441874,0.0,-2.988165355541948,0.0
4528053662.9715,-13.408786213003545,0.0,-2.9564967505343795,0.0
4528068662.971,-13.412553814428312,0.0,-2.9291209503689672,0.0
4528083662.9705,-13.414623296539414,0.0,-3.013772504987752,0.0
4528098662.97,-13.412268868325683,0.0,-2.941119394089012,0.0
4528113662.9695,-13.40246597395613,0.0,-3.008578888059619,0.0
4528128662.969,-13.410691833044666,0.0,-2.9515439437719615,0.0
4528143662.9685,-13.40903765240109,0.0,-2.917431852660262,0.0
4528158662.968,-13.413012081767546,0.0,-2.9399412455995386,0.0
4528173662.9675,-13.4123163474284,0.0,-2.963112586714411,0.0
4528188662.967,-13.41326062605077,0.0,-2.9683595246219427,0.0
4528203662.9665,-13.409646638790047,0.0,-2.94680439859786,0.0
4528218662.966,-13.409773089801728,0.0,-2.9660452555507137,0.0
4528233662.9655,-13.408456668474306,0.0,-2.987891226709596,0.0
4528248662.965,-13.407692117618751,0.0,-3.0524156379595326,0.0
4528263662.9645,-13.411979566684709,0.0,-3.0146438268220423,0.0
4528278662.964,-13.409990120070702,0.0,-3.0107823552076707,0.0
4528293662.9635,-13.409446946352027,0.0,-2.9794890570329113,0.0
4528308662.963,-13.415237821684524,0.0,-2.957917555832618,0.0
4528323662.9625,-13.409670262914634,0.0,-3.0463614078519323,0.0
4528338662.962,-13.398668813651376,0.0,-2.985092383447498,0.0
4528353662.9615,-13.405929030374866,0.0,-3.0403262917448903,0.0
4528368662.961,-13.405348495846281,0.0,-3.0249425824929235,0.0
4528383662.9605,-13.412251004980874,0.0,-3.0475143079678757,0.0
4528398662.96,-13.405589654366759,0.0,-3.0361966447090474,0.0
4528413662.9595,-13.414148285757388,0.0,-3.037015493284826,0.0
4528428662.959,-13.417194457794817,0.0,-3.0307084380196403,0.0
4528443662.9585,-13.415727615754536,0.0,-3.0196039220461715,0.0
4528458662.958,-13.412803572332216,0.0,-3.044752881650256,0.0
4528473662.9575,-13.411428032431918,0.0,-2.9945252724612734,0.0
4528488662.957,-13.409808902406509,0.0,-3.0654031811537883,0.0
4528503662.9565,-13.412219346727188,0.0,-3.0371452685086013,0.0
4528518662.956,-13.40661591214004,0.0,-3.0082547063069622,0.0
4528533662.9555,-13.406064869069121,0.0,-3.004543522628681,0.0
4528548662.955,-13.422781038878727,0.0,-3.0567663721761575,0.0
4528563662.9545,-13.407061549238401,0.0,-3.0839516807860776,0.0
4528578662.954,-13.405220848611856,0.0,-3.091068365701384,0.0
4528593662.9535,-13.4179576596167,0.0,-3.0557236352233406,0.0
4528608662.953,-13.413948262899904,0.0,-3.0673680535941186,0.0
4528623662.9525,-13.409397229745554,0.0,-3.1002083047640614,0.0
4528638662.952,-13.41679926602934,0.0,-3.0199128808789752,0.0
4528653662.9515,-13.403719637330694,0.0,-3.057958935622976,0.0
4528668662.951,-13.413178560795398,0.0,-3.1256677483357165,0.0
4528683662.9505,-13.41243435320383,0.0,-3.0376213108869377,0.0
4528698662.95,-13.411914622005428,0.0,-3.089256677396773,0.0
4528713662.9495,-13.405113365831467,0.0,-3.07785133681881,0.0
4528728662.949,-13.416231009116725,0.0,-3.005149769313408,0.0
4528743662.9485,-13.41549440710666,0.0,-3.03562359658374,0.0
4528758662.948,-13.41449190984646,0.0,-3.092719212549446,0.0
4528773662.9475,-13.406011352637195,0.0,-3.0711613634110635,0.0
4528788662.947,-13.405443428720552,0.0,-3.0701286370039407,0.0
4528803662.9465,-13.401586627002162,0.0,-3.1170344252473527,0.0
4528818662.946,-13.41685048609695,0.0,-3.0970365109529245,0.0
4528833662.9455,-13.409071385812092,0.0,-3.0790578225641974,0.0
4528848662.945,-13.410314480882136,0.0,-3.06244043469918,0.0
4528863662.9445,-13.413901918895734,0.0,-3.103659327921761,0.0
4528878662.944,-13.407041686308645,0.0,-3.110105674512591,0.0
4528893662.9435,-13.413463458475201,0.0,-3.0243114656493773,0.0
4528908662.943,-13.413618025380377,0.0,-3.129306294148372,0.0
4528923662.9425,-13.414157756538227,0.0,-3.0763110216047505,0.0
4528938662.942,-13.411422837269571,0.0,-3.096842064159839,0.0
4528953662.9415,-13.423686668284478,0.0,-3.056395077523857,0.0
4528968662.941,-13.410670516376321,0.0,-3.1198798492223405,0.0
4528983662.9405,-13.406906314087404,0.0,-3.174749587363706,0.0
4528998662.94,-13.400528080573151,0.0,-3.11415664397137,0.0
4529013662.9395,-13.422003795033376,0.0,-3.175397801541276,0.0
4529028662.939,-13.409585867761482,0.0,-3.1407170526036925,0.0
4529043662.9385,-13.421922424403956,0.0,-3.112650709530005,0.0
4529058662.938,-13.416437914939385,0.0,-3.120498334464676,0.0
4529073662.9375,-13.419081580722132,0.0,-3.0913487032502736,0.0
4529088662.937,-13.411453077989709,0.0,-3.1085746771824487,0.0
4529103662.9365,-13.415038010002522,0.0,-3.1485585130594,0.0
4529118662.936,-13.415381420793127,0.0,-3.1376708107840168,0.0
4529133662.9355,-13.404643160799308,0.0,-3.166349118915781,0.0
4529148662.935,-13.413644982919685,0.0,-3.1876874904541856,0.0
4529163662.9345,-13.419692752372534,0.0,-3.1294719161147584,0.0
4529178662.934,-13.412705366841411,0.0,-3.149801329634487,0.0
4529193662.9335,-13.41878903153823,0.0,-3.137945487185295,0.0
4529208662.933,-13.41027516439118,0.0,-3.1077838227881696,0.0
4529223662.9325,-13.42510776984431,0.0,-3.1428345980308365,0.0
4529238662.932,-13.415134526311991,0.0,-3.158953983835933,0.0
4529253662.9315,-13.403837410390286,0.0,-3.1872061265499463,0.0
4529268662.931,-13.410323754409108,0.0,-3.154282698620781,0.0
4529283662.9305,-13.401065642566351,0.0,-3.2280054971067846,0.0
4529298662.93,-13.414186748295386,0.0,-3.2447413793852355,0.0
4529313662.9295,-13.41914470498786,0.0,-3.145922852629468,0.0
4529328662.929,-13.406778305400852,0.0,-3.1633430131995772,0.0
4529343662.9285,-13.40855633844884,0.0,-3.204363311929419,0.0
4529358662.928,-13.417315743761744,0.0,-3.1657263749954394,0.0
4529373662.9275,-13.414022165540079,0.0,-3.169510987685214,0.0
4529388662.927,-13.406235221779015,0.0,-3.1576045154715255,0.0
4529403662.9265,-13.40828108708041,0.0,-3.2186578601679385,0.0
4529418662.926,-13.4141937353025,0.0,-3.2049865581780934,0.0
4529433662.9255,-13.41688765800191,0.0,-3.1821561500926614,0.0
4529448662.925,-13.413120581510558,0.0,-3.171808534000556,0.0
4529463662.9245,-13.410482506607693,0.0,-3.1535309856367455,0.0
4529478662.924,-13.41884162459068,0.0,-3.1990955788252657,0.0
4529493662.9235,-13.411275463790155,0.0,-3.3531861599043213,0.0
4529508662.923,-13.408185473173507,0.0,-3.244559201308264,0.0
4529523662.9225,-13.409259461291365,0.0,-3.2067118785004,0.0
4529538662.922,-13.40994041255101,0.0,-3.239711639431789,0.0
4529553662.9215,-13.407689954183441,0.0,-3.2274580995572313,0.0
4529568662.921,-13.419363970706069,0.0,-3.1919952657740014,0.0
4529583662.9205,-13.414162574471806,0.0,-3.2060836265025996,0.0
4529598662.92,-13.417625793962923,0.0,-3.2309309081194777,0.0
4529613662.9195,-13.419951126688236,0.0,-3.2295529670180696,0.0
4529628662.919,-13.4166470078676,0.0,-3.231913261363226,0.0
4529643662.9185,-13.411770080280847,0.0,-3.281223003266558,0.0
4529658662.918,-13.416189837519145,0.0,-3.2105135201671664,0.0
4529673662.9175,-13.423869773172001,0.0,-3.2678487842997463,0.0
4529688662.917,-13.418325240519064,0.0,-3.285263322447946,0.0
4529703662.9165,-13.411470116889955,0.0,-3.236364619249456,0.0
4529718662.916,-13.41923150756564,0.0,-3.249407274938355,0.0
4529733662.9155,-13.418870160860624,0.0,-3.2458608206661075,0.0
4529748662.915,-13.417903441652985,0.0,-3.2521554368839474,0.0
4529763662.9145,-13.410290800837235,0.0,-3.2999572873537826,0.0
4529778662.914,-13.4258718605786,0.0,-3.2847217825156467,0.0
4529793662.9135,-13.423056170917235,0.0,-3.2238308150737955,0.0
4529808662.913,-13.404241491477293,0.0,-3.2785321044333453,0.0
4529823662.9125,-13.420954801318468,0.0,-3.249159724305761,0.0
4529838662.912,-13.408032930668401,0.0,-3.282894490694709,0.0
4529853662.9115,-13.417817553107945,0.0,-3.2823261719496664,0.0
4529868662.911,-13.415989751837309,0.0,-3.261553050275722,0.0
4529883662.9105,-13.415853168030871,0.0,-3.344910314406466,0.0
4529898662.91,-13.422948048305992,0.0,-3.3058769530691667,0.0
4529913662.9095,-13.418954324216406,0.0,-3.288787049793932,0.0
4529928662.909,-13.413131071774412,0.0,-3.3268391130561974,0.0
4529943662.9085,-13.414798287302254,0.0,-3.344521311915322,0.0
4529958662.908,-13.420758324557639,0.0,-3.3055761114624453,0.0
4529973662.9075,-13.419161287521717,0.0,-3.2743499500596758,0.0
4529988662.907,-13.410529983743032,0.0,-3.3745399155000446,0.0
4530003662.9065,-13.421766704179603,0.0,-3.3528874906479995,0.0
4530018662.906,-13.416954349555166,0.0,-3.292192148983366,0.0
4530033662.9055,-13.422318996694793,0.0,-3.3152593577839737,0.0
4530048662.905,-13.412134478918134,0.0,-3.28127171362377,0.0
4530063662.9045,-13.414132974502904,0.0,-3.3423140871770425,0.0
4530078662.904,-13.427296925401468,0.0,-3.321607915360221,0.0
4530093662.9035,-13.416748401281996,0.0,-3.3707418338862163,0.0
4530108662.903,-13.407282864925724,0.0,-3.3849056826485078,0.0
4530123662.9025,-13.416003932654544,0.0,-3.360905651350517,0.0
4530138662.902,-13.421455967782222,0.0,-3.330772383705631,0.0
4530153662.9015,-13.412314709663534,0.0,-3.3957537044248634,0.0
4530168662.901,-13.413950163719605,0.0,-3.3708495182724594,0.0
4530183662.9005,-13.42694481750633,0.0,-3.3008028156245626,0.0
4530198662.9,-13.413209495559563,0.0,-3.3062270651141414,0.0
4530213662.8995,-13.41233468166122,0.0,-3.3467343522082693,0.0
4530228662.899,-13.423078562740717,0.0,-3.401436592763629,0.0
4530243662.8985,-13.417488938071138,0.0,-3.3280559714508646,0.0
4530258662.898,-13.411469435597382,0.0,-3.434779861900023,0.0
4530273662.8975,-13.42196343684517,0.0,-3.3867377303057804,0.0
4530288662.897,-13.412191304370856,0.0,-3.398092339355054,0.0
4530303662.8965,-13.415210197009682,0.0,-3.4199384482095474,0.0
4530318662.896,-13.409697477112266,0.0,-3.4667563821082417,0.0
4530333662.8955,-13.42638763903148,0.0,-3.3819981509586143,0.0
4530348662.895,-13.412604423987311,0.0,-3.354661427060056,0.0
4530363662.8945,-13.415457160518683,0.0,-3.4327853022131185,0.0
4530378662.894,-13.416373868292787,0.0,-3.4295430184403357,0.0
4530393662.8935,-13.412476652282944,0.0,-3.392957761877859,0.0
4530408662.893,-13.420968570038971,0.0,-3.4100115138474427,0.0
4530423662.8925,-13.415962630415548,0.0,-3.387510660299945,0.0
4530438662.892,-13.417558912011716,0.0,-3.384242746044634,0.0
4530453662.8915,-13.415357160137745,0.0,-3.3451660262114533,0.0
4530468662.891,-13.411227135058477,0.0,-3.4097293704150275,0.0
4530483662.8905,-13.409310150459524,0.0,-3.4261318394642077,0.0
4530498662.89,-13.422775629680082,0.0,-3.4255974161192078,0.0
4530513662.8895,-13.42204544199131,0.0,-3.446649751636524,0.0
4530528662.889,-13.42389312783145,0.0,-3.446956220168298,0.0
4530543662.8885,-13.421477902881753,0.0,-3.435003491321976,0.0
4530558662.888,-13.422553204892754,0.0,-3.433034823816168,0.0
4530573662.8875,-13.41749005385379,0.0,-3.4654126884869183,0.0
4530588662.887,-13.410398135389825,0.0,-3.4651708210134364,0.0
4530603662.8865,-13.413785281982474,0.0,-3.4644430571352354,0.0
4530618662.886,-13.419597368569649,0.0,-3.522106817540743,0.0
4530633662.8855,-13.421967328200502,0.0,-3.445581037599034,0.0
4530648662.885,-13.413360898205372,0.0,-3.4724211551190605,0.0
4530663662.8845,-13.420843948854625,0.0,-3.4157842973132295,0.0
4530678662.884,-13.41522255975839,0.0,-3.492211375637099,0.0
4530693662.8835,-13.416819922839395,0.0,-3.40203015635547,0.0
4530708662.883,-13.415844627651685,0.0,-3.5119969998382383,0.0
4530723662.8825,-13.418660223133985,0.0,-3.451350975444296,0.0
4530738662.882,-13.422784435282253,0.0,-3.510438294484421,0.0
4530753662.8815,-13.422035059302406,0.0,-3.458560783117654,0.0
4530768662.881,-13.412243888146055,0.0,-3.472451346603552,0.0
4530783662.8805,-13.429653122544657,0.0,-3.5083340664434446,0.0
4530798662.88,-13.413933425190177,0.0,-3.4738355723101546,0.0
4530813662.8795,-13.420216521906125,0.0,-3.477151377844969,0.0
4530828662.879,-13.408196615762368,0.0,-3.5068624979651473,0.0
4530843662.8785,-13.41477254326389,0.0,-3.5281440888044826,0.0
4530858662.878,-13.40806075613219,0.0,-3.4841241524567486,0.0
4530873662.8775,-13.420345816224867,0.0,-3.4821805182255514,0.0
4530888662.877,-13.419427738802804,0.0,-3.48348738711958,0.0
4530903662.8765,-13.41929976966988,0.0,-3.594861530077165,0.0
4530918662.876,-13.415064222617383,0.0,-3.4404325787452974,0.0
4530933662.8755,-13.413234296098857,0.0,-3.570360861941063,0.0
4530948662.875,-13.404269813712649,0.0,-3.4619453759418763,0.0
4530963662.8745,-13.414978598994294,0.0,-3.500114862462423,0.0
4530978662.874,-13.412200003340558,0.0,-3.50311248811345,0.0
4530993662.8735,-13.427233531472089,0.0,-3.5848290013180213,0.0
4531008662.873,-13.41736108175975,0.0,-3.533104670821703,0.0
4531023662.8725,-13.422577422843933,0.0,-3.5161356615662,0.0
4531038662.872,-13.423223871942083,0.0,-3.5157949358012686,0.0
4531053662.8715,-13.424864034395036,0.0,-3.5765324926831705,0.0
4531068662.871,-13.408957181587592,0.0,-3.5047897753424455,0.0
4531083662.8705,-13.420163151327614,0.0,-3.529031855338108,0.0
4531098662.87,-13.42586750659229,0.0,-3.565224933648686,0.0
4531113662.8695,-13.426244473592,0.0,-3.636604101968468,0.0
4531128662.869,-13.414469701901982,0.0,-3.572104734202951,0.0
4531143662.8685,-13.41952130582845,0.0,-3.5795267501442654,0.0
4531158662.868,-13.420218609592197,0.0,-3.519912829715262,0.0
4531173662.8675,-13.429337371574224,0.0,-3.4988015002954476,0.0
4531188662.867,-13.421406198428496,0.0,-3.5870212861688167,0.0
4531203662.8665,-13.426622283784456,0.0,-3.5736777168211162,0.0
4531218662.866,-13.422629006032734,0.0,-3.572383535798038,0.0
4531233662.8655,-13.41784498988551,0.0,-3.617331058995193,0.0
4531248662.865,-13.419011924596374,0.0,-3.5935811443936676,0.0
4531263662.8645,-13.41533783663984,0.0,-3.5720268726773026,0.0
4531278662.864,-13.414605580822148,0.0,-3.580434230613076,0.0
4531293662.8635,-13.421789835906505,0.0,-3.6353333185101047,0.0
4531308662.863,-13.4236387917047,0.0,-3.6000306746177433,0.0
4531323662.8625,-13.41662988601547,0.0,-3.623331979600758,0.0
4531338662.862,-13.416616745995746,0.0,-3.6170303818627914,0.0
4531353662.8615,-13.415301529489875,0.0,-3.6509236477368736,0.0
4531368662.861,-13.416790408362205,0.0,-3.7104987228495574,0.0
4531383662.8605,-13.42414835845833,0.0,-3.593182721237611,0.0
4531398662.86,-13.430515801060638,0.0,-3.6276475001649815,0.0
4531413662.8595,-13.422706498580192,0.0,-3.6053824308796627,0.0
4531428662.859,-13.425344221469803,0.0,-3.616100237987457,0.0
4531443662.8585,-13.427084105636695,0.0,-3.6625573524479984,0.0
4531458662.858,-13.417683443871056,0.0,-3.7020405648323584,0.0
4531473662.8575,-13.426531623852703,0.0,-3.646423830509757,0.0
4531488662.857,-13.416365832198494,0.0,-3.609446329731516,0.0
4531503662.8565,-13.412809579584692,0.0,-3.6132255716749593,0.0
4531518662.856,-13.419346417090985,0.0,-3.5725036078798276,0.0
4531533662.8555,-13.418843318801832,0.0,-3.666515065794862,0.0
4531548662.855,-13.421417371955375,0.0,-3.6707970979965534,0.0
4531563662.8545,-13.425288142857518,0.0,-3.731582127568699,0.0
4531578662.854,-13.415110737889496,0.0,-3.6991961764904415,0.0
4531593662.8535,-13.423555652496415,0.0,-3.684051062358718,0.0
4531608662.853,-13.425628886475089,0.0,-3.699400076402346,0.0
4531623662.8525,-13.432532050831112,0.0,-3.674708521685372,0.0
4531638662.852,-13.424103498548144,0.0,-3.631497765356642,0.0
4531653662.8515,-13.411883477089425,0.0,-3.7339659539946575,0.0
4531668662.851,-13.42619399370802,0.0,-3.6840424084572034,0.0
4531683662.8505,-13.42979544903242,0.0,-3.761228492843958,0.0
4531698662.85,-13.42805030957612,0.0,-3.7176682050735206,0.0
4531713662.8495,-13.420576092165994,0.0,-3.72949613276938,0.0
4531728662.849,-13.421583678292677,0.0,-3.7201187950090593,0.0
4531743662.8485,-13.42253636783835,0.0,-3.710608795999907,0.0
4531758662.848,-13.420737336366189,0.0,-3.692361504245659,0.0
4531773662.8475,-13.416027135890634,0.0,-3.683703543721295,0.0
4531788662.847,-13.433211071737581,0.0,-3.706668859793369,0.0
4531803662.8465,-13.42115250288385,0.0,-3.742701118923049,0.0
4531818662.846,-13.42714498644588,0.0,-3.7670289377651955,0.0
4531833662.8455,-13.420352110315982,0.0,-3.743370756454043,0.0
4531848662.845,-13.427269332069256,0.0,-3.799483136151749,0.0
4531863662.8445,-13.42804063066627,0.0,-3.7399518833360803,0.0
4531878662.844,-13.428539249432543,0.0,-3.7328689110520576,0.0
