Frequency,S11,S11-Q,S11-Phase,S11-Phase-Q
4527198663.0,-13.433384844472494,0.0,-2.5122094897229332,0.0
4527213662.9995,-13.42381221922071,0.0,-2.54501066803284,0.0
4527228662.999,-13.418184110019151,0.0,-2.5304831337696205,0.0
4527243662.9985,-13.43000576422777,0.0,-2.504226269550969,0.0
4527258662.998,-13.42076139417885,0.0,-2.505570609052551,0.0
4527273662.9975,-13.425595463388708,0.0,-2.6001746498411107,0.0
4527288662.997,-13.425785475846002,0.0,-2.5276375253125147,0.0
4527303662.9965,-13.425074919475396,0.0,-2.489437480985801,0.0
4527318662.996,-13.427796101919697,0.0,-2.5384093831394177,0.0
4527333662.9955,-13.425122414893975,0.0,-2.5438876754794912,0.0
4527348662.995,-13.4293650547594,0.0,-2.6189226166250847,0.0
4527363662.9945,-13.428583038146037,0.0,-2.5759345524433,0.0
4527378662.994,-13.422789821126193,0.0,-2.56937782032345,0.0
4527393662.9935,-13.421429843560627,0.0,-2.561372101143809,0.0
4527408662.993,-13.429989558562216,0.0,-2.53793715638983,0.0
4527423662.9925,-13.433170588272134,0.0,-2.4911752819312643,0.0
4527438662.992,-13.432892800520706,0.0,-2.540929094171742,0.0
4527453662.9915,-13.42763191443235,0.0,-2.562671863596258,0.0
4527468662.991,-13.432051826967864,0.0,-2.553804120615843,0.0
4527483662.9905,-13.429481612041227,0.0,-2.5569999440899376,0.0
4527498662.99,-13.426453608100141,0.0,-2.572307262312146,0.0
4527513662.9895,-13.427541851960914,0.0,-2.545597170046855,0.0
4527528662.989,-13.439865889303013,0.0,-2.54730638038972,0.0
4527543662.9885,-13.426937822809169,0.0,-2.5218998713402017,0.0
4527558662.988,-13.431059969306816,0.0,-2.56915012994857,0.0
4527573662.9875,-13.433903327899701,0.0,-2.5830736985379112,0.0
4527588662.987,-13.43136779015462,0.0,-2.5821015449218057,0.0
4527603662.9865,-13.425174919663705,0.0,-2.55412542306159,0.0
4527618662.986,-13.43013914347743,0.0,-2.6156635398980477,0.0
4527633662.9855,-13.431229041137813,0.0,-2.5860269647949967,0.0
4527648662.985,-13.425029916951118,0.0,-2.5769011407849067,0.0
4527663662.9845,-13.43028068393651,0.0,-2.6079343203154073,0.0
4527678662.984,-13.435595437808614,0.0,-2.5445088713096564,0.0
4527693662.9835,-13.436313650880328,0.0,-2.6463082844092902,0.0
4527708662.983,-13.440166050138775,0.0,-2.561090085153219,0.0
4527723662.9825,-13.42740706934763,0.0,-2.596600892751091,0.0
4527738662.982,-13.425460149843008,0.0,-2.5929735699574508,0.0
4527753662.9815,-13.42254959016794,0.0,-2.6013797358954593,0.0
4527768662.981,-13.425023925137067,0.0,-2.6179483663988603,0.0
4527783662.9805,-13.428135678404079,0.0,-2.598178649357338,0.0
4527798662.98,-13.427150418680991,0.0,-2.6665447107038927,0.0
4527813662.9795,-13.432780636927342,0.0,-2.60834644403081,0.0
4527828662.979,-13.427206340338271,0.0,-2.614850390711313,0.0
4527843662.9785,-13.427059289496245,0.0,-2.6218297950930105,0.0
4527858662.978,-13.42169353469383,0.0,-2.5682618584218835,0.0
4527873662.9775,-13.430343515602889,0.0,-2.615857380818243,0.0
4527888662.977,-13.416556281827214,0.0,-2.5987628311889646,0.0
4527903662.9765,-13.427731130992093,0.0,-2.573883642236334,0.0
4527918662.976,-13.430439873975768,0.0,-2.5605394600185374,0.0
4527933662.9755,-13.424914009347939,0.0,-2.5689403145434153,0.0
4527948662.975,-13.426935489591257,0.0,-2.5984845632146976,0.0
4527963662.9745,-13.443800761057895,0.0,-2.67974944337758,0.0
4527978662.974,-13.419215482751852,0.0,-2.65875483822863,0.0
4527993662.9735,-13.432521827121011,0.0,-2.612834478667362,0.0
4528008662.973,-13.417450430805227,0.0,-2.5923719181533524,0.0
4528023662.9725,-13.424427292758981,0.0,-2.655048215778079,0.0
4528038662.972,-13.433600079175857,0.0,-2.560458833118666,0.0
4528053662.9715,-13.432053305115371,0.0,-2.629328374693009,0.0
4528068662.971,-13.43120045678948,0.0,-2.635247964639294,0.0
4528083662.9705,-13.431278736084158,0.0,-2.591982984664935,0.0
4528098662.97,-13.43175638910832,0.0,-2.669895549107846,0.0
4528113662.9695,-13.427464585988261,0.0,-2.663601160451533,0.0
4528128662.969,-13.430107748462598,0.0,-2.6871528369498026,0.0
4528143662.9685,-13.428876551309623,0.0,-2.628642765130098,0.0
4528158662.968,-13.43914243412819,0.0,-2.641307412944906,0.0
4528173662.9675,-13.435961511799395,0.0,-2.6265156419919817,0.0
4528188662.967,-13.43184756974214,0.0,-2.7011208718064514,0.0
4528203662.9665,-13.431093433910634,0.0,-2.597794255752182,0.0
4528218662.966,-13.438592823572662,0.0,-2.6549761033130705,0.0
4528233662.9655,-13.428765058283352,0.0,-2.688151336574091,0.0
4528248662.965,-13.432324221813657,0.0,-2.6939201070363206,0.0
4528263662.9645,-13.429693416450096,0.0,-2.7056887486762595,0.0
4528278662.964,-13.425084989086084,0.0,-2.6953772227562887,0.0
4528293662.9635,-13.427484444149016,0.0,-2.737131615162065,0.0
4528308662.963,-13.43240222265633,0.0,-2.7348684558837246,0.0
4528323662.9625,-13.431550789229384,0.0,-2.6901681630240106,0.0
4528338662.962,-13.431924570963226,0.0,-2.7021233707192494,0.0
4528353662.9615,-13.433225286414745,0.0,-2.6724690581546304,0.0
4528368662.961,-13.439229016048312,0.0,-2.710492441735278,0.0
4528383662.9605,-13.427332555612583,0.0,-2.683852952758625,0.0
4528398662.96,-13.437105862558225,0.0,-2.7047227437686656,0.0
4528413662.9595,-13.434925017099879,0.0,-2.6632263770750075,0.0
4528428662.959,-13.43795809404698,0.0,-2.6467710452760738,0.0
4528443662.9585,-13.430451939313867,0.0,-2.74178338068132,0.0
4528458662.958,-13.431212680396014,0.0,-2.70545008796718,0.0
4528473662.9575,-13.437044513276783,0.0,-2.706914997917199,0.0
4528488662.957,-13.431298443199818,0.0,-2.738868875561732,0.0
4528503662.9565,-13.431182644304707,0.0,-2.7415863408228587,0.0
4528518662.956,-13.43882016895131,0.0,-2.668921875320826,0.0
4528533662.9555,-13.427399997416448,0.0,-2.7196788586401293,0.0
4528548662.955,-13.437930655718773,0.0,-2.7358701428931074,0.0
4528563662.9545,-13.43311971179143,0.0,-2.71076343929401,0.0
4528578662.954,-13.437957997212317,0.0,-2.6779160467472045,0.0
4528593662.9535,-13.44105441714419,0.0,-2.7432179784862303,0.0
4528608662.953,-13.431967347159393,0.0,-2.7457610690274508,0.0
4528623662.9525,-13.429613953313401,0.0,-2.705773470247708,0.0
4528638662.952,-13.431825338757001,0.0,-2.7554444984581483,0.0
4528653662.9515,-13.433104645311065,0.0,-2.762422637958548,0.0
4528668662.951,-13.424552857136266,0.0,-2.7637533562285626,0.0
4528683662.9505,-13.432446097287222,0.0,-2.810817581241995,0.0
4528698662.95,-13.439756782456737,0.0,-2.7549927749437546,0.0
4528713662.9495,-13.434270695819402,0.0,-2.7672363374282307,0.0
4528728662.949,-13.438628302188953,0.0,-2.7399313878825193,0.0
4528743662.9485,-13.432346708980663,0.0,-2.7488412189945373,0.0
4528758662.948,-13.430157315616725,0.0,-2.7789991958913953,0.0
4528773662.9475,-13.433417104173483,0.0,-2.7562053367191983,0.0
4528788662.947,-13.430646774567359,0.0,-2.7426282763885017,0.0
4528803662.9465,-13.425945762092503,0.0,-2.7793486488443246,0.0
4528818662.946,-13.432030277788737,0.0,-2.735861497359848,0.0
4528833662.9455,-13.428752242417865,0.0,-2.7024631303211346,0.0
4528848662.945,-13.436501571058237,0.0,-2.8350767799591705,0.0
4528863662.9445,-13.432755447734714,0.0,-2.806102513071336,0.0
4528878662.944,-13.433213158590247,0.0,-2.8343169200742824,0.0
4528893662.9435,-13.437555873290298,0.0,-2.761790763744152,0.0
4528908662.943,-13.433129421296572,0.0,-2.815330770475896,0.0
4528923662.9425,-13.423223073365804,0.0,-2.8133655764573264,0.0
4528938662.942,-13.434092485209668,0.0,-2.836138702278516,0.0
4528953662.9415,-13.429084991810893,0.0,-2.71676584449844,0.0
4528968662.941,-13.43561695247795,0.0,-2.79587973338838,0.0
4528983662.9405,-13.433110093538989,0.0,-2.839386198587826,0.0
4528998662.94,-13.434070961011217,0.0,-2.8109417515728623,0.0
4529013662.9395,-13.429153334452028,0.0,-2.819753726829117,0.0
4529028662.939,-13.425381446037083,0.0,-2.839367456195719,0.0
4529043662.9385,-13.425471871671359,0.0,-2.855931945955874,0.0
4529058662.938,-13.429799651353388,0.0,-2.825661346481292,0.0
4529073662.9375,-13.433768010562046,0.0,-2.847530607237804,0.0
4529088662.937,-13.436753701877215,0.0,-2.780950165196048,0.0
4529103662.9365,-13.435027592827515,0.0,-2.8105556924156914,0.0
4529118662.936,-13.439637790570945,0.0,-2.842788064499824,0.0
4529133662.9355,-13.424099846445243,0.0,-2.803239731656728,0.0
4529148662.935,-13.435360792980948,0.0,-2.8444563873011215,0.0
4529163662.9345,-13.431428283681113,0.0,-2.816729373216044,0.0
4529178662.934,-13.430553294583502,0.0,-2.875675459743222,0.0
4529193662.9335,-13.435786043740151,0.0,-2.8445788100333127,0.0
4529208662.933,-13.425682499077267,0.0,-2.8860202779600006,0.0
4529223662.9325,-13.429902153881493,0.0,-2.8201420037365263,0.0
4529238662.932,-13.43921707488555,0.0,-2.844423327965166,0.0
4529253662.9315,-13.439619415534343,0.0,-2.808276621882036,0.0
4529268662.931,-13.428659311944864,0.0,-2.8911675165335913,0.0
4529283662.9305,-13.432613154821809,0.0,-2.933315445040002,0.0
4529298662.93,-13.443709026222248,0.0,-2.844462609145567,0.0
4529313662.9295,-13.429256840243609,0.0,-2.8619768648960497,0.0
4529328662.929,-13.447373995552232,0.0,-2.824506341161729,0.0
4529343662.9285,-13.436071429044702,0.0,-2.864126381791774,0.0
4529358662.928,-13.428532695214521,0.0,-2.8655957364981237,0.0
4529373662.9275,-13.433198131874768,0.0,-2.8551554061961633,0.0
4529388662.927,-13.438987651894454,0.0,-2.867258538098825,0.0
4529403662.9265,-13.432590770346904,0.0,-2.8851450634856977,0.0
4529418662.926,-13.442675034687051,0.0,-2.8875941071412408,0.0
4529433662.9255,-13.43121685001357,0.0,-2.9207049303940797,0.0
4529448662.925,-13.43712996873463,0.0,-2.8555221314740487,0.0
4529463662.9245,-13.433351486467906,0.0,-2.886139185626237,0.0
4529478662.924,-13.428853272286283,0.0,-2.919117703933653,0.0
4529493662.9235,-13.44013689727223,0.0,-2.882391400204776,0.0
4529508662.923,-13.438662216239972,0.0,-2.8445124480564608,0.0
4529523662.9225,-13.432874163440259,0.0,-2.9440680606728042,0.0
4529538662.922,-13.42940958617554,0.0,-2.9038229351432534,0.0
4529553662.9215,-13.444794417426882,0.0,-2.961660573660182,0.0
4529568662.921,-13.43330377749818,0.0,-2.8823615530796705,0.0
4529583662.9205,-13.44077306945618,0.0,-2.9673013817583813,0.0
4529598662.92,-13.434900739121638,0.0,-2.8926134194020414,0.0
4529613662.9195,-13.418167464234967,0.0,-2.9680388509195113,0.0
4529628662.919,-13.431951479019231,0.0,-2.895408001871454,0.0
4529643662.9185,-13.438165795580868,0.0,-2.940933829803151,0.0
4529658662.918,-13.436170708691446,0.0,-2.967228231335034,0.0
4529673662.9175,-13.43668778751536,0.0,-2.976897235540766,0.0
4529688662.917,-13.43798699339187,0.0,-3.021585666028102,0.0
4529703662.9165,-13.427192969913937,0.0,-2.974904994460525,0.0
4529718662.916,-13.436388872438073,0.0,-2.992691130188139,0.0
4529733662.9155,-13.43870689768018,0.0,-2.929365097572179,0.0
4529748662.915,-13.440396748616358,0.0,-2.9493005089071382,0.0
4529763662.9145,-13.431515207691831,0.0,-2.8426907413023055,0.0
4529778662.914,-13.441491573102407,0.0,-2.981259384207784,0.0
4529793662.9135,-13.442034684673994,0.0,-3.048725211852029,0.0
4529808662.913,-13.435761706487735,0.0,-2.9495598661755245,0.0
4529823662.9125,-13.433692285136704,0.0,-3.011981067550363,0.0
4529838662.912,-13.427362611058918,0.0,-2.986734252547622,0.0
4529853662.9115,-13.428096935524936,0.0,-2.928397144103471,0.0
4529868662.911,-13.435668542317936,0.0,-2.948136488013344,0.0
4529883662.9105,-13.43461736859291,0.0,-2.9879716468978277,0.0
4529898662.91,-13.441098350877096,0.0,-2.963242952684163,0.0
4529913662.9095,-13.43864146017758,0.0,-2.976980252930326,0.0
4529928662.909,-13.433832917592364,0.0,-3.04140079994533,0.0
4529943662.9085,-13.41979668178645,0.0,-3.019473677256206,0.0
4529958662.908,-13.432685578746476,0.0,-2.938046748348448,0.0
4529973662.9075,-13.436569368689373,0.0,-2.9971652512112676,0.0
4529988662.907,-13.43407064468411,0.0,-3.0371391853252394,0.0
4530003662.9065,-13.440321025283575,0.0,-3.038483877496219,0.0
4530018662.906,-13.444054405190538,0.0,-2.973601283873423,0.0
4530033662.9055,-13.443944847288682,0.0,-2.9521395850372194,0.0
4530048662.905,-13.429377184891838,0.0,-2.9746472663381827,0.0
4530063662.9045,-13.430220078670311,0.0,-3.049517038118861,0.0
4530078662.904,-13.441081293678236,0.0,-3.0124145442974672,0.0
4530093662.9035,-13.434069729355546,0.0,-3.003748408700593,0.0
4530108662.903,-13.42748948762922,0.0,-2.994777130806026,0.0
4530123662.9025,-13.431594595706455,0.0,-2.968205092609084,0.0
4530138662.902,-13.440306726799992,0.0,-3.0355734239386893,0.0
4530153662.9015,-13.44288332520502,0.0,-2.991634133086162,0.0
4530168662.901,-13.427790094701539,0.0,-3.050085140281317,0.0
4530183662.9005,-13.439393213877072,0.0,-3.017024923386916,0.0
4530198662.9,-13.433965517145642,0.0,-3.054564497571583,0.0
4530213662.8995,-13.439697707012652,0.0,-3.031522078346994,0.0
4530228662.899,-13.440310951880381,0.0,-3.0611110523009217,0.0
4530243662.8985,-13.438644985976893,0.0,-3.089026525866452,0.0
4530258662.898,-13.431703381245399,0.0,-3.0594474382213317,0.0
4530273662.8975,-13.43725926649755,0.0,-2.999933768316947,0.0
4530288662.897,-13.444899621531732,0.0,-3.0484108413202486,0.0
4530303662.8965,-13.44447512193425,0.0,-3.074834859178287,0.0
4530318662.896,-13.437296760502024,0.0,-3.0936669262462178,0.0
4530333662.8955,-13.4421544596992,0.0,-3.060210633411034,0.0
4530348662.895,-13.438694085332084,0.0,-3.0654936508883526,0.0
4530363662.8945,-13.433208129842512,0.0,-3.0834124043911615,0.0
4530378662.894,-13.448465783895713,0.0,-3.0588893601024845,0.0
4530393662.8935,-13.439300295982141,0.0,-3.064825873783613,0.0
4530408662.893,-13.430672755123279,0.0,-3.114604854669463,0.0
4530423662.8925,-13.439904089174535,0.0,-3.069830401921076,0.0
4530438662.892,-13.434559063043672,0.0,-3.1093569503368004,0.0
4530453662.8915,-13.437408886867164,0.0,-3.113758949102918,0.0
4530468662.891,-13.44383962257658,0.0,-3.0704224192424205,0.0
4530483662.8905,-13.427293981078186,0.0,-3.129886214607167,0.0
4530498662.89,-13.442993430070903,0.0,-3.086043031125056,0.0
4530513662.8895,-13.443137520039894,0.0,-3.108429900071156,0.0
4530528662.889,-13.446191934140481,0.0,-3.1043934331934144,0.0
4530543662.8885,-13.44048279761325,0.0,-3.1260346475001746,0.0
4530558662.888,-13.43599560821122,0.0,-3.160126892898331,0.0
4530573662.8875,-13.426759835028195,0.0,-3.0950477422179583,0.0
4530588662.887,-13.432458296553182,0.0,-3.16460662973008,0.0
4530603662.8865,-13.43258829838377,0.0,-3.1845255333848383,0.0
4530618662.886,-13.428707015067904,0.0,-3.1006459337578933,0.0
4530633662.8855,-13.436952774917563,0.0,-3.1846961082824823,0.0
4530648662.885,-13.444068891446946,0.0,-3.11761083767694,0.0
4530663662.8845,-13.442692260726496,0.0,-3.18578443743291,0.0
4530678662.884,-13.432674903388595,0.0,-3.1108994732928177,0.0
4530693662.8835,-13.442272239699806,0.0,-3.1527231286939794,0.0
4530708662.883,-13.43572248247823,0.0,-3.090485008470092,0.0
4530723662.8825,-13.433032117750244,0.0,-3.150496671507228,0.0
4530738662.882,-13.44107580493693,0.0,-3.157530200607442,0.0
4530753662.8815,-13.432164925167047,0.0,-3.1607116097739127,0.0
4530768662.881,-13.447084143087316,0.0,-3.185418662737718,0.0
4530783662.8805,-13.42713354828839,0.0,-3.1912060336314387,0.0
4530798662.88,-13.434354158177522,0.0,-3.1643951992728017,0.0
4530813662.8795,-13.430532960191462,0.0,-3.188929279477275,0.0
4530828662.879,-13.43555223404671,0.0,-3.18323968153971,0.0
4530843662.8785,-13.439220009215003,0.0,-3.1496488403803187,0.0
4530858662.878,-13.439327794493956,0.0,-3.1906979333457133,0.0
4530873662.8775,-13.44728664170687,0.0,-3.269144318951987,0.0
4530888662.877,-13.439111778302244,0.0,-3.186202251930036,0.0
4530903662.8765,-13.441822594966455,0.0,-3.222090069173088,0.0
4530918662.876,-13.449388072035406,0.0,-3.2198060089402216,0.0
4530933662.8755,-13.44838238628148,0.0,-3.2284952213137283,0.0
4530948662.875,-13.44460556753816,0.0,-3.234209473284654,0.0
4530963662.8745,-13.43916995097139,0.0,-3.1895212284134704,0.0
4530978662.874,-13.432166852550134,0.0,-3.207005841349588,0.0
4530993662.8735,-13.438430820309444,0.0,-3.2851724252729437,0.0
4531008662.873,-13.43678727790974,0.0,-3.211462606983501,0.0
4531023662.8725,-13.43541267708591,0.0,-3.223553273442467,0.0
4531038662.872,-13.43922665251964,0.0,-3.2220448478899133,0.0
4531053662.8715,-13.438986576502574,0.0,-3.218219143173971,0.0
4531068662.871,-13.454280115037452,0.0,-3.2241847260941547,0.0
4531083662.8705,-13.44266816348231,0.0,-3.22778210088659,0.0
4531098662.87,-13.427154193798776,0.0,-3.2952629630134562,0.0
4531113662.8695,-13.442426839213448,0.0,-3.287626630622411,0.0
4531128662.869,-13.43341859271182,0.0,-3.2576215943512,0.0
4531143662.8685,-13.443566106113042,0.0,-3.2770286439549086,0.0
4531158662.868,-13.441688939104079,0.0,-3.297795751287617,0.0
4531173662.8675,-13.457537362239798,0.0,-3.287536378123351,0.0
4531188662.867,-13.445521796231452,0.0,-3.306717262065876,0.0
4531203662.8665,-13.434369298391777,0.0,-3.280695420007254,0.0
4531218662.866,-13.443136953284673,0.0,-3.302654072804719,0.0
4531233662.8655,-13.449378264179437,0.0,-3.3060892230042276,0.0
4531248662.865,-13.430567675995489,0.0,-3.3509507331733315,0.0
4531263662.8645,-13.43469207443772,0.0,-3.318528957389579,0.0
4531278662.864,-13.45125348766966,0.0,-3.364807740165556,0.0
4531293662.8635,-13.444512271585898,0.0,-3.299079796261225,0.0
4531308662.863,-13.44651036502489,0.0,-3.2668964038827206,0.0
4531323662.8625,-13.439210313679808,0.0,-3.3291018075304706,0.0
4531338662.862,-13.452911364881935,0.0,-3.325733057437334,0.0
4531353662.8615,-13.434611995154913,0.0,-3.268043551871913,0.0
4531368662.861,-13.432109752568275,0.0,-3.2658804959419276,0.0
4531383662.8605,-13.441945360449704,0.0,-3.359894000488822,0.0
4531398662.86,-13.4276339571899,0.0,-3.3328297638358397,0.0
4531413662.8595,-13.438718656381427,0.0,-3.29995110470797,0.0
4531428662.859,-13.448442787312969,0.0,-3.3409261362039833,0.0
4531443662.8585,-13.446049070007808,0.0,-3.2687908042725855,0.0
4531458662.858,-13.441994246172897,0.0,-3.3449991581917606,0.0
4531473662.8575,-13.439920842726206,0.0,-3.3527177958800918,0.0
4531488662.857,-13.438966685085331,0.0,-3.320140031200042,0.0
4531503662.8565,-13.446581768923991,0.0,-3.3900261434884515,0.0
4531518662.856,-13.439004596595536,0.0,-3.321336794723978,0.0
4531533662.8555,-13.439736122501778,0.0,-3.4022394862242944,0.0
4531548662.855,-13.44577950066649,0.0,-3.3952962011462025,0.0
4531563662.8545,-13.45053143781895,0.0,-3.394958097952096,0.0
4531578662.854,-13.451933802146161,0.0,-3.3932574903211226,0.0
4531593662.8535,-13.446588763866512,0.0,-3.433723603447916,0.0
4531608662.853,-13.434538996132163,0.0,-3.3934447678264243,0.0
4531623662.8525,-13.442656609216453,0.0,-3.415451892171261,0.0
4531638662.852,-13.443939359117046,0.0,-3.3608056205176444,0.0
4531653662.8515,-13.44660495486448,0.0,-3.336735559567662,0.0
4531668662.851,-13.442596040796538,0.0,-3.3406622057088553,0.0
4531683662.8505,-13.44523468444236,0.0,-3.425021974153837,0.0
4531698662.85,-13.438759875264344,0.0,-3.382742013782983,0.0
4531713662.8495,-13.449087433151627,0.0,-3.409470842177989,0.0
4531728662.849,-13.447300701295648,0.0,-3.369570436035359,0.0
4531743662.8485,-13.443818071254602,0.0,-3.388415860405955,0.0
4531758662.848,-13.429039512608226,0.0,-3.416315332655358,0.0
4531773662.8475,-13.439589088478138,0.0,-3.4355643127839453,0.0
4531788662.847,-13.446868430658757,0.0,-3.450648920352709,0.0
4531803662.8465,-13.446895275560282,0.0,-3.434131529073501,0.0
4531818662.846,-13.450270515306794,0.0,-3.4139697513700407,0.0
4531833662.8455,-13.449722063104035,0.0,-3.386449259455115,0.0
4531848662.845,-13.442687622948126,0.0,-3.5046153184362585,0.0
4531863662.8445,-13.456229768899679,0.0,-3.4773767949734133,0.0
4531878662.844,-13.451280045967788,0.0,-3.473451115291449,0.0
