Frequency,S11,S11-Q,S11-Phase,S11-Phase-Q
4527198663.0,-13.410121471182494,0.0,-2.3589204903588548,0.0
4527213662.9995,-13.41388009735893,0.0,-2.3894480338405133,0.0
4527228662.999,-13.423794657961572,0.0,-2.3718421193124044,0.0
4527243662.9985,-13.416158706143086,0.0,-2.4524506545948195,0.0
4527258662.998,-13.412884254667697,0.0,-2.356345455264203,0.0
4527273662.9975,-13.423116640860622,0.0,-2.4363021806502334,0.0
4527288662.997,-13.418340034572154,0.0,-2.4114831015427467,0.0
4527303662.9965,-13.418327300020918,0.0,-2.447825339272655,0.0
4527318662.996,-13.412430558183567,0.0,-2.391392129979917,0.0
4527333662.9955,-13.408878119599688,0.0,-2.4270897096344424,0.0
4527348662.995,-13.410846675983151,0.0,-2.446005748822888,0.0
4527363662.9945,-13.42128952449723,0.0,-2.4062199880143975,0.0
4527378662.994,-13.415444553296235,0.0,-2.4252445105479725,0.0
4527393662.9935,-13.413073015408969,0.0,-2.496149269041133,0.0
4527408662.993,-13.411837958437673,0.0,-2.4748349258760687,0.0
4527423662.9925,-13.40855274294623,0.0,-2.4515564124631304,0.0
4527438662.992,-13.410179257298138,0.0,-2.4682715413307528,0.0
4527453662.9915,-13.40990755528332,0.0,-2.4079988697973587,0.0
4527468662.991,-13.417016612953102,0.0,-2.5175008234694043,0.0
4527483662.9905,-13.415258349282261,0.0,-2.4495348319749386,0.0
4527498662.99,-13.419176162431995,0.0,-2.437872151336055,0.0
4527513662.9895,-13.404108732133782,0.0,-2.4829145202460206,0.0
4527528662.989,-13.41823968877029,0.0,-2.4702756912896655,0.0
4527543662.9885,-13.423190987682851,0.0,-2.506232593781074,0.0
4527558662.988,-13.404043105498808,0.0,-2.465447661508906,0.0
4527573662.9875,-13.413573192973951,0.0,-2.4342234823791027,0.0
4527588662.987,-13.420296101380504,0.0,-2.4979595852720244,0.0
4527603662.9865,-13.422454052073542,0.0,-2.4570596279985075,0.0
4527618662.986,-13.41627850957183,0.0,-2.4934141709558517,0.0
4527633662.9855,-13.421370724602555,0.0,-2.518042982976764,0.0
4527648662.985,-13.425741174503944,0.0,-2.4342613312792407,0.0
4527663662.9845,-13.423276349190683,0.0,-2.440458883592443,0.0
4527678662.984,-13.415096931890522,0.0,-2.528362351211974,0.0
4527693662.9835,-13.419714933425704,0.0,-2.483443021000322,0.0
4527708662.983,-13.406135600342854,0.0,-2.50908489886116,0.0
4527723662.9825,-13.410742252679647,0.0,-2.4235848349494757,0.0
4527738662.982,-13.41761527034697,0.0,-2.4935802864506877,0.0
4527753662.9815,-13.421833887303766,0.0,-2.5113470399872497,0.0
4527768662.981,-13.415335576051476,0.0,-2.4809775797256233,0.0
4527783662.9805,-13.429860902978106,0.0,-2.5096071391915316,0.0
4527798662.98,-13.417100884623142,0.0,-2.5031962339500784,0.0
4527813662.9795,-13.41837025651898,0.0,-2.4475192087173894,0.0
4527828662.979,-13.42367687091562,0.0,-2.5037770147417393,0.0
4527843662.9785,-13.419287574169827,0.0,-2.4872478466873704,0.0
4527858662.978,-13.419631889691763,0.0,-2.479928352515478,0.0
4527873662.9775,-13.410576760137927,0.0,-2.5026108217572385,0.0
4527888662.977,-13.42513435879236,0.0,-2.4989409335154633,0.0
4527903662.9765,-13.423966111580905,0.0,-2.560473957384131,0.0
4527918662.976,-13.419007859921276,0.0,-2.5045250357896984,0.0
4527933662.9755,-13.42243574829582,0.0,-2.473103259221512,0.0
4527948662.975,-13.418490511418046,0.0,-2.558114010392416,0.0
4527963662.9745,-13.41573078505634,0.0,-2.5316702806254154,0.0
4527978662.974,-13.415152176300865,0.0,-2.554906638546433,0.0
4527993662.9735,-13.41106145446144,0.0,-2.5002170042038285,0.0
4528008662.973,-13.427556277208183,0.0,-2.5017814065716273,0.0
4528023662.9725,-13.419025462221068,0.0,-2.5328989750056174,0.0
4528038662.972,-13.415405440567888,0.0,-2.5318044421166115,0.0
4528053662.9715,-13.415801566130135,0.0,-2.518786836898105,0.0
4528068662.971,-13.42267474698081,0.0,-2.5620468471713758,0.0
4528083662.9705,-13.418528780777624,0.0,-2.462190368013336,0.0
4528098662.97,-13.422334499309773,0.0,-2.5225933057768217,0.0
4528113662.9695,-13.42430230977337,0.0,-2.5369377507949697,0.0
4528128662.969,-13.415159467759603,0.0,-2.488139176490255,0.0
4528143662.9685,-13.426113956469932,0.0,-2.555571827459371,0.0
4528158662.968,-13.419400727146488,0.0,-2.5543327347939537,0.0
4528173662.9675,-13.42552369274658,0.0,-2.592142266804294,0.0
4528188662.967,-13.419928339881091,0.0,-2.4842038566828375,0.0
4528203662.9665,-13.419224781076444,0.0,-2.4912773873211846,0.0
4528218662.966,-13.413716767613144,0.0,-2.5251857142062475,0.0
4528233662.9655,-13.411241247898637,0.0,-2.592396632205137,0.0
4528248662.965,-13.420297300360073,0.0,-2.553829531050917,0.0
4528263662.9645,-13.419527009609668,0.0,-2.522595441487392,0.0
4528278662.964,-13.41099786418907,0.0,-2.521735688651374,0.0
4528293662.9635,-13.427198030205718,0.0,-2.6024871842775994,0.0
4528308662.963,-13.418697177217773,0.0,-2.560432077199751,0.0
4528323662.9625,-13.41885016159667,0.0,-2.6251981246229836,0.0
4528338662.962,-13.417773515951009,0.0,-2.573823801556686,0.0
4528353662.9615,-13.409243159410806,0.0,-2.58824438087387,0.0
4528368662.961,-13.415572687742888,0.0,-2.602872531355118,0.0
4528383662.9605,-13.41366567778598,0.0,-2.5955334464861064,0.0
4528398662.96,-13.425342950579749,0.0,-2.5855839915440804,0.0
4528413662.9595,-13.418529199240805,0.0,-2.540577564658533,0.0
4528428662.959,-13.408424786358244,0.0,-2.5310633256174366,0.0
4528443662.9585,-13.415047683845474,0.0,-2.569432075511895,0.0
4528458662.958,-13.408379137446033,0.0,-2.5678031847363383,0.0
4528473662.9575,-13.414458855521747,0.0,-2.5975652067677117,0.0
4528488662.957,-13.41057455494623,0.0,-2.5609513948304863,0.0
4528503662.9565,-13.415021256843339,0.0,-2.574646428405094,0.0
4528518662.956,-13.419891276670505,0.0,-2.6000138940536552,0.0
4528533662.9555,-13.425454702846762,0.0,-2.5592597427681714,0.0
4528548662.955,-13.426784631537561,0.0,-2.627483473527019,0.0
4528563662.9545,-13.424988477013775,0.0,-2.5682860341406806,0.0
4528578662.954,-13.423159762237123,0.0,-2.63416980948222,0.0
4528593662.9535,-13.42451889921286,0.0,-2.6178441307586238,0.0
4528608662.953,-13.41434905936822,0.0,-2.601227276341671,0.0
4528623662.9525,-13.413518634438962,0.0,-2.6027067830787334,0.0
4528638662.952,-13.414940977924738,0.0,-2.643063012286677,0.0
4528653662.9515,-13.417177929234166,0.0,-2.6408904277320118,0.0
4528668662.951,-13.421202254830671,0.0,-2.585787684442729,0.0
4528683662.9505,-13.418027074375448,0.0,-2.5865143646861957,0.0
4528698662.95,-13.420296533154541,0.0,-2.655996496567481,0.0
4528713662.9495,-13.420462421062167,0.0,-2.6147846398697157,0.0
4528728662.949,-13.415186382580321,0.0,-2.651675025786041,0.0
4528743662.9485,-13.411000385757013,0.0,-2.6395670360766323,0.0
4528758662.948,-13.412186223271123,0.0,-2.595195666784258,0.0
4528773662.9475,-13.412156646033505,0.0,-2.624532560706867,0.0
4528788662.947,-13.414776359451041,0.0,-2.7141310011359407,0.0
4528803662.9465,-13.420009241980619,0.0,-2.563955124724189,0.0
4528818662.946,-13.423836816832429,0.0,-2.6291923068774854,0.0
4528833662.9455,-13.430008441606319,0.0,-2.6293693813112875,0.0
4528848662.945,-13.416509934907065,0.0,-2.6870236972956496,0.0
4528863662.9445,-13.417286470283782,0.0,-2.6187894633304185,0.0
4528878662.944,-13.419385550210258,0.0,-2.649999096157733,0.0
4528893662.9435,-13.41160032097163,0.0,-2.6480670751091773,0.0
4528908662.943,-13.409568669576647,0.0,-2.618422329841,0.0
4528923662.9425,-13.422663620681789,0.0,-2.6822685345096673,0.0
4528938662.942,-13.407660785635514,0.0,-2.6581914179180197,0.0
4528953662.9415,-13.4165818771936,0.0,-2.6308248226684543,0.0
4528968662.941,-13.421094963307416,0.0,-2.732297084122616,0.0
4528983662.9405,-13.415679509140643,0.0,-2.6708285053829095,0.0
4528998662.94,-13.415829093019534,0.0,-2.627813262194977,0.0
4529013662.9395,-13.412699199399892,0.0,-2.6573511821196947,0.0
4529028662.939,-13.40954302026556,0.0,-2.6886936668148516,0.0
4529043662.9385,-13.426479713283149,0.0,-2.6879842123749906,0.0
4529058662.938,-13.422933746831173,0.0,-2.685096531351858,0.0
4529073662.9375,-13.417520123431839,0.0,-2.6946029696312785,0.0
4529088662.937,-13.419404203586858,0.0,-2.6796229845658663,0.0
4529103662.9365,-13.411761514972868,0.0,-2.734345753882723,0.0
4529118662.936,-13.413301012809129,0.0,-2.7112605315402343,0.0
4529133662.9355,-13.41366688152696,0.0,-2.7490483363159175,0.0
4529148662.935,-13.416798124326679,0.0,-2.6872967510002788,0.0
4529163662.9345,-13.41521424296096,0.0,-2.7152021484928537,0.0
4529178662.934,-13.410362759135781,0.0,-2.676190693170043,0.0
4529193662.9335,-13.426414144872973,0.0,-2.6458758141777103,0.0
4529208662.933,-13.418891455408273,0.0,-2.7068192179796973,0.0
4529223662.9325,-13.41984695022191,0.0,-2.688732386366523,0.0
4529238662.932,-13.420864216974618,0.0,-2.758453540763739,0.0
4529253662.9315,-13.419368591680719,0.0,-2.643601519377346,0.0
4529268662.931,-13.420237685408441,0.0,-2.7653045506108156,0.0
4529283662.9305,-13.415255784646776,0.0,-2.731091037969988,0.0
4529298662.93,-13.408110492421796,0.0,-2.7148788321602884,0.0
4529313662.9295,-13.409433428235056,0.0,-2.6507258674201206,0.0
4529328662.929,-13.418714294212414,0.0,-2.6957815737893194,0.0
4529343662.9285,-13.418096988648179,0.0,-2.7676261280228527,0.0
4529358662.928,-13.414493710411381,0.0,-2.7393559025773127,0.0
4529373662.9275,-13.421051745540515,0.0,-2.7409806162028327,0.0
4529388662.927,-13.418517341733832,0.0,-2.709710534791753,0.0
4529403662.9265,-13.42705827091903,0.0,-2.815700117513814,0.0
4529418662.926,-13.41776871886819,0.0,-2.7893547850970686,0.0
4529433662.9255,-13.412478975984051,0.0,-2.759219327164611,0.0
4529448662.925,-13.42742349453544,0.0,-2.7847662897850958,0.0
4529463662.9245,-13.416148315032112,0.0,-2.728913771448633,0.0
4529478662.924,-13.427914999232463,0.0,-2.8474082509505543,0.0
4529493662.9235,-13.424091939044146,0.0,-2.7921797301101816,0.0
4529508662.923,-13.422907003119287,0.0,-2.7414316190802253,0.0
4529523662.9225,-13.418317318414042,0.0,-2.8223093309042104,0.0
4529538662.922,-13.422071799716944,0.0,-2.7579649364811702,0.0
4529553662.9215,-13.422039267989392,0.0,-2.782428367022761,0.0
4529568662.921,-13.41914429829514,0.0,-2.8235087797997758,0.0
4529583662.9205,-13.421229510208377,0.0,-2.778207549775569,0.0
4529598662.92,-13.4287412584957,0.0,-2.785462273595976,0.0
4529613662.9195,-13.423136438970786,0.0,-2.74869566018632,0.0
4529628662.919,-13.423724903248006,0.0,-2.784241751323222,0.0
4529643662.9185,-13.4222146514019,0.0,-2.7227036999847396,0.0
4529658662.918,-13.424904956982282,0.0,-2.780324942709651,0.0
4529673662.9175,-13.422964793809998,0.0,-2.830020843151731,0.0
4529688662.917,-13.41843076886738,0.0,-2.8183348651213467,0.0
4529703662.9165,-13.425818107770805,0.0,-2.7880138890391994,0.0
4529718662.916,-13.421729926825314,0.0,-2.7515944693238246,0.0
4529733662.9155,-13.426043024024887,0.0,-2.796217145632059,0.0
4529748662.915,-13.424169922966973,0.0,-2.859061847751781,0.0
4529763662.9145,-13.422076216112078,0.0,-2.822748443903201,0.0
4529778662.914,-13.415752183073387,0.0,-2.7311571432293933,0.0
4529793662.9135,-13.427592288600225,0.0,-2.8000713199191174,0.0
4529808662.913,-13.418201531843474,0.0,-2.798246361863747,0.0
4529823662.9125,-13.421329259933783,0.0,-2.868445306983849,0.0
4529838662.912,-13.426823162809228,0.0,-2.8065244044624116,0.0
4529853662.9115,-13.421315201636512,0.0,-2.8297164817766873,0.0
4529868662.911,-13.418290679445533,0.0,-2.8123083201615815,0.0
4529883662.9105,-13.427550822610861,0.0,-2.8302663230276206,0.0
4529898662.91,-13.425253150738893,0.0,-2.8105211201589824,0.0
4529913662.9095,-13.429891788557672,0.0,-2.7676286898994835,0.0
4529928662.909,-13.425588710468432,0.0,-2.899578234686126,0.0
4529943662.9085,-13.422270322759857,0.0,-2.8129494874586767,0.0
4529958662.908,-13.427731440475386,0.0,-2.8224472801423692,0.0
4529973662.9075,-13.435077178426749,0.0,-2.8784934053908935,0.0
4529988662.907,-13.415860059877833,0.0,-2.8410423829606364,0.0
4530003662.9065,-13.421636326548201,0.0,-2.861030880849636,0.0
4530018662.906,-13.410231858088036,0.0,-2.898950949745397,0.0
4530033662.9055,-13.431254115788079,0.0,-2.857478406434157,0.0
4530048662.905,-13.437047025683276,0.0,-2.926687407189621,0.0
4530063662.9045,-13.427658889919037,0.0,-2.95237378168301,0.0
4530078662.904,-13.43335883733915,0.0,-2.8144050759565213,0.0
4530093662.9035,-13.426031626223505,0.0,-2.814890838859681,0.0
4530108662.903,-13.427300024409162,0.0,-2.8673838654029336,0.0
4530123662.9025,-13.432935166003402,0.0,-2.9195291362549223,0.0
4530138662.902,-13.418258047424915,0.0,-2.914041527802344,0.0
4530153662.9015,-13.422989449853134,0.0,-2.872333890947881,0.0
4530168662.901,-13.422871099989386,0.0,-2.8922528913231034,0.0
4530183662.9005,-13.4290604707152,0.0,-2.8735328281646355,0.0
4530198662.9,-13.416606314394597,0.0,-2.911431627414318,0.0
4530213662.8995,-13.419302605721011,0.0,-2.88462412759612,0.0
4530228662.899,-13.418747386283679,0.0,-2.945362105890322,0.0
4530243662.8985,-13.417475463709321,0.0,-2.864044046147163,0.0
4530258662.898,-13.420798934776663,0.0,-2.9453221496169952,0.0
4530273662.8975,-13.420881404349158,0.0,-2.8502396805562094,0.0
4530288662.897,-13.42931349611048,0.0,-2.9425849206260466,0.0
4530303662.8965,-13.417412915504457,0.0,-2.894454483596093,0.0
4530318662.896,-13.425746786205622,0.0,-2.9219423482003855,0.0
4530333662.8955,-13.418271771632684,0.0,-2.9516187547654447,0.0
4530348662.895,-13.422243830089243,0.0,-2.9425960893068166,0.0
4530363662.8945,-13.426122823749267,0.0,-2.9469213369042726,0.0
4530378662.894,-13.42504556842002,0.0,-2.924800787377387,0.0
4530393662.8935,-13.418755777543964,0.0,-2.8989144046704163,0.0
4530408662.893,-13.426791997543946,0.0,-2.956740216132922,0.0
4530423662.8925,-13.41928430941216,0.0,-2.9418525232196853,0.0
4530438662.892,-13.421733286191596,0.0,-2.9556966715941977,0.0
4530453662.8915,-13.432878852870815,0.0,-2.983874464474886,0.0
4530468662.891,-13.428270671354824,0.0,-2.9376583279369517,0.0
4530483662.8905,-13.422788821938525,0.0,-2.8803202492768123,0.0
4530498662.89,-13.431617156292006,0.0,-2.9488150104470128,0.0
4530513662.8895,-13.423706822679144,0.0,-2.9439358118410883,0.0
4530528662.889,-13.431866418934446,0.0,-2.964658804540118,0.0
4530543662.8885,-13.428301087899266,0.0,-2.9636589158991757,0.0
4530558662.888,-13.424626330589522,0.0,-2.9846880720651336,0.0
4530573662.8875,-13.425116573827047,0.0,-2.9746694124828363,0.0
4530588662.887,-13.425668401727982,0.0,-3.0003966854150343,0.0
4530603662.8865,-13.429735490554872,0.0,-2.990492718427961,0.0
4530618662.886,-13.434391408064004,0.0,-3.015687036914577,0.0
4530633662.8855,-13.425263921518946,0.0,-2.985498755019777,0.0
4530648662.885,-13.426015036780722,0.0,-3.000776944690404,0.0
4530663662.8845,-13.418859678183368,0.0,-3.0040374643146963,0.0
4530678662.884,-13.431362405240204,0.0,-2.976600688224201,0.0
4530693662.8835,-13.42875688405897,0.0,-3.0136707661538424,0.0
4530708662.883,-13.4230329077844,0.0,-3.0647936947757795,0.0
4530723662.8825,-13.428859918936604,0.0,-2.957779144969567,0.0
4530738662.882,-13.42574726265601,0.0,-2.981102716087924,0.0
4530753662.8815,-13.430273129629942,0.0,-2.9959680786558396,0.0
4530768662.881,-13.426205034394545,0.0,-2.9829940099964065,0.0
4530783662.8805,-13.424638905303983,0.0,-3.01209906172725,0.0
4530798662.88,-13.429190994016743,0.0,-3.0684399817059473,0.0
4530813662.8795,-13.421692157071622,0.0,-3.0078901340629187,0.0
4530828662.879,-13.427807702277722,0.0,-2.995588868631404,0.0
4530843662.8785,-13.421731133151443,0.0,-2.985290850340278,0.0
4530858662.878,-13.432340574617587,0.0,-3.0137884778820174,0.0
4530873662.8775,-13.430110227533877,0.0,-3.0183820048612504,0.0
4530888662.877,-13.425375195722086,0.0,-3.068549953115478,0.0
4530903662.8765,-13.432377270537902,0.0,-3.054589808991258,0.0
4530918662.876,-13.422336532361886,0.0,-3.104494256923963,0.0
4530933662.8755,-13.430586910848689,0.0,-3.003177315194153,0.0
4530948662.875,-13.426884672141338,0.0,-3.0486708312133577,0.0
4530963662.8745,-13.426890533886375,0.0,-3.0511906958598543,0.0
4530978662.874,-13.422021852966392,0.0,-3.080553590674298,0.0
4530993662.8735,-13.42557285354956,0.0,-3.0019985622381085,0.0
4531008662.873,-13.422354313138353,0.0,-3.063888011216815,0.0
4531023662.8725,-13.425223526696907,0.0,-3.072418846480403,0.0
4531038662.872,-13.439472656809857,0.0,-3.085509162591172,0.0
4531053662.8715,-13.435267948763702,0.0,-3.0631618750747096,0.0
4531068662.871,-13.425999600982244,0.0,-3.1142055554713384,0.0
4531083662.8705,-13.43185825607042,0.0,-3.1389556373444747,0.0
4531098662.87,-13.42701874325474,0.0,-3.0562557497738694,0.0
4531113662.8695,-13.42399733600622,0.0,-3.1006258535972866,0.0
4531128662.869,-13.428011681770226,0.0,-3.0869941084664663,0.0
4531143662.8685,-13.43412440243759,0.0,-3.081572318057568,0.0
4531158662.868,-13.4298993183071,0.0,-3.0763464944915837,0.0
4531173662.8675,-13.421939894489201,0.0,-3.053762147624388,0.0
4531188662.867,-13.426947053463657,0.0,-3.1306077754112684,0.0
4531203662.8665,-13.422407520986344,0.0,-3.116022674594943,0.0
4531218662.866,-13.426040715946225,0.0,-3.1220451189176246,0.0
4531233662.8655,-13.425620749639865,0.0,-3.1558593794153023,0.0
4531248662.865,-13.425804636374586,0.0,-3.0868326390686813,0.0
4531263662.8645,-13.426576271478277,0.0,-3.161548907052766,0.0
4531278662.864,-13.431279945457696,0.0,-3.132056895402111,0.0
4531293662.8635,-13.424244695363488,0.0,-3.115774679852603,0.0
4531308662.863,-13.424584337919256,0.0,-3.152658075518869,0.0
4531323662.8625,-13.427220638775378,0.0,-3.1661266343338106,0.0
4531338662.862,-13.428444749528524,0.0,-3.0924115208485365,0.0
4531353662.8615,-13.415849600588096,0.0,-3.0533652160519082,0.0
4531368662.861,-13.417335529791185,0.0,-3.1350267874732385,0.0
4531383662.8605,-13.42171553054304,0.0,-3.1627551379784418,0.0
4531398662.86,-13.431287675440007,0.0,-3.2070705345289334,0.0
4531413662.8595,-13.43090899212089,0.0,-3.105363689223568,0.0
4531428662.859,-13.427020576603976,0.0,-3.1235837729885754,0.0
4531443662.8585,-13.427840490051734,0.0,-3.1494196777953656,0.0
4531458662.858,-13.430681581505723,0.0,-3.096445315721938,0.0
4531473662.8575,-13.420042059270314,0.0,-3.150769342219389,0.0
4531488662.857,-13.427408714034756,0.0,-3.164150707765004,0.0
4531503662.8565,-13.432599448101817,0.0,-3.1487124362494163,0.0
4531518662.856,-13.42463453165465,0.0,-3.145525250789233,0.0
4531533662.8555,-13.42697719269578,0.0,-3.1704441478157896,0.0
4531548662.855,-13.422646817838352,0.0,-3.174604488636552,0.0
4531563662.8545,-13.421096235426903,0.0,-3.2073378433114246,0.0
4531578662.854,-13.432338691782096,0.0,-3.1614955431965486,0.0
4531593662.8535,-13.433117180991182,0.0,-3.1752053209197593,0.0
4531608662.853,-13.43480092047582,0.0,-3.1845700594571142,0.0
4531623662.8525,-13.425422317042827,0.0,-3.172743587553796,0.0
4531638662.852,-13.431910324408587,0.0,-3.2101356787855693,0.0
4531653662.8515,-13.430141398711658,0.0,-3.2078083634772736,0.0
4531668662.851,-13.426672569674182,0.0,-3.236096571467924,0.0
4531683662.8505,-13.428960524906081,0.0,-3.1938790628883336,0.0
4531698662.85,-13.4299608011358,0.0,-3.2392169471696546,0.0
4531713662.8495,-13.427234749001737,0.0,-3.2124368052476107,0.0
4531728662.849,-13.423637964249174,0.0,-3.1859539574753417,0.0
4531743662.8485,-13.43154560365175,0.0,-3.244400165551562,0.0
4531758662.848,-13.431168501181453,0.0,-3.246008103172998,0.0
4531773662.8475,-13.425743404697037,0.0,-3.255154710466939,0.0
4531788662.847,-13.430350093619479,0.0,-3.205575112976343,0.0
4531803662.8465,-13.42728576930839,0.0,-3.19765450189007,0.0
4531818662.846,-13.435351716325206,0.0,-3.2836853016281955,0.0
4531833662.8455,-13.42513267648937,0.0,-3.2758988710444927,0.0
4531848662.845,-13.427999991528281,0.0,-3.2633673828936614,0.0
4531863662.8445,-13.43186553884754,0.0,-3.28496346455694,0.0
