Frequency,S11,S11-Q,S11-Phase,S11-Phase-Q
4527198663.0,-13.4283464734004,0.0,-2.475877574905063,0.0
4527213662.9995,-13.428643337279489,0.0,-2.5242300456650657,0.0
4527228662.999,-13.428538889676311,0.0,-2.54896040716393,0.0
4527243662.9985,-13.428104471110691,0.0,-2.561736787031886,0.0
4527258662.998,-13.422332397066372,0.0,-2.5230579500033317,0.0
4527273662.9975,-13.432059479970409,0.0,-2.55607131950089,0.0
4527288662.997,-13.421431945659508,0.0,-2.47027746813008,0.0
4527303662.9965,-13.427396761066667,0.0,-2.514902683931563,0.0
4527318662.996,-13.428000983544894,0.0,-2.5421231313474335,0.0
4527333662.9955,-13.434665269604121,0.0,-2.5046540258568832,0.0
4527348662.995,-13.437291450188606,0.0,-2.5126342905042747,0.0
4527363662.9945,-13.421469922465167,0.0,-2.559766433224756,0.0
4527378662.994,-13.427046240280054,0.0,-2.555088039087606,0.0
4527393662.9935,-13.434308568620342,0.0,-2.533416640415302,0.0
4527408662.993,-13.425184428229986,0.0,-2.596153891519785,0.0
4527423662.9925,-13.432722095378654,0.0,-2.590169010157967,0.0
4527438662.992,-13.433813062894536,0.0,-2.5382342954219816,0.0
4527453662.9915,-13.419890177228053,0.0,-2.5150777186976896,0.0
4527468662.991,-13.423758825462471,0.0,-2.538243424065075,0.0
4527483662.9905,-13.426530233394633,0.0,-2.561920080232058,0.0
4527498662.99,-13.430391076472345,0.0,-2.5844750527707796,0.0
4527513662.9895,-13.423259409191594,0.0,-2.5808051545651836,0.0
4527528662.989,-13.425414891793253,0.0,-2.578475980244275,0.0
4527543662.9885,-13.438272810705376,0.0,-2.5717031026035317,0.0
4527558662.988,-13.434137582014529,0.0,-2.5604104785303226,0.0
4527573662.9875,-13.435177776019767,0.0,-2.5794938023725824,0.0
4527588662.987,-13.428696988055203,0.0,-2.570270411410905,0.0
4527603662.9865,-13.439041622783144,0.0,-2.5930703292687958,0.0
4527618662.986,-13.4314485323502,0.0,-2.5696602436867533,0.0
4527633662.9855,-13.429336072817632,0.0,-2.5452665544863913,0.0
4527648662.985,-13.430023884699425,0.0,-2.5815270975928772,0.0
4527663662.9845,-13.41847015022016,0.0,-2.5914126290474893,0.0
4527678662.984,-13.432107880579533,0.0,-2.646800737500116,0.0
4527693662.9835,-13.420935131644944,0.0,-2.6669871345513605,0.0
4527708662.983,-13.422344570597817,0.0,-2.5878552337459078,0.0
4527723662.9825,-13.429933081474383,0.0,-2.634756137652841,0.0
4527738662.982,-13.433284752644559,0.0,-2.6223634734510646,0.0
4527753662.9815,-13.435166170844417,0.0,-2.5738887628618023,0.0
4527768662.981,-13.423155157944397,0.0,-2.617270744436106,0.0
4527783662.9805,-13.428533224149353,0.0,-2.578381961786777,0.0
4527798662.98,-13.417885538017778,0.0,-2.650895078510709,0.0
4527813662.9795,-13.420774296490048,0.0,-2.6667847812200085,0.0
4527828662.979,-13.427698325157774,0.0,-2.5927643064639954,0.0
4527843662.9785,-13.437137637884103,0.0,-2.5762938776103597,0.0
4527858662.978,-13.429898717583423,0.0,-2.5931916057050657,0.0
4527873662.9775,-13.4211528609867,0.0,-2.6113019935128063,0.0
4527888662.977,-13.43853205797725,0.0,-2.610642774709691,0.0
4527903662.9765,-13.435375184519591,0.0,-2.6036175008114966,0.0
4527918662.976,-13.422274323152294,0.0,-2.593930249861047,0.0
4527933662.9755,-13.427207999810404,0.0,-2.640833841376175,0.0
4527948662.975,-13.434434801133811,0.0,-2.6472459310741865,0.0
4527963662.9745,-13.433913320876872,0.0,-2.604571615584524,0.0
4527978662.974,-13.433089136286023,0.0,-2.6043996151485382,0.0
4527993662.9735,-13.432958575559468,0.0,-2.6656480353040735,0.0
4528008662.973,-13.432333027486932,0.0,-2.639854312305899,0.0
4528023662.9725,-13.42374941200243,0.0,-2.6456287913481225,0.0
4528038662.972,-13.431895037935064,0.0,-2.6751162105787274,0.0
4528053662.9715,-13.428870520523482,0.0,-2.629491309371543,0.0
4528068662.971,-13.440397802485204,0.0,-2.5856315286910108,0.0
4528083662.9705,-13.423637449497068,0.0,-2.6459336373043016,0.0
4528098662.97,-13.430835127785931,0.0,-2.665009717453775,0.0
4528113662.9695,-13.428257291236816,0.0,-2.658255350498164,0.0
4528128662.969,-13.434958180560123,0.0,-2.6750035764860347,0.0
4528143662.9685,-13.426186365413887,0.0,-2.666281247441662,0.0
4528158662.968,-13.427324143130983,0.0,-2.5828142565594394,0.0
4528173662.9675,-13.41724481351115,0.0,-2.647895671727707,0.0
4528188662.967,-13.430462996709593,0.0,-2.6851146329501145,0.0
4528203662.9665,-13.42266162319837,0.0,-2.7154512341474324,0.0
4528218662.966,-13.434744033116829,0.0,-2.609968302086761,0.0
4528233662.9655,-13.428922406060579,0.0,-2.6957626635741163,0.0
4528248662.965,-13.428788424054245,0.0,-2.6917512896538778,0.0
4528263662.9645,-13.433632299900049,0.0,-2.6474203142081287,0.0
4528278662.964,-13.4355315433574,0.0,-2.6326380520701718,0.0
4528293662.9635,-13.43356365588896,0.0,-2.6759580046787605,0.0
4528308662.963,-13.428357344565157,0.0,-2.6587558046438504,0.0
4528323662.9625,-13.432143616757983,0.0,-2.7720721906561425,0.0
4528338662.962,-13.432216038514653,0.0,-2.712514027670487,0.0
4528353662.9615,-13.429419056807927,0.0,-2.684822180857339,0.0
4528368662.961,-13.428107944817963,0.0,-2.735394767784213,0.0
4528383662.9605,-13.441760876915707,0.0,-2.721708236925744,0.0
4528398662.96,-13.435537553282426,0.0,-2.7043052882705725,0.0
4528413662.9595,-13.42739907726215,0.0,-2.7753438335056955,0.0
4528428662.959,-13.4227615817863,0.0,-2.699210849029857,0.0
4528443662.9585,-13.431607476022574,0.0,-2.7489128694543283,0.0
4528458662.958,-13.421802029349998,0.0,-2.6847557906709314,0.0
4528473662.9575,-13.434658398736985,0.0,-2.738858857507045,0.0
4528488662.957,-13.42392695203375,0.0,-2.6524193434420433,0.0
4528503662.9565,-13.440176866436733,0.0,-2.720254920387453,0.0
4528518662.956,-13.428188153044855,0.0,-2.733052156096731,0.0
4528533662.9555,-13.432970481559368,0.0,-2.7154615449908537,0.0
4528548662.955,-13.435187394890306,0.0,-2.745139647345239,0.0
4528563662.9545,-13.437191824188668,0.0,-2.7276347382003885,0.0
4528578662.954,-13.426696056103683,0.0,-2.71974296217209,0.0
4528593662.9535,-13.4250277437065,0.0,-2.7462428316602097,0.0
4528608662.953,-13.43541794996656,0.0,-2.706232187741604,0.0
4528623662.9525,-13.441294100188038,0.0,-2.777533013636604,0.0
4528638662.952,-13.438049881524075,0.0,-2.735334120429108,0.0
4528653662.9515,-13.428291689735786,0.0,-2.7900308457069656,0.0
4528668662.951,-13.413152601297782,0.0,-2.7677836814615437,0.0
4528683662.9505,-13.426142803574647,0.0,-2.7855975719687995,0.0
4528698662.95,-13.43064962527416,0.0,-2.7247826383574414,0.0
4528713662.9495,-13.43529977954595,0.0,-2.7963319091863843,0.0
4528728662.949,-13.439781424162573,0.0,-2.7804577898954195,0.0
4528743662.9485,-13.434049002902725,0.0,-2.7728375609371563,0.0
4528758662.948,-13.440049910255631,0.0,-2.7399071117624505,0.0
4528773662.9475,-13.435312923182352,0.0,-2.7194481834951647,0.0
4528788662.947,-13.439328305725143,0.0,-2.798244099911424,0.0
4528803662.9465,-13.426521037886491,0.0,-2.8117852183558067,0.0
4528818662.946,-13.435040312310939,0.0,-2.828638684801351,0.0
4528833662.9455,-13.424810777738083,0.0,-2.6940594096247312,0.0
4528848662.945,-13.427163745692788,0.0,-2.8362654949460433,0.0
4528863662.9445,-13.434163255056701,0.0,-2.8190321572529013,0.0
4528878662.944,-13.424411805832584,0.0,-2.844054116826629,0.0
4528893662.9435,-13.42541269346269,0.0,-2.7446127871947428,0.0
4528908662.943,-13.426371368731944,0.0,-2.7754746112277293,0.0
4528923662.9425,-13.435698321082123,0.0,-2.8163643888017007,0.0
4528938662.942,-13.423670553816091,0.0,-2.7994855647528594,0.0
4528953662.9415,-13.436866037203378,0.0,-2.8456208015836593,0.0
4528968662.941,-13.428707716771957,0.0,-2.8171071513811192,0.0
4528983662.9405,-13.430118133618405,0.0,-2.844886098424288,0.0
4528998662.94,-13.432041720929336,0.0,-2.7802820202174994,0.0
4529013662.9395,-13.42817187272348,0.0,-2.849374604462567,0.0
4529028662.939,-13.431529583195019,0.0,-2.819037122199846,0.0
4529043662.9385,-13.429071480938038,0.0,-2.801617810772433,0.0
4529058662.938,-13.422924961957763,0.0,-2.843486834809534,0.0
4529073662.9375,-13.426909030042722,0.0,-2.8118428546552083,0.0
4529088662.937,-13.431352822613983,0.0,-2.8025060204540906,0.0
4529103662.9365,-13.434673893540502,0.0,-2.8160247555488107,0.0
4529118662.936,-13.42987922368134,0.0,-2.8622170074650057,0.0
4529133662.9355,-13.430619679335203,0.0,-2.8153730887956803,0.0
4529148662.935,-13.434509771434538,0.0,-2.882896643548355,0.0
4529163662.9345,-13.44018564663299,0.0,-2.749555269231909,0.0
4529178662.934,-13.435129086425096,0.0,-2.8213991289264815,0.0
4529193662.9335,-13.4386191950329,0.0,-2.8811541640361704,0.0
4529208662.933,-13.433549295434222,0.0,-2.8072800826749233,0.0
4529223662.9325,-13.427268766774336,0.0,-2.8166588553256293,0.0
4529238662.932,-13.437079818653784,0.0,-2.8796681172876224,0.0
4529253662.9315,-13.426476181753808,0.0,-2.853697008489583,0.0
4529268662.931,-13.418084487863172,0.0,-2.9232857837170534,0.0
4529283662.9305,-13.432665200463035,0.0,-2.8168246556722005,0.0
4529298662.93,-13.431792733006997,0.0,-2.899295064362155,0.0
4529313662.9295,-13.432305154957742,0.0,-2.914753593124006,0.0
4529328662.929,-13.42871877435325,0.0,-2.8538024516332094,0.0
4529343662.9285,-13.440551589249834,0.0,-2.8659274603930855,0.0
4529358662.928,-13.432682359150904,0.0,-2.8811935145795116,0.0
4529373662.9275,-13.432489820687522,0.0,-2.9413084125016424,0.0
4529388662.927,-13.433820509591234,0.0,-2.864257272940029,0.0
4529403662.9265,-13.428741826084726,0.0,-2.93880506708446,0.0
4529418662.926,-13.44214176765278,0.0,-2.9303166575713187,0.0
4529433662.9255,-13.430423036242543,0.0,-2.896727743563614,0.0
4529448662.925,-13.433588455275217,0.0,-2.9301437758231996,0.0
4529463662.9245,-13.439149854297348,0.0,-2.890251307149751,0.0
4529478662.924,-13.433049454102841,0.0,-2.9137644338405084,0.0
4529493662.9235,-13.441635454074026,0.0,-2.9395249741242795,0.0
4529508662.923,-13.436277563413167,0.0,-2.8738550283740567,0.0
4529523662.9225,-13.440373940737835,0.0,-2.8689052976853033,0.0
4529538662.922,-13.42533013887535,0.0,-2.9397213540908522,0.0
4529553662.9215,-13.437180673002658,0.0,-2.9422309871040815,0.0
4529568662.921,-13.43894951653917,0.0,-2.898374007911958,0.0
4529583662.9205,-13.428163932694883,0.0,-2.938277636376741,0.0
4529598662.92,-13.44053553593291,0.0,-2.901528751291508,0.0
4529613662.9195,-13.430077435587599,0.0,-2.8388152730535907,0.0
4529628662.919,-13.43840600797204,0.0,-2.9421862000372596,0.0
4529643662.9185,-13.432326179541835,0.0,-2.943964411902748,0.0
4529658662.918,-13.440738502271168,0.0,-2.9727833507520067,0.0
4529673662.9175,-13.429793146779005,0.0,-2.9143976606945126,0.0
4529688662.917,-13.437649220581138,0.0,-2.9205543768640565,0.0
4529703662.9165,-13.444682837389664,0.0,-2.955816259512049,0.0
4529718662.916,-13.43097099262997,0.0,-2.945422848627211,0.0
4529733662.9155,-13.43381958971403,0.0,-2.9308244926538234,0.0
4529748662.915,-13.435168344161465,0.0,-2.969946648567658,0.0
4529763662.9145,-13.43385991516326,0.0,-2.989119099301101,0.0
4529778662.914,-13.426887579161495,0.0,-2.932194806180265,0.0
4529793662.9135,-13.426863821724202,0.0,-2.9162738741098795,0.0
4529808662.913,-13.438066149384355,0.0,-2.9655514558718212,0.0
4529823662.9125,-13.434053155288819,0.0,-2.9651894298220585,0.0
4529838662.912,-13.429949435294805,0.0,-2.940159556296533,0.0
4529853662.9115,-13.4382463578393,0.0,-3.0227743680705315,0.0
4529868662.911,-13.435004686329957,0.0,-2.9864988282733194,0.0
4529883662.9105,-13.426680632159897,0.0,-2.961410511261192,0.0
4529898662.91,-13.434184847568986,0.0,-3.042143732987229,0.0
4529913662.9095,-13.429478419326681,0.0,-2.9792452056795673,0.0
4529928662.909,-13.433319823280037,0.0,-2.96021633350659,0.0
4529943662.9085,-13.423126999071135,0.0,-3.0507443719124647,0.0
4529958662.908,-13.439988737925518,0.0,-2.9744512206139135,0.0
4529973662.9075,-13.433782701109248,0.0,-2.968525451229919,0.0
4529988662.907,-13.431666686426823,0.0,-2.9844540108242272,0.0
4530003662.9065,-13.429156734266632,0.0,-2.985514614674405,0.0
4530018662.906,-13.43367373416209,0.0,-3.0384736924474045,0.0
4530033662.9055,-13.440144513502446,0.0,-3.042247567450945,0.0
4530048662.905,-13.442117057803662,0.0,-3.039078067036478,0.0
4530063662.9045,-13.441953161906246,0.0,-3.0051446571141485,0.0
4530078662.904,-13.42859841064479,0.0,-2.997867871050716,0.0
4530093662.9035,-13.43040129185294,0.0,-3.0605817821556904,0.0
4530108662.903,-13.428346537095607,0.0,-3.011842414573475,0.0
4530123662.9025,-13.43091915602757,0.0,-3.02477414546709,0.0
4530138662.902,-13.43601509873377,0.0,-3.1043736720541313,0.0
4530153662.9015,-13.437218516108347,0.0,-3.012547789280966,0.0
4530168662.901,-13.432465324997056,0.0,-3.056551448725076,0.0
4530183662.9005,-13.442244504126172,0.0,-3.037653468116229,0.0
4530198662.9,-13.44043246479824,0.0,-3.0643388396237823,0.0
4530213662.8995,-13.44103829875652,0.0,-3.035948858660602,0.0
4530228662.899,-13.4331036393129,0.0,-3.0990409442989937,0.0
4530243662.8985,-13.426591772193026,0.0,-3.1122578983528766,0.0
4530258662.898,-13.4336303175486,0.0,-3.098923557392261,0.0
4530273662.8975,-13.433027281149926,0.0,-3.1217935483521257,0.0
4530288662.897,-13.433677641586815,0.0,-3.0984140025561304,0.0
4530303662.8965,-13.443489314862891,0.0,-3.038100939711541,0.0
4530318662.896,-13.426569945004198,0.0,-3.070270902756933,0.0
4530333662.8955,-13.430870810140654,0.0,-3.0822371665900223,0.0
4530348662.895,-13.42634337840337,0.0,-3.078587055111486,0.0
4530363662.8945,-13.438602721626065,0.0,-3.14535998334696,0.0
4530378662.894,-13.434092071446857,0.0,-3.061062212729297,0.0
4530393662.8935,-13.433123692004736,0.0,-3.1206590398096945,0.0
4530408662.893,-13.438174526963635,0.0,-3.0817044416808055,0.0
4530423662.8925,-13.443781244659066,0.0,-3.0465585122481587,0.0
4530438662.892,-13.444939790320731,0.0,-3.172458386437794,0.0
4530453662.8915,-13.440297526594556,0.0,-3.1403817051417815,0.0
4530468662.891,-13.432179734563952,0.0,-3.15394245424615,0.0
4530483662.8905,-13.43958701964806,0.0,-3.0952644659514723,0.0
4530498662.89,-13.441997810622318,0.0,-3.1384822797927523,0.0
4530513662.8895,-13.437992320542547,0.0,-3.0849762675461028,0.0
4530528662.889,-13.434022342810692,0.0,-3.097612951903028,0.0
4530543662.8885,-13.432253884013864,0.0,-3.0935306914704395,0.0
4530558662.888,-13.435381972295207,0.0,-3.14568940273313,0.0
4530573662.8875,-13.440700210368098,0.0,-3.1330388439408905,0.0
4530588662.887,-13.430396815080117,0.0,-3.0969347583526994,0.0
4530603662.8865,-13.43934366126369,0.0,-3.0680941717992973,0.0
4530618662.886,-13.44302582961898,0.0,-3.1922904683515285,0.0
4530633662.8855,-13.432885089604543,0.0,-3.136331972760751,0.0
4530648662.885,-13.436673280521976,0.0,-3.1911969532861697,0.0
4530663662.8845,-13.439200308275714,0.0,-3.1131090591896644,0.0
4530678662.884,-13.42983451075108,0.0,-3.1576153980767026,0.0
4530693662.8835,-13.435426788259209,0.0,-3.1812403684915305,0.0
4530708662.883,-13.436669727804063,0.0,-3.1629870259880297,0.0
4530723662.8825,-13.4433489312953,0.0,-3.206103290941245,0.0
4530738662.882,-13.438421212383574,0.0,-3.198499208657328,0.0
4530753662.8815,-13.435455102075483,0.0,-3.1370623429676154,0.0
4530768662.881,-13.432450920306263,0.0,-3.204117852396443,0.0
4530783662.8805,-13.431938768720716,0.0,-3.171189670181505,0.0
4530798662.88,-13.435121703034305,0.0,-3.257105664447822,0.0
4530813662.8795,-13.43964468152259,0.0,-3.1470438276618613,0.0
4530828662.879,-13.438191956012076,0.0,-3.150730966552935,0.0
4530843662.8785,-13.43793035392225,0.0,-3.193922308020883,0.0
4530858662.878,-13.43993743137678,0.0,-3.1673782267590505,0.0
4530873662.8775,-13.441007767075174,0.0,-3.274407010957305,0.0
4530888662.877,-13.433271293609552,0.0,-3.2313909029309973,0.0
4530903662.8765,-13.442103433862266,0.0,-3.269054959044405,0.0
4530918662.876,-13.433963867967014,0.0,-3.213548151576997,0.0
4530933662.8755,-13.426302754637966,0.0,-3.1716648861379615,0.0
4530948662.875,-13.436901594285843,0.0,-3.220196439389888,0.0
4530963662.8745,-13.436971330957695,0.0,-3.274343289608559,0.0
4530978662.874,-13.439554091527423,0.0,-3.171254998153603,0.0
4530993662.8735,-13.437219809030918,0.0,-3.261766566483976,0.0
4531008662.873,-13.444164675574054,0.0,-3.232774651518987,0.0
4531023662.8725,-13.440801148788859,0.0,-3.26467238226717,0.0
4531038662.872,-13.432685054981246,0.0,-3.246346511011076,0.0
4531053662.8715,-13.431993992565586,0.0,-3.2174065316701044,0.0
4531068662.871,-13.444092777555257,0.0,-3.257659629587864,0.0
4531083662.8705,-13.435795286441255,0.0,-3.313747539177582,0.0
4531098662.87,-13.444764368186863,0.0,-3.2800327750865503,0.0
4531113662.8695,-13.443784754153285,0.0,-3.2815341130883344,0.0
4531128662.869,-13.439293495828078,0.0,-3.2443034196877067,0.0
4531143662.8685,-13.42957295722712,0.0,-3.2596567970954866,0.0
4531158662.868,-13.446653205620267,0.0,-3.3681711239658916,0.0
4531173662.8675,-13.434126839685462,0.0,-3.300731668512248,0.0
4531188662.867,-13.442394578992232,0.0,-3.25972456697336,0.0
4531203662.8665,-13.435677432317725,0.0,-3.2478533293045917,0.0
4531218662.866,-13.43981873628991,0.0,-3.2802515752110857,0.0
4531233662.8655,-13.439405812417851,0.0,-3.2541466063293605,0.0
4531248662.865,-13.44993556830428,0.0,-3.3014793213126246,0.0
4531263662.8645,-13.439600486080225,0.0,-3.272138750506972,0.0
4531278662.864,-13.441314030110972,0.0,-3.372722263775755,0.0
4531293662.8635,-13.426453567195288,0.0,-3.3000577225009327,0.0
4531308662.863,-13.440103808796056,0.0,-3.300218380521183,0.0
4531323662.8625,-13.434422527021699,0.0,-3.351679392716368,0.0
4531338662.862,-13.438570371840877,0.0,-3.3275582723723334,0.0
4531353662.8615,-13.437341078557365,0.0,-3.3777428084641863,0.0
4531368662.861,-13.440931983289925,0.0,-3.341770643116329,0.0
4531383662.8605,-13.442553847204838,0.0,-3.3561415962262124,0.0
4531398662.86,-13.432584713813585,0.0,-3.343740612036185,0.0
4531413662.8595,-13.441369237739123,0.0,-3.369052776946255,0.0
4531428662.859,-13.447334291596908,0.0,-3.386521919699284,0.0
4531443662.8585,-13.4412464383678,0.0,-3.3692158507534304,0.0
4531458662.858,-13.437428359835426,0.0,-3.3458228746899263,0.0
4531473662.8575,-13.43667809193277,0.0,-3.3368714461470352,0.0
4531488662.857,-13.43346537047994,0.0,-3.315972731220796,0.0
4531503662.8565,-13.43927573426988,0.0,-3.3254900303427184,0.0
4531518662.856,-13.445926354792181,0.0,-3.4148134744685024,0.0
4531533662.8555,-13.439557935859682,0.0,-3.410533172583882,0.0
4531548662.855,-13.441052125266395,0.0,-3.368031167016613,0.0
4531563662.8545,-13.44917208740416,0.0,-3.3360769177261242,0.0
4531578662.854,-13.445837323186966,0.0,-3.4186453842203886,0.0
4531593662.8535,-13.445705938150368,0.0,-3.397875361052653,0.0
4531608662.853,-13.43642367128255,0.0,-3.3272757948157676,0.0
4531623662.8525,-13.438674103868715,0.0,-3.41053355832028,0.0
4531638662.852,-13.443190379034242,0.0,-3.366956368208438,0.0
4531653662.8515,-13.445988855775408,0.0,-3.3637490799048306,0.0
4531668662.851,-13.439828642256161,0.0,-3.3566607494939316,0.0
4531683662.8505,-13.439584982495145,0.0,-3.438465042570319,0.0
4531698662.85,-13.441346875940912,0.0,-3.451787035531805,0.0
4531713662.8495,-13.448848571572817,0.0,-3.3499168674419875,0.0
4531728662.849,-13.444091043346834,0.0,-3.4445024017888133,0.0
4531743662.8485,-13.444012660235229,0.0,-3.436344968613829,0.0
4531758662.848,-13.440894354074493,0.0,-3.447649355850196,0.0
4531773662.8475,-13.441297022962837,0.0,-3.464869255119054,0.0
4531788662.847,-13.442481730778464,0.0,-3.5035059380850186,0.0
4531803662.8465,-13.4466627302061,0.0,-3.449983620940603,0.0
4531818662.846,-13.44095695668688,0.0,-3.44034745855042,0.0
4531833662.8455,-13.439533214100958,0.0,-3.4593701122250846,0.0
4531848662.845,-13.443881559179264,0.0,-3.4950498701710773,0.0
4531863662.8445,-13.439329369781582,0.0,-3.424947564831331,0.0
4531878662.844,-13.437931895378165,0.0,-3.4438587974604165,0.0
