Frequency,S11,S11-Q,S11-Phase,S11-Phase-Q
4527198663.0,-13.435207948235243,0.0,-2.671102861178447,0.0
4527213662.9995,-13.428570711560525,0.0,-2.70631088335934,0.0
4527228662.999,-13.428401072907128,0.0,-2.6826368276556916,0.0
4527243662.9985,-13.428379729201186,0.0,-2.732448557095012,0.0
4527258662.998,-13.429470282230813,0.0,-2.733704028402798,0.0
4527273662.9975,-13.422116832210325,0.0,-2.711743969687923,0.0
4527288662.997,-13.42773614476459,0.0,-2.7041451860248693,0.0
4527303662.9965,-13.434499965500468,0.0,-2.779370134695315,0.0
4527318662.996,-13.434134590110855,0.0,-2.67506746739876,0.0
4527333662.9955,-13.427315623743414,0.0,-2.6580834635343833,0.0
4527348662.995,-13.429011641160713,0.0,-2.6837759386557534,0.0
4527363662.9945,-13.433370305978316,0.0,-2.734839371034159,0.0
4527378662.994,-13.42741985700248,0.0,-2.719377080384841,0.0
4527393662.9935,-13.428040208645305,0.0,-2.7268770637140243,0.0
4527408662.993,-13.433976724656969,0.0,-2.7484976579486875,0.0
4527423662.9925,-13.427947581181288,0.0,-2.697676692511071,0.0
4527438662.992,-13.438466625295325,0.0,-2.7926144131451105,0.0
4527453662.9915,-13.426854658697243,0.0,-2.701113853908147,0.0
4527468662.991,-13.421740184841571,0.0,-2.768533373987521,0.0
4527483662.9905,-13.41724733412507,0.0,-2.7583450734559185,0.0
4527498662.99,-13.429811739418831,0.0,-2.69214299467536,0.0
4527513662.9895,-13.425011219575332,0.0,-2.717479278604432,0.0
4527528662.989,-13.430852505853386,0.0,-2.797361273844215,0.0
4527543662.9885,-13.433637973009638,0.0,-2.7583515182434293,0.0
4527558662.988,-13.433807849201354,0.0,-2.6454487999737135,0.0
4527573662.9875,-13.435998489360312,0.0,-2.6964414735904656,0.0
4527588662.987,-13.440169652893015,0.0,-2.777806296533495,0.0
4527603662.9865,-13.424356107174562,0.0,-2.789013786225544,0.0
4527618662.986,-13.432482719724707,0.0,-2.6936809274745688,0.0
4527633662.9855,-13.431089935535477,0.0,-2.7275489984796533,0.0
4527648662.985,-13.429192799058427,0.0,-2.814850779554754,0.0
4527663662.9845,-13.43226164187418,0.0,-2.7692429292959475,0.0
4527678662.984,-13.430227613782474,0.0,-2.776707454009483,0.0
4527693662.9835,-13.440289150185214,0.0,-2.7660928606797652,0.0
4527708662.983,-13.43130534020596,0.0,-2.7420290636390034,0.0
4527723662.9825,-13.427926483365784,0.0,-2.8211775837396535,0.0
4527738662.982,-13.42614695547429,0.0,-2.7928491102754225,0.0
4527753662.9815,-13.425193005068225,0.0,-2.8560250816881183,0.0
4527768662.981,-13.433121050630527,0.0,-2.7740659443979383,0.0
4527783662.9805,-13.420130278599942,0.0,-2.8308196595167265,0.0
4527798662.98,-13.432539604575027,0.0,-2.790302794001182,0.0
4527813662.9795,-13.429063883916115,0.0,-2.844729128467331,0.0
4527828662.979,-13.42641434831985,0.0,-2.736671463025529,0.0
4527843662.9785,-13.440921115644125,0.0,-2.8004458457940675,0.0
4527858662.978,-13.428591963232746,0.0,-2.771075375018063,0.0
4527873662.9775,-13.436400701289486,0.0,-2.8081913428169836,0.0
4527888662.977,-13.440683416178574,0.0,-2.8126493927030265,0.0
4527903662.9765,-13.432974187176443,0.0,-2.824051213091031,0.0
4527918662.976,-13.431942559285222,0.0,-2.818704413071439,0.0
4527933662.9755,-13.429071398620774,0.0,-2.8106278442836454,0.0
4527948662.975,-13.427338603317034,0.0,-2.820608209076078,0.0
4527963662.9745,-13.435747312841624,0.0,-2.8249059556303378,0.0
4527978662.974,-13.440356334064337,0.0,-2.811434740228767,0.0
4527993662.9735,-13.425182036579669,0.0,-2.8144438327693964,0.0
4528008662.973,-13.426634334179287,0.0,-2.893313438985483,0.0
4528023662.9725,-13.427405826686073,0.0,-2.886232294876469,0.0
4528038662.972,-13.435189298383793,0.0,-2.895326910719051,0.0
4528053662.9715,-13.425438675256942,0.0,-2.825710644157078,0.0
4528068662.971,-13.445370604108716,0.0,-2.8374429899340132,0.0
4528083662.9705,-13.433639306767047,0.0,-2.79071741489901,0.0
4528098662.97,-13.435143494477233,0.0,-2.86256220896639,0.0
4528113662.9695,-13.438155508863725,0.0,-2.8605618068438767,0.0
4528128662.969,-13.435411707619869,0.0,-2.8579856252783626,0.0
4528143662.9685,-13.42763266416916,0.0,-2.8754625751285317,0.0
4528158662.968,-13.42959404687827,0.0,-2.9089459549966525,0.0
4528173662.9675,-13.440495869560875,0.0,-2.812310041140069,0.0
4528188662.967,-13.43935327893977,0.0,-2.848789760820357,0.0
4528203662.9665,-13.443918347199899,0.0,-2.912840445501253,0.0
4528218662.966,-13.442307517812006,0.0,-2.926172034893888,0.0
4528233662.9655,-13.4366170935632,0.0,-2.886226132883189,0.0
4528248662.965,-13.42703024525923,0.0,-2.8963097900937975,0.0
4528263662.9645,-13.431632570360295,0.0,-2.911392796668742,0.0
4528278662.964,-13.418505425403183,0.0,-2.929355668731762,0.0
4528293662.9635,-13.427313016297468,0.0,-2.9298393754398706,0.0
4528308662.963,-13.421699246622332,0.0,-2.884268020671939,0.0
4528323662.9625,-13.425703459358731,0.0,-2.882642923916741,0.0
4528338662.962,-13.432749067583638,0.0,-2.8823994805301614,0.0
4528353662.9615,-13.433557079425684,0.0,-2.8285595060593938,0.0
4528368662.961,-13.44545168875934,0.0,-2.9056786033472366,0.0
4528383662.9605,-13.434486554057209,0.0,-2.937867023694566,0.0
4528398662.96,-13.428561062370182,0.0,-2.8671632621592424,0.0
4528413662.9595,-13.439854797061326,0.0,-2.9623555099718333,0.0
4528428662.959,-13.434049784838729,0.0,-2.9055884833815675,0.0
4528443662.9585,-13.43025912269949,0.0,-2.9201992068354903,0.0
4528458662.958,-13.443372959199554,0.0,-2.9999444151649493,0.0
4528473662.9575,-13.43471718854634,0.0,-2.915722292214573,0.0
4528488662.957,-13.433692515034984,0.0,-2.909895814127131,0.0
4528503662.9565,-13.434171446366378,0.0,-2.925488766270709,0.0
4528518662.956,-13.443771474182633,0.0,-2.9025455820015025,0.0
4528533662.9555,-13.435182256254096,0.0,-2.9316263680222265,0.0
4528548662.955,-13.433363322736767,0.0,-2.941796976734801,0.0
4528563662.9545,-13.434800411405721,0.0,-2.984209840865519,0.0
4528578662.954,-13.427208203560639,0.0,-2.9592777874495444,0.0
4528593662.9535,-13.438822196554455,0.0,-2.9774018813040732,0.0
4528608662.953,-13.437523972499193,0.0,-2.982143786721404,0.0
4528623662.9525,-13.446347309755751,0.0,-2.9945858610142158,0.0
4528638662.952,-13.44025989371255,0.0,-3.0140090319287762,0.0
4528653662.9515,-13.43896951450223,0.0,-3.0290516369378757,0.0
4528668662.951,-13.435852114974498,0.0,-2.9443882500878433,0.0
4528683662.9505,-13.431429946453747,0.0,-2.972695550918222,0.0
4528698662.95,-13.4395939592433,0.0,-2.9847078843312396,0.0
4528713662.9495,-13.429038677898093,0.0,-2.955344719399351,0.0
4528728662.949,-13.448705172851753,0.0,-2.974341803190175,0.0
4528743662.9485,-13.44033403097631,0.0,-2.92340854741401,0.0
4528758662.948,-13.439581750631977,0.0,-2.948224295335478,0.0
4528773662.9475,-13.43447010375142,0.0,-2.9874145618175634,0.0
4528788662.947,-13.431205712448024,0.0,-2.9817055194751325,0.0
4528803662.9465,-13.435175430472828,0.0,-3.0220946359962175,0.0
4528818662.946,-13.433730439203526,0.0,-3.0029797220919097,0.0
4528833662.9455,-13.438871099720416,0.0,-3.0269751295662264,0.0
4528848662.945,-13.435705000736931,0.0,-3.040458081045931,0.0
4528863662.9445,-13.433573401355359,0.0,-3.050286347962731,0.0
4528878662.944,-13.436242422033988,0.0,-3.032062551382452,0.0
4528893662.9435,-13.428852816882745,0.0,-2.9859666699290317,0.0
4528908662.943,-13.435828203510294,0.0,-3.050467677126603,0.0
4528923662.9425,-13.434958752561855,0.0,-3.044659881318247,0.0
4528938662.942,-13.435446224520526,0.0,-3.0471226774324465,0.0
4528953662.9415,-13.435926151791588,0.0,-2.991891944866333,0.0
4528968662.941,-13.433836891317835,0.0,-3.0909765612008386,0.0
4528983662.9405,-13.434726653683583,0.0,-3.0782260393034258,0.0
4528998662.94,-13.439726877259805,0.0,-3.0480733173453123,0.0
4529013662.9395,-13.439674088708756,0.0,-3.054981637156481,0.0
4529028662.939,-13.443885757340828,0.0,-3.067178170257211,0.0
4529043662.9385,-13.433373996505754,0.0,-3.0277466365683026,0.0
4529058662.938,-13.440266308899343,0.0,-3.0872517756472484,0.0
4529073662.9375,-13.43294452982914,0.0,-3.086502134760036,0.0
4529088662.937,-13.43932368259557,0.0,-3.06703119807323,0.0
4529103662.9365,-13.435848164172054,0.0,-3.085815690666977,0.0
4529118662.936,-13.436929877292902,0.0,-3.021179428893504,0.0
4529133662.9355,-13.432725744877871,0.0,-3.0757289052542256,0.0
4529148662.935,-13.4437551229356,0.0,-3.116473630063701,0.0
4529163662.9345,-13.439025429791807,0.0,-3.1302822384368887,0.0
4529178662.934,-13.439241478481602,0.0,-3.0625434178925466,0.0
4529193662.9335,-13.444012261200367,0.0,-3.100817943459438,0.0
4529208662.933,-13.444018229503971,0.0,-3.115834058638554,0.0
4529223662.9325,-13.441061860889693,0.0,-3.0450518299054803,0.0
4529238662.932,-13.443108168474405,0.0,-3.112341067507727,0.0
4529253662.9315,-13.441106825484084,0.0,-3.103450497958039,0.0
4529268662.931,-13.440631236918962,0.0,-3.1023354605821343,0.0
4529283662.9305,-13.43461390169521,0.0,-3.1231363246935,0.0
4529298662.93,-13.43323841104976,0.0,-3.0844314940307354,0.0
4529313662.9295,-13.433395234908822,0.0,-3.0955387487526917,0.0
4529328662.929,-13.435650828526068,0.0,-3.1337375116270825,0.0
4529343662.9285,-13.437116899070833,0.0,-3.129647753260244,0.0
4529358662.928,-13.423237476845483,0.0,-3.1012583278468013,0.0
4529373662.9275,-13.437132586695073,0.0,-3.1806226708326104,0.0
4529388662.927,-13.441004151268782,0.0,-3.1694160266320104,0.0
4529403662.9265,-13.439241598133025,0.0,-3.1613624756204906,0.0
4529418662.926,-13.435286850130845,0.0,-3.181959008102094,0.0
4529433662.9255,-13.431353382903726,0.0,-3.1967960017391674,0.0
4529448662.925,-13.438611718011765,0.0,-3.1004820255351087,0.0
4529463662.9245,-13.435385236401817,0.0,-3.1959400230134936,0.0
4529478662.924,-13.429513541345322,0.0,-3.150074634602851,0.0
4529493662.9235,-13.437538485720225,0.0,-3.1905393070793004,0.0
4529508662.923,-13.434284816831639,0.0,-3.163521958346923,0.0
4529523662.9225,-13.448739061949675,0.0,-3.1314374162640677,0.0
4529538662.922,-13.443372450799183,0.0,-3.161791976227255,0.0
4529553662.9215,-13.443049768760847,0.0,-3.134964910166096,0.0
4529568662.921,-13.438917553753662,0.0,-3.192043959137551,0.0
4529583662.9205,-13.441391317402893,0.0,-3.2533955624136808,0.0
4529598662.92,-13.442340277271736,0.0,-3.210323053676788,0.0
4529613662.9195,-13.43899288456237,0.0,-3.2340289540083087,0.0
4529628662.919,-13.450936171436986,0.0,-3.162439377668645,0.0
4529643662.9185,-13.447068777679066,0.0,-3.189956777442779,0.0
4529658662.918,-13.44089594846874,0.0,-3.135720993499323,0.0
4529673662.9175,-13.436744925631722,0.0,-3.270021082280997,0.0
4529688662.917,-13.441562647259286,0.0,-3.2523003077342585,0.0
4529703662.9165,-13.440657796813731,0.0,-3.216789471062588,0.0
4529718662.916,-13.432684738626847,0.0,-3.289803232726449,0.0
4529733662.9155,-13.44827787348548,0.0,-3.1998358824808326,0.0
4529748662.915,-13.443649009144876,0.0,-3.18067067778709,0.0
4529763662.9145,-13.44900732138824,0.0,-3.265185448759351,0.0
4529778662.914,-13.444887852346351,0.0,-3.2762528870342824,0.0
4529793662.9135,-13.443084004186101,0.0,-3.243541737834801,0.0
4529808662.913,-13.439286956240878,0.0,-3.2702990392295255,0.0
4529823662.9125,-13.44172963423057,0.0,-3.2044819276517917,0.0
4529838662.912,-13.44628894488862,0.0,-3.2942945797099465,0.0
4529853662.9115,-13.436760612284452,0.0,-3.2680131725962136,0.0
4529868662.911,-13.435820469584211,0.0,-3.272287481443305,0.0
4529883662.9105,-13.443731887065942,0.0,-3.2939420139612587,0.0
4529898662.91,-13.443997923913631,0.0,-3.268543633932847,0.0
4529913662.9095,-13.441649448163062,0.0,-3.274428562457951,0.0
4529928662.909,-13.448705662382883,0.0,-3.284290345838326,0.0
4529943662.9085,-13.446981844503846,0.0,-3.3206038161209834,0.0
4529958662.908,-13.446095462365161,0.0,-3.314436858104107,0.0
4529973662.9075,-13.433906713708726,0.0,-3.3004495000619167,0.0
4529988662.907,-13.435692550635437,0.0,-3.3811228378672413,0.0
4530003662.9065,-13.443778470024313,0.0,-3.328407941819704,0.0
4530018662.906,-13.436553163189515,0.0,-3.3084905209592503,0.0
4530033662.9055,-13.438799124880036,0.0,-3.374850606317263,0.0
4530048662.905,-13.450036006702941,0.0,-3.3533779022777908,0.0
4530063662.9045,-13.44418331381776,0.0,-3.363603099819823,0.0
4530078662.904,-13.430504924424895,0.0,-3.3626557068553518,0.0
4530093662.9035,-13.440127570411796,0.0,-3.3487962969798275,0.0
4530108662.903,-13.43915529343624,0.0,-3.342779629579427,0.0
4530123662.9025,-13.44245198207259,0.0,-3.3104414194100236,0.0
4530138662.902,-13.443528299196348,0.0,-3.33058576783483,0.0
4530153662.9015,-13.448520741395829,0.0,-3.322510453325329,0.0
4530168662.901,-13.438786895499899,0.0,-3.3392910984232578,0.0
4530183662.9005,-13.441929756953119,0.0,-3.3177381792981646,0.0
4530198662.9,-13.444451053400027,0.0,-3.345498053234793,0.0
4530213662.8995,-13.443600486463927,0.0,-3.289979616522739,0.0
4530228662.899,-13.45446337513038,0.0,-3.2942579785564243,0.0
4530243662.8985,-13.445588327716811,0.0,-3.363579703742005,0.0
4530258662.898,-13.438254662332213,0.0,-3.4416436889008235,0.0
4530273662.8975,-13.435988988979094,0.0,-3.338157540154738,0.0
4530288662.897,-13.438585502096238,0.0,-3.357904132330925,0.0
4530303662.8965,-13.435759179356134,0.0,-3.3667093056886532,0.0
4530318662.896,-13.448956768150616,0.0,-3.379535453632265,0.0
4530333662.8955,-13.450428462166164,0.0,-3.442623055555959,0.0
4530348662.895,-13.443166310889227,0.0,-3.3833032725126726,0.0
4530363662.8945,-13.43910143760014,0.0,-3.3723839130938664,0.0
4530378662.894,-13.440389884522974,0.0,-3.3942811574849787,0.0
4530393662.8935,-13.442052279014835,0.0,-3.3632898682042827,0.0
4530408662.893,-13.444695536097965,0.0,-3.3794392013586263,0.0
4530423662.8925,-13.449113190937666,0.0,-3.446416298009976,0.0
4530438662.892,-13.442019655090595,0.0,-3.402022230625716,0.0
4530453662.8915,-13.445757159071505,0.0,-3.436200849576475,0.0
4530468662.891,-13.450451241866755,0.0,-3.4215316308184,0.0
4530483662.8905,-13.447007030660492,0.0,-3.437056053302832,0.0
4530498662.89,-13.444739627944049,0.0,-3.466497722290666,0.0
4530513662.8895,-13.447713118342012,0.0,-3.4575791433483407,0.0
4530528662.889,-13.447979548554233,0.0,-3.429440669587467,0.0
4530543662.8885,-13.457696351933855,0.0,-3.4447346432272994,0.0
4530558662.888,-13.451635918997153,0.0,-3.43405650078497,0.0
4530573662.8875,-13.442561379829671,0.0,-3.461265370455989,0.0
4530588662.887,-13.441350026155147,0.0,-3.4924152685776355,0.0
4530603662.8865,-13.444297317806708,0.0,-3.4725025971251307,0.0
4530618662.886,-13.444309211921029,0.0,-3.488510194896285,0.0
4530633662.8855,-13.447056123989318,0.0,-3.539086369815067,0.0
4530648662.885,-13.441567705454151,0.0,-3.4901603365250238,0.0
4530663662.8845,-13.439385941657243,0.0,-3.5297704588511563,0.0
4530678662.884,-13.445877327921297,0.0,-3.5090384463675366,0.0
4530693662.8835,-13.451212119528453,0.0,-3.4869376576845177,0.0
4530708662.883,-13.45721270661409,0.0,-3.507340612697147,0.0
4530723662.8825,-13.441171697124366,0.0,-3.5497988219408745,0.0
4530738662.882,-13.450049197589342,0.0,-3.5129098550998425,0.0
4530753662.8815,-13.442268159641813,0.0,-3.5635447773626465,0.0
4530768662.881,-13.4427485087567,0.0,-3.560265573753936,0.0
4530783662.8805,-13.437657960620093,0.0,-3.529577961105233,0.0
4530798662.88,-13.44416707972128,0.0,-3.5814344837954835,0.0
4530813662.8795,-13.448959544946756,0.0,-3.542661395285789,0.0
4530828662.879,-13.451718473547485,0.0,-3.556456187264443,0.0
4530843662.8785,-13.445543922652591,0.0,-3.5421450512019597,0.0
4530858662.878,-13.446666672919598,0.0,-3.5887169221066135,0.0
4530873662.8775,-13.449335482038105,0.0,-3.613724567655429,0.0
4530888662.877,-13.454621413467711,0.0,-3.5533375496662027,0.0
4530903662.8765,-13.450861222529086,0.0,-3.566565857023904,0.0
4530918662.876,-13.45134011271602,0.0,-3.541775596441971,0.0
4530933662.8755,-13.449844571200018,0.0,-3.561758308765225,0.0
4530948662.875,-13.448127715854012,0.0,-3.5803127587887436,0.0
4530963662.8745,-13.447671163937043,0.0,-3.6226073097916416,0.0
4530978662.874,-13.44971873363059,0.0,-3.631376353660839,0.0
4530993662.8735,-13.44633245186573,0.0,-3.646195095120246,0.0
4531008662.873,-13.456934368680454,0.0,-3.6366221991927588,0.0
4531023662.8725,-13.440165348822163,0.0,-3.619059374543471,0.0
4531038662.872,-13.447202394843972,0.0,-3.575596272239723,0.0
4531053662.8715,-13.446670813541813,0.0,-3.5879468996777053,0.0
4531068662.871,-13.453431552533452,0.0,-3.6395273650113187,0.0
4531083662.8705,-13.448760352880544,0.0,-3.606476192090395,0.0
4531098662.87,-13.450096738766348,0.0,-3.570128702510822,0.0
4531113662.8695,-13.446887368413165,0.0,-3.6595180480641876,0.0
4531128662.869,-13.448457146481442,0.0,-3.6862287749896643,0.0
4531143662.8685,-13.451558176230789,0.0,-3.738416374491649,0.0
4531158662.868,-13.4554723828332,0.0,-3.6008643717892825,0.0
4531173662.8675,-13.458386791391154,0.0,-3.6508735810741406,0.0
4531188662.867,-13.4545197604173,0.0,-3.5883141092067956,0.0
4531203662.8665,-13.451921208813872,0.0,-3.645329316266118,0.0
4531218662.866,-13.454891600199817,0.0,-3.687558612356956,0.0
4531233662.8655,-13.453018826805412,0.0,-3.7208642036401147,0.0
4531248662.865,-13.450412090510572,0.0,-3.643316430673595,0.0
4531263662.8645,-13.451509110497268,0.0,-3.703289765393003,0.0
4531278662.864,-13.457578175823361,0.0,-3.7172326371283306,0.0
4531293662.8635,-13.452805573580275,0.0,-3.731046096027678,0.0
4531308662.863,-13.445622505704254,0.0,-3.6723816936848728,0.0
4531323662.8625,-13.45397026144349,0.0,-3.6999496777723357,0.0
4531338662.862,-13.456888261098987,0.0,-3.77084660905655,0.0
4531353662.8615,-13.45687386986028,0.0,-3.738346974117566,0.0
4531368662.861,-13.452650726219918,0.0,-3.7266095928725567,0.0
4531383662.8605,-13.447612487296245,0.0,-3.7823863223526346,0.0
4531398662.86,-13.449440167873592,0.0,-3.745532829035905,0.0
4531413662.8595,-13.452635483638309,0.0,-3.776620044802691,0.0
4531428662.859,-13.461138302615343,0.0,-3.820148916720143,0.0
4531443662.8585,-13.457723689236039,0.0,-3.753974147063925,0.0
4531458662.858,-13.45975296885081,0.0,-3.7415518944699175,0.0
4531473662.8575,-13.458534507071478,0.0,-3.7282421873138074,0.0
4531488662.857,-13.456850779550109,0.0,-3.8018178242577956,0.0
4531503662.8565,-13.451573731561691,0.0,-3.8340769074834604,0.0
4531518662.856,-13.456110533681958,0.0,-3.7535703467331762,0.0
4531533662.8555,-13.44949838001459,0.0,-3.8115765517486557,0.0
4531548662.855,-13.453990551699631,0.0,-3.788542593854479,0.0
4531563662.8545,-13.453154266243699,0.0,-3.81281582765982,0.0
4531578662.854,-13.45488397974635,0.0,-3.8058593262498177,0.0
4531593662.8535,-13.45728256896248,0.0,-3.8338234840425316,0.0
4531608662.853,-13.459438172077022,0.0,-3.833892714309753,0.0
4531623662.8525,-13.461495036866879,0.0,-3.8171468908175665,0.0
4531638662.852,-13.448528104949721,0.0,-3.7671396854401276,0.0
4531653662.8515,-13.460831768209026,0.0,-3.8098206845339835,0.0
4531668662.851,-13.463572687051904,0.0,-3.880010927514022,0.0
4531683662.8505,-13.450865589691235,0.0,-3.845274139750847,0.0
4531698662.85,-13.452495074359279,0.0,-3.849178674323829,0.0
4531713662.8495,-13.46475397571616,0.0,-3.843874762913898,0.0
4531728662.849,-13.466986100641169,0.0,-3.8864139559396502,0.0
4531743662.8485,-13.458557082706895,0.0,-3.831803459190469,0.0
4531758662.848,-13.457589374408776,0.0,-3.858175813458814,0.0
4531773662.8475,-13.45565645665914,0.0,-3.905898149514092,0.0
4531788662.847,-13.450910237899102,0.0,-3.9392241775818437,0.0
4531803662.8465,-13.455325513223144,0.0,-3.932933862452582,0.0
4531818662.846,-13.459492412099728,0.0,-3.882467400689064,0.0
4531833662.8455,-13.452457192553194,0.0,-3.898638344562514,0.0
4531848662.845,-13.46138005874227,0.0,-3.893229836498999,0.0
4531863662.8445,-13.45577755308189,0.0,-3.8790232773015973,0.0
4531878662.844,-13.458291560356145,0.0,-3.887934981453577,0.0
