Frequency,S11,S11-Q,S11-Phase,S11-Phase-Q
4527198663.0,-13.406528300630757,0.0,-2.846169715049257,0.0
4527213662.9995,-13.403617692512084,0.0,-2.774638134464485,0.0
4527228662.999,-13.405571827791691,0.0,-2.907034987045658,0.0
4527243662.9985,-13.409044333654505,0.0,-2.866198688549945,0.0
4527258662.998,-13.40570681770863,0.0,-2.794785727971707,0.0
4527273662.9975,-13.410839994505178,0.0,-2.901336012215962,0.0
4527288662.997,-13.40738672012488,0.0,-2.854282553245963,0.0
4527303662.9965,-13.407772074128822,0.0,-2.857412012230734,0.0
4527318662.996,-13.401202842563386,0.0,-2.870372495169209,0.0
4527333662.9955,-13.405508086782811,0.0,-2.7950825211725148,0.0
4527348662.995,-13.41114690757623,0.0,-2.8205002030785256,0.0
4527363662.9945,-13.41264345909023,0.0,-2.885183619225402,0.0
4527378662.994,-13.402690807492627,0.0,-2.843241013502045,0.0
4527393662.9935,-13.406490021035019,0.0,-2.865896523556078,0.0
4527408662.993,-13.402529648034598,0.0,-2.8838506268227757,0.0
4527423662.9925,-13.400209153678803,0.0,-2.811301557952585,0.0
4527438662.992,-13.41623897361143,0.0,-2.840827226394848,0.0
4527453662.9915,-13.39985503549331,0.0,-2.852118427676308,0.0
4527468662.991,-13.403392325320166,0.0,-2.9188542115573037,0.0
4527483662.9905,-13.415230204144963,0.0,-2.8591056721627486,0.0
4527498662.99,-13.40942603554954,0.0,-2.965641385703508,0.0
4527513662.9895,-13.401407947320125,0.0,-2.8593505578564287,0.0
4527528662.989,-13.406507596220791,0.0,-2.8603085851801913,0.0
4527543662.9885,-13.405688746010592,0.0,-2.8512779638275636,0.0
4527558662.988,-13.413095384177716,0.0,-2.917828600670502,0.0
4527573662.9875,-13.404967435277559,0.0,-2.925221864612973,0.0
4527588662.987,-13.405118111493227,0.0,-2.899724435222067,0.0
4527603662.9865,-13.406386127851144,0.0,-2.8913290072667133,0.0
4527618662.986,-13.410110797503707,0.0,-2.913060506435803,0.0
4527633662.9855,-13.40317677409632,0.0,-2.8825987891744447,0.0
4527648662.985,-13.410379521857763,0.0,-2.8811764994387112,0.0
4527663662.9845,-13.410883899204835,0.0,-2.854089462181498,0.0
4527678662.984,-13.413483242425567,0.0,-2.9241409003008414,0.0
4527693662.9835,-13.402344646811681,0.0,-2.9366908192111834,0.0
4527708662.983,-13.409712543537225,0.0,-2.9097550459753254,0.0
4527723662.9825,-13.412988831320881,0.0,-2.894258481118943,0.0
4527738662.982,-13.409533398975151,0.0,-2.9225194098172316,0.0
4527753662.9815,-13.416453321210886,0.0,-2.9246001829814885,0.0
4527768662.981,-13.404877690604408,0.0,-2.9274443197502342,0.0
4527783662.9805,-13.406850415661912,0.0,-2.9540907447203972,0.0
4527798662.98,-13.413779470274667,0.0,-2.8728591416769764,0.0
4527813662.9795,-13.410550796168303,0.0,-3.000355592649968,0.0
4527828662.979,-13.41201778845517,0.0,-2.9377798418783034,0.0
4527843662.9785,-13.405501633300254,0.0,-2.9104040976688488,0.0
4527858662.978,-13.409310982631883,0.0,-2.926349843190977,0.0
4527873662.9775,-13.407083303787878,0.0,-2.9385868217924815,0.0
4527888662.977,-13.40764174774387,0.0,-2.9026789969342905,0.0
4527903662.9765,-13.411423955286581,0.0,-2.991590150470862,0.0
4527918662.976,-13.402010664491506,0.0,-2.937720255473891,0.0
4527933662.9755,-13.412293273238763,0.0,-2.969317341482551,0.0
4527948662.975,-13.402073647893411,0.0,-2.980700880021375,0.0
4527963662.9745,-13.40933055395844,0.0,-2.9318574528528814,0.0
4527978662.974,-13.407383730006524,0.0,-2.994548140428124,0.0
4527993662.9735,-13.409653657520229,0.0,-2.9900855396145887,0.0
4528008662.973,-13.406728428494993,0.0,-2.957437238205284,0.0
4528023662.9725,-13.408532026147446,0.0,-2.8815663114708867,0.0
4528038662.972,-13.418922687580054,0.0,-2.9479498884125404,0.0
4528053662.9715,-13.402260866959892,0.0,-2.9278697963107025,0.0
4528068662.971,-13.409963347944501,0.0,-2.931985812085478,0.0
4528083662.9705,-13.40782598410329,0.0,-2.9612703867422683,0.0
4528098662.97,-13.413111675111335,0.0,-3.0226435665731373,0.0
4528113662.9695,-13.409275664856965,0.0,-2.9691053135896657,0.0
4528128662.969,-13.411905662511206,0.0,-2.9127097105720687,0.0
4528143662.9685,-13.410953564569565,0.0,-3.0006426668093944,0.0
4528158662.968,-13.405241562014972,0.0,-3.0202103161264997,0.0
4528173662.9675,-13.41807387703147,0.0,-3.0278061862117034,0.0
4528188662.967,-13.404585741261506,0.0,-2.9663626874224898,0.0
4528203662.9665,-13.404404163198143,0.0,-3.0001855478159993,0.0
4528218662.966,-13.403200096066305,0.0,-2.99785721045729,0.0
4528233662.9655,-13.4056090804029,0.0,-2.965870756909533,0.0
4528248662.965,-13.409072183572233,0.0,-3.0206127600362125,0.0
4528263662.9645,-13.409861452694507,0.0,-2.9773563073288365,0.0
4528278662.964,-13.40247483392613,0.0,-3.0195675210180712,0.0
4528293662.9635,-13.409694100946947,0.0,-3.0135074475551455,0.0
4528308662.963,-13.41017348415896,0.0,-3.0026239516666293,0.0
4528323662.9625,-13.411567299219506,0.0,-3.043839845700248,0.0
4528338662.962,-13.409785935867225,0.0,-3.0654301130595414,0.0
4528353662.9615,-13.410786007363022,0.0,-3.0861230088661826,0.0
4528368662.961,-13.405076174573583,0.0,-3.0186903551795674,0.0
4528383662.9605,-13.414040769005586,0.0,-3.06857233746535,0.0
4528398662.96,-13.4115493164085,0.0,-2.9929006402890925,0.0
4528413662.9595,-13.401212465705505,0.0,-2.9953724031810474,0.0
4528428662.959,-13.409047027784862,0.0,-3.05050772801779,0.0
4528443662.9585,-13.409514787995963,0.0,-3.024928844467548,0.0
4528458662.958,-13.417992537871942,0.0,-3.0049896301779606,0.0
4528473662.9575,-13.419739337972352,0.0,-3.0742536518975374,0.0
4528488662.957,-13.403775878027513,0.0,-3.029073608005128,0.0
4528503662.9565,-13.404888542708463,0.0,-3.0752477532581204,0.0
4528518662.956,-13.40910428393997,0.0,-3.112589657408478,0.0
4528533662.9555,-13.411708727252616,0.0,-3.034485322859168,0.0
4528548662.955,-13.419666068893283,0.0,-3.0637685728256647,0.0
4528563662.9545,-13.402220740306596,0.0,-3.007913641084319,0.0
4528578662.954,-13.406197517753247,0.0,-3.069608728720762,0.0
4528593662.9535,-13.41318334322511,0.0,-3.0498880078557264,0.0
4528608662.953,-13.41208173664146,0.0,-3.0680680779025225,0.0
4528623662.9525,-13.411343824293766,0.0,-3.1495552248107477,0.0
4528638662.952,-13.409386100592322,0.0,-3.0188736282694006,0.0
4528653662.9515,-13.40621945368377,0.0,-3.1014298984025896,0.0
4528668662.951,-13.406998075982312,0.0,-3.047212015145853,0.0
4528683662.9505,-13.423312670299962,0.0,-3.0597415772936527,0.0
4528698662.95,-13.417638616432686,0.0,-3.069871604283349,0.0
4528713662.9495,-13.412709589572584,0.0,-3.104702789176759,0.0
4528728662.949,-13.414261501391387,0.0,-3.058380778047101,0.0
4528743662.9485,-13.404516406421854,0.0,-3.127356919365702,0.0
4528758662.948,-13.411297446687424,0.0,-3.066479363072328,0.0
4528773662.9475,-13.414083997953393,0.0,-3.0640738362177973,0.0
4528788662.947,-13.409803508637985,0.0,-3.1136033164352925,0.0
4528803662.9465,-13.414559043691733,0.0,-3.1074975872392625,0.0
4528818662.946,-13.408865423447407,0.0,-3.1036765691913475,0.0
4528833662.9455,-13.416941420787708,0.0,-3.081161891885695,0.0
4528848662.945,-13.42124619583508,0.0,-3.068579442433202,0.0
4528863662.9445,-13.41102648198045,0.0,-3.0580038639009306,0.0
4528878662.944,-13.407846367607526,0.0,-3.097792002933602,0.0
4528893662.9435,-13.414106404774094,0.0,-3.143868690009353,0.0
4528908662.943,-13.407009758141466,0.0,-3.1304141162724832,0.0
4528923662.9425,-13.410385681707794,0.0,-3.120660857857967,0.0
4528938662.942,-13.410999563599734,0.0,-3.094513994670308,0.0
4528953662.9415,-13.4097948832627,0.0,-3.1198514706680687,0.0
4528968662.941,-13.415199777908038,0.0,-3.1654248140072245,0.0
4528983662.9405,-13.415275571263843,0.0,-3.221982062700989,0.0
4528998662.94,-13.412283280972302,0.0,-3.1101737486052894,0.0
4529013662.9395,-13.414708922751455,0.0,-3.1631787590411404,0.0
4529028662.939,-13.400846007528076,0.0,-3.0945613944839696,0.0
4529043662.9385,-13.416522237950861,0.0,-3.212720990483496,0.0
4529058662.938,-13.419088270909839,0.0,-3.1785594478586585,0.0
4529073662.9375,-13.408864071847358,0.0,-3.20567565119269,0.0
4529088662.937,-13.405341652291746,0.0,-3.202670106556106,0.0
4529103662.9365,-13.410270172125054,0.0,-3.1103058252887217,0.0
4529118662.936,-13.40393122840041,0.0,-3.158837404155572,0.0
4529133662.9355,-13.410971421190709,0.0,-3.1192523012142854,0.0
4529148662.935,-13.411107843032148,0.0,-3.165929935713484,0.0
4529163662.9345,-13.415540504927376,0.0,-3.187198942651434,0.0
4529178662.934,-13.419295100411205,0.0,-3.151805162840853,0.0
4529193662.9335,-13.40946008289438,0.0,-3.146828957724881,0.0
4529208662.933,-13.41898295553213,0.0,-3.18427845222611,0.0
4529223662.9325,-13.41620464637342,0.0,-3.1506754546084696,0.0
4529238662.932,-13.417057182072014,0.0,-3.1901451419476126,0.0
4529253662.9315,-13.417484068723763,0.0,-3.225006031050733,0.0
4529268662.931,-13.415344082916082,0.0,-3.240971485417592,0.0
4529283662.9305,-13.411083297924925,0.0,-3.1843153881644692,0.0
4529298662.93,-13.419645533092348,0.0,-3.2088893939089096,0.0
4529313662.9295,-13.413712379190002,0.0,-3.230647690313245,0.0
4529328662.929,-13.408175401247098,0.0,-3.2264312620435796,0.0
4529343662.9285,-13.405219412187765,0.0,-3.223966812999691,0.0
4529358662.928,-13.410230766894335,0.0,-3.169176068331483,0.0
4529373662.9275,-13.417921467497191,0.0,-3.2249247631557756,0.0
4529388662.927,-13.418735013170007,0.0,-3.1976048354333626,0.0
4529403662.9265,-13.406741526546824,0.0,-3.1950935357726378,0.0
4529418662.926,-13.410749502094433,0.0,-3.2015993795168414,0.0
4529433662.9255,-13.417629901279168,0.0,-3.227294225264725,0.0
4529448662.925,-13.422995525874503,0.0,-3.2097304173108294,0.0
4529463662.9245,-13.418537301142726,0.0,-3.1910838922926126,0.0
4529478662.924,-13.41242611849662,0.0,-3.163266550440119,0.0
4529493662.9235,-13.417904991555998,0.0,-3.2085669877307166,0.0
4529508662.923,-13.411188245185002,0.0,-3.2720303016785586,0.0
4529523662.9225,-13.4162715064754,0.0,-3.2112999577022774,0.0
4529538662.922,-13.415993633285082,0.0,-3.239394467847167,0.0
4529553662.9215,-13.411257113841867,0.0,-3.2214902728056325,0.0
4529568662.921,-13.41075914380033,0.0,-3.1964426249744915,0.0
4529583662.9205,-13.411899893512128,0.0,-3.2038643265314466,0.0
4529598662.92,-13.41120083104111,0.0,-3.2667163788967106,0.0
4529613662.9195,-13.416849557074563,0.0,-3.2682158432852795,0.0
4529628662.919,-13.406984710249324,0.0,-3.2355423208456995,0.0
4529643662.9185,-13.419382779084598,0.0,-3.2269741309906794,0.0
4529658662.918,-13.413269515817994,0.0,-3.2461307163536017,0.0
4529673662.9175,-13.411939054373864,0.0,-3.2848438659492505,0.0
4529688662.917,-13.411545167914598,0.0,-3.267988527773131,0.0
4529703662.9165,-13.422886960993832,0.0,-3.260338382697056,0.0
4529718662.916,-13.410846795068029,0.0,-3.3082901262368853,0.0
4529733662.9155,-13.419479030664569,0.0,-3.2839948668986603,0.0
4529748662.915,-13.42013982023401,0.0,-3.2449821992740597,0.0
4529763662.9145,-13.419817244632418,0.0,-3.263301093757157,0.0
4529778662.914,-13.418201236405778,0.0,-3.2737928910009964,0.0
4529793662.9135,-13.412494878027916,0.0,-3.3178958058456764,0.0
4529808662.913,-13.408398319150454,0.0,-3.287826022336593,0.0
4529823662.9125,-13.414220938694541,0.0,-3.3455200799771676,0.0
4529838662.912,-13.413318910776193,0.0,-3.2886691303756574,0.0
4529853662.9115,-13.426515961066228,0.0,-3.3199434601970177,0.0
4529868662.911,-13.415951401971533,0.0,-3.310701333161073,0.0
4529883662.9105,-13.414651278032556,0.0,-3.3227141106621296,0.0
4529898662.91,-13.424456306023618,0.0,-3.389297714302279,0.0
4529913662.9095,-13.406498815454874,0.0,-3.3002554740512866,0.0
4529928662.909,-13.414418366083058,0.0,-3.316197293530303,0.0
4529943662.9085,-13.415850965208653,0.0,-3.311746143986106,0.0
4529958662.908,-13.40715001118291,0.0,-3.301483793922264,0.0
4529973662.9075,-13.415216679292863,0.0,-3.2713384595598147,0.0
4529988662.907,-13.412813360681973,0.0,-3.3225934425952173,0.0
4530003662.9065,-13.414335073168854,0.0,-3.213956467711197,0.0
4530018662.906,-13.414183400475647,0.0,-3.3318929976529774,0.0
4530033662.9055,-13.411758094803403,0.0,-3.290702644110036,0.0
4530048662.905,-13.413783949814631,0.0,-3.3347866768233376,0.0
4530063662.9045,-13.409575314275138,0.0,-3.30811368288495,0.0
4530078662.904,-13.410161687705692,0.0,-3.367965303259328,0.0
4530093662.9035,-13.423210603080557,0.0,-3.335062713849945,0.0
4530108662.903,-13.422390054099191,0.0,-3.3022050013979865,0.0
4530123662.9025,-13.412457694359404,0.0,-3.3883404674561826,0.0
4530138662.902,-13.420339509263957,0.0,-3.358344224868622,0.0
4530153662.9015,-13.42651400657652,0.0,-3.3884372650332635,0.0
4530168662.901,-13.413017411385432,0.0,-3.363912331096994,0.0
4530183662.9005,-13.406950361144292,0.0,-3.3786382286285823,0.0
4530198662.9,-13.41902599705421,0.0,-3.385408133155714,0.0
4530213662.8995,-13.421816308833511,0.0,-3.4048987162191353,0.0
4530228662.899,-13.404346394423637,0.0,-3.375572302781251,0.0
4530243662.8985,-13.419466229987307,0.0,-3.379408289473588,0.0
4530258662.898,-13.415161870243066,0.0,-3.3477706440854527,0.0
4530273662.8975,-13.426396434922601,0.0,-3.3493841412288665,0.0
4530288662.897,-13.421617603762373,0.0,-3.393603443071866,0.0
4530303662.8965,-13.414879699508706,0.0,-3.4307711098442706,0.0
4530318662.896,-13.414760012635856,0.0,-3.381867223215815,0.0
4530333662.8955,-13.417927767976606,0.0,-3.3692859924796297,0.0
4530348662.895,-13.418416822453711,0.0,-3.414766618343113,0.0
4530363662.8945,-13.420364633479686,0.0,-3.376809062960554,0.0
4530378662.894,-13.410863261901563,0.0,-3.3856518917036467,0.0
4530393662.8935,-13.418546007756886,0.0,-3.373617572706612,0.0
4530408662.893,-13.409334802267313,0.0,-3.424724914781404,0.0
4530423662.8925,-13.424149786173132,0.0,-3.393014901713775,0.0
4530438662.892,-13.422652083490796,0.0,-3.482089077266843,0.0
4530453662.8915,-13.412299686547222,0.0,-3.4001723519780147,0.0
4530468662.891,-13.41766160654979,0.0,-3.3990848985968403,0.0
4530483662.8905,-13.41424572557071,0.0,-3.4290110613155744,0.0
4530498662.89,-13.423551088416101,0.0,-3.4135853285182653,0.0
4530513662.8895,-13.409860459022958,0.0,-3.449905228712855,0.0
4530528662.889,-13.421236219024797,0.0,-3.4409160583135403,0.0
4530543662.8885,-13.417363271521536,0.0,-3.4667541047408696,0.0
4530558662.888,-13.413517484607024,0.0,-3.407716902623393,0.0
4530573662.8875,-13.411762021163089,0.0,-3.446029346151229,0.0
4530588662.887,-13.41658934074611,0.0,-3.4673811473477465,0.0
4530603662.8865,-13.419659873478384,0.0,-3.5126262546864617,0.0
4530618662.886,-13.420443270431344,0.0,-3.4452372279345025,0.0
4530633662.8855,-13.424551608019433,0.0,-3.4617213643260896,0.0
4530648662.885,-13.411451598838314,0.0,-3.423255950607877,0.0
4530663662.8845,-13.412704797898085,0.0,-3.381088965420419,0.0
4530678662.884,-13.418844041809784,0.0,-3.405557262955608,0.0
4530693662.8835,-13.423114415077585,0.0,-3.5127692160220367,0.0
4530708662.883,-13.430192426775127,0.0,-3.4971211045719226,0.0
4530723662.8825,-13.424713752508632,0.0,-3.50966947109576,0.0
4530738662.882,-13.4266607317403,0.0,-3.450230977324646,0.0
4530753662.8815,-13.41547926742042,0.0,-3.461580042964913,0.0
4530768662.881,-13.410211811376385,0.0,-3.4958834582174254,0.0
4530783662.8805,-13.418763767334399,0.0,-3.511448999046971,0.0
4530798662.88,-13.413569092876196,0.0,-3.467033070376866,0.0
4530813662.8795,-13.423064568588675,0.0,-3.476999424461679,0.0
4530828662.879,-13.422676366785971,0.0,-3.5201923282136973,0.0
4530843662.8785,-13.425015526692597,0.0,-3.5208448060132724,0.0
4530858662.878,-13.421372945359668,0.0,-3.518647057426911,0.0
4530873662.8775,-13.41356973503759,0.0,-3.5757907062222287,0.0
4530888662.877,-13.428330952345648,0.0,-3.4511489427989055,0.0
4530903662.8765,-13.41164841337747,0.0,-3.548452158189917,0.0
4530918662.876,-13.42205799757046,0.0,-3.5175550421204935,0.0
4530933662.8755,-13.415244392046628,0.0,-3.5580129919456738,0.0
4530948662.875,-13.41321112547747,0.0,-3.4945818928854373,0.0
4530963662.8745,-13.414254095226436,0.0,-3.500868656280858,0.0
4530978662.874,-13.413573356392789,0.0,-3.5730277462762,0.0
4530993662.8735,-13.42112889292756,0.0,-3.577099399950784,0.0
4531008662.873,-13.413077428312366,0.0,-3.5398785887676634,0.0
4531023662.8725,-13.417501068675836,0.0,-3.532559600289765,0.0
4531038662.872,-13.429519149908502,0.0,-3.5413466298772023,0.0
4531053662.8715,-13.425122046792765,0.0,-3.537088030297417,0.0
4531068662.871,-13.418307021584912,0.0,-3.606653422080146,0.0
4531083662.8705,-13.423534924065034,0.0,-3.5219763436281637,0.0
4531098662.87,-13.417834867386096,0.0,-3.577423680244315,0.0
4531113662.8695,-13.42158170876332,0.0,-3.5306296025715156,0.0
4531128662.869,-13.417477587310326,0.0,-3.569912918611686,0.0
4531143662.8685,-13.424024734508848,0.0,-3.541731961223669,0.0
4531158662.868,-13.420400638078277,0.0,-3.606605089106557,0.0
4531173662.8675,-13.423970733544465,0.0,-3.6091229957753295,0.0
4531188662.867,-13.426957125409855,0.0,-3.5955770986141737,0.0
4531203662.8665,-13.420496364074069,0.0,-3.5705430314291955,0.0
4531218662.866,-13.415361087771824,0.0,-3.6178342345765393,0.0
4531233662.8655,-13.420398065365662,0.0,-3.600461081983252,0.0
4531248662.865,-13.420405915678897,0.0,-3.588673401743553,0.0
4531263662.8645,-13.421327521878109,0.0,-3.603659686772457,0.0
4531278662.864,-13.425054379606678,0.0,-3.6105359377308264,0.0
4531293662.8635,-13.407414616388767,0.0,-3.5697639203131764,0.0
4531308662.863,-13.415722505413829,0.0,-3.610398383274805,0.0
4531323662.8625,-13.427003949938586,0.0,-3.596192112281666,0.0
4531338662.862,-13.419239993219719,0.0,-3.640407761160529,0.0
4531353662.8615,-13.42233957006836,0.0,-3.66626476830981,0.0
4531368662.861,-13.425654084144972,0.0,-3.632675327686352,0.0
4531383662.8605,-13.41971991540833,0.0,-3.622077884608956,0.0
4531398662.86,-13.418756227159907,0.0,-3.6471913015337343,0.0
4531413662.8595,-13.421844154125367,0.0,-3.616825771955412,0.0
4531428662.859,-13.420881462820438,0.0,-3.663061680245813,0.0
4531443662.8585,-13.425233686211486,0.0,-3.6606951847869245,0.0
4531458662.858,-13.41658237282684,0.0,-3.634735691423166,0.0
4531473662.8575,-13.425800665063704,0.0,-3.672099586901876,0.0
4531488662.857,-13.422610367663044,0.0,-3.629343149106184,0.0
4531503662.8565,-13.425838282091568,0.0,-3.652491377977758,0.0
4531518662.856,-13.421195435509254,0.0,-3.689664408980134,0.0
4531533662.8555,-13.422032589672304,0.0,-3.6846546526377035,0.0
4531548662.855,-13.421521427487166,0.0,-3.6864827169023187,0.0
4531563662.8545,-13.424248477972306,0.0,-3.7154912375415905,0.0
4531578662.854,-13.413844147391032,0.0,-3.72758648810127,0.0
4531593662.8535,-13.428737682739547,0.0,-3.671953051306767,0.0
4531608662.853,-13.419404754340418,0.0,-3.680572266149935,0.0
4531623662.8525,-13.418506654452028,0.0,-3.697104796475952,0.0
4531638662.852,-13.416712952596628,0.0,-3.6455371589258534,0.0
4531653662.8515,-13.419940678204041,0.0,-3.6544352742873056,0.0
4531668662.851,-13.418285884848624,0.0,-3.7010606971205964,0.0
4531683662.8505,-13.420343128693425,0.0,-3.6980062162351133,0.0
4531698662.85,-13.432080717913731,0.0,-3.74164876146204,0.0
4531713662.8495,-13.413629104558591,0.0,-3.701593837961734,0.0
4531728662.849,-13.42100362707599,0.0,-3.652928520270951,0.0
4531743662.8485,-13.428765903583136,0.0,-3.705152675304499,0.0
4531758662.848,-13.430743252740772,0.0,-3.706870004581487,0.0
4531773662.8475,-13.413390994745937,0.0,-3.7502095556467427,0.0
4531788662.847,-13.422946675710289,0.0,-3.7971372340160405,0.0
4531803662.8465,-13.41774213985876,0.0,-3.7071835293673074,0.0
4531818662.846,-13.42095500437873,0.0,-3.751842173626652,0.0
4531833662.8455,-13.430978048799458,0.0,-3.7164941375598413,0.0
4531848662.845,-13.429726702729498,0.0,-3.7474711009341526,0.0
4531863662.8445,-13.420525713608349,0.0,-3.7291716957163072,0.0
4531878662.844,-13.42289926731228,0.0,-3.7715659431086923,0.0
