Frequency,S11,S11-Q,S11-Phase,S11-Phase-Q
4527198663.0,-13.413076538479935,0.0,-2.3569083914742968,0.0
4527213662.9995,-13.41050206936388,0.0,-2.388573869549887,0.0
4527228662.999,-13.414634065557436,0.0,-2.4164849104222488,0.0
4527243662.9985,-13.414501464658407,0.0,-2.4055648167975745,0.0
4527258662.998,-13.404540491685687,0.0,-2.3732600225714346,0.0
4527273662.9975,-13.413372906923364,0.0,-2.354724761250315,0.0
4527288662.997,-13.410150878831166,0.0,-2.4066721104476327,0.0
4527303662.9965,-13.40426844164754,0.0,-2.440186260525243,0.0
4527318662.996,-13.422565445033394,0.0,-2.4360172371301396,0.0
4527333662.9955,-13.411280353252227,0.0,-2.431238840466463,0.0
4527348662.995,-13.415193592511724,0.0,-2.3866501987875113,0.0
4527363662.9945,-13.409701852492521,0.0,-2.4501291194911885,0.0
4527378662.994,-13.415495510840149,0.0,-2.467429958698253,0.0
4527393662.9935,-13.4175128039406,0.0,-2.5182526804401397,0.0
4527408662.993,-13.411332288772522,0.0,-2.458087641844909,0.0
4527423662.9925,-13.413062050611252,0.0,-2.456782441846976,0.0
4527438662.992,-13.412348740048612,0.0,-2.45991340786698,0.0
4527453662.9915,-13.417768849386531,0.0,-2.473704682655307,0.0
4527468662.991,-13.41223932316108,0.0,-2.454571275349819,0.0
4527483662.9905,-13.420723784485844,0.0,-2.438977115546828,0.0
4527498662.99,-13.420862972384137,0.0,-2.4647557631782067,0.0
4527513662.9895,-13.411170757905422,0.0,-2.479713873090203,0.0
4527528662.989,-13.416015991504842,0.0,-2.46566688413265,0.0
4527543662.9885,-13.409291520479021,0.0,-2.4589179188608643,0.0
4527558662.988,-13.424373481937412,0.0,-2.500429415711409,0.0
4527573662.9875,-13.409071026623812,0.0,-2.4387252764791096,0.0
4527588662.987,-13.414905517087014,0.0,-2.513697719227551,0.0
4527603662.9865,-13.411206053008517,0.0,-2.4693688831340195,0.0
4527618662.986,-13.41562782901865,0.0,-2.484645318547372,0.0
4527633662.9855,-13.415058799997448,0.0,-2.4799463773547794,0.0
4527648662.985,-13.41585878236482,0.0,-2.482948163023391,0.0
4527663662.9845,-13.412210427617568,0.0,-2.4956117513188953,0.0
4527678662.984,-13.417874063774203,0.0,-2.5214969473783637,0.0
4527693662.9835,-13.40832570629685,0.0,-2.5015578202519233,0.0
4527708662.983,-13.411303291004817,0.0,-2.4717763613290553,0.0
4527723662.9825,-13.413177410860015,0.0,-2.4796323713391173,0.0
4527738662.982,-13.415390045809838,0.0,-2.5140087572274132,0.0
4527753662.9815,-13.417967437023194,0.0,-2.495552644386574,0.0
4527768662.981,-13.420289447601307,0.0,-2.530250266998737,0.0
4527783662.9805,-13.412216608689068,0.0,-2.4920822788151553,0.0
4527798662.98,-13.416696263417121,0.0,-2.4448135171973746,0.0
4527813662.9795,-13.415186643765288,0.0,-2.499053495758228,0.0
4527828662.979,-13.41447471808533,0.0,-2.567809558141699,0.0
4527843662.9785,-13.412175826905898,0.0,-2.535853434653742,0.0
4527858662.978,-13.418271098879895,0.0,-2.496892856721349,0.0
4527873662.9775,-13.41581878744446,0.0,-2.497646041582052,0.0
4527888662.977,-13.415010315035797,0.0,-2.5660661062689782,0.0
4527903662.9765,-13.40954573997087,0.0,-2.526196443307029,0.0
4527918662.976,-13.412984974119999,0.0,-2.4751323170285526,0.0
4527933662.9755,-13.417055379838832,0.0,-2.529808457568006,0.0
4527948662.975,-13.413911674420149,0.0,-2.490927933957754,0.0
4527963662.9745,-13.408956232838722,0.0,-2.4665625495538848,0.0
4527978662.974,-13.41076294754119,0.0,-2.488938584550545,0.0
4527993662.9735,-13.409622201219939,0.0,-2.547061594424209,0.0
4528008662.973,-13.413757078429482,0.0,-2.492696376896473,0.0
4528023662.9725,-13.409959043784491,0.0,-2.5251822277284246,0.0
4528038662.972,-13.408697124472466,0.0,-2.538232047079706,0.0
4528053662.9715,-13.420105999272156,0.0,-2.55516466342254,0.0
4528068662.971,-13.416868911346427,0.0,-2.5142767130560504,0.0
4528083662.9705,-13.414780420299863,0.0,-2.575311347864947,0.0
4528098662.97,-13.414715297933942,0.0,-2.502676365552484,0.0
4528113662.9695,-13.408712783279718,0.0,-2.5868769728435637,0.0
4528128662.969,-13.399311282159296,0.0,-2.508401816773954,0.0
4528143662.9685,-13.415422077655217,0.0,-2.5025388508459296,0.0
4528158662.968,-13.40951555919484,0.0,-2.570738258494524,0.0
4528173662.9675,-13.411638776615927,0.0,-2.5575443316166946,0.0
4528188662.967,-13.412961197138449,0.0,-2.5454461240161366,0.0
4528203662.9665,-13.40730933428909,0.0,-2.528044038634864,0.0
4528218662.966,-13.412947741079764,0.0,-2.5385284167567725,0.0
4528233662.9655,-13.422091801993648,0.0,-2.507502319812851,0.0
4528248662.965,-13.414481911044172,0.0,-2.5732494045943377,0.0
4528263662.9645,-13.413185913068407,0.0,-2.6114417542075605,0.0
4528278662.964,-13.412289609255922,0.0,-2.538194345373407,0.0
4528293662.9635,-13.420095057064756,0.0,-2.6047813936520114,0.0
4528308662.963,-13.424538075898699,0.0,-2.5718833005873587,0.0
4528323662.9625,-13.42145338284819,0.0,-2.5723495917111396,0.0
4528338662.962,-13.412324854260937,0.0,-2.5873543141931443,0.0
4528353662.9615,-13.412713783903602,0.0,-2.564667873112578,0.0
4528368662.961,-13.411452453132824,0.0,-2.547399738856426,0.0
4528383662.9605,-13.420313499224081,0.0,-2.515652567754228,0.0
4528398662.96,-13.418855535308635,0.0,-2.5938808025349807,0.0
4528413662.9595,-13.41787971496138,0.0,-2.5284878346183173,0.0
4528428662.959,-13.415223877530094,0.0,-2.5353141681730564,0.0
4528443662.9585,-13.415434518581613,0.0,-2.571065383108066,0.0
4528458662.958,-13.414304572303353,0.0,-2.575585365490079,0.0
4528473662.9575,-13.408285068238271,0.0,-2.558722183046189,0.0
4528488662.957,-13.419924181431231,0.0,-2.511094072071311,0.0
4528503662.9565,-13.408656920929364,0.0,-2.6364122895760924,0.0
4528518662.956,-13.417538291119142,0.0,-2.58691233184002,0.0
4528533662.9555,-13.417163205182836,0.0,-2.6531113805516116,0.0
4528548662.955,-13.417522409604052,0.0,-2.508435944440359,0.0
4528563662.9545,-13.417596938764815,0.0,-2.6483019371328003,0.0
4528578662.954,-13.41859239846153,0.0,-2.6275749265458126,0.0
4528593662.9535,-13.42317774173723,0.0,-2.6117136807181534,0.0
4528608662.953,-13.424756491454001,0.0,-2.638798818654148,0.0
4528623662.9525,-13.423874835675653,0.0,-2.644561260882192,0.0
4528638662.952,-13.41906238622914,0.0,-2.626178835068681,0.0
4528653662.9515,-13.418101305963877,0.0,-2.6344741932394613,0.0
4528668662.951,-13.414113338393674,0.0,-2.620689002191227,0.0
4528683662.9505,-13.418573410303578,0.0,-2.6507647660118985,0.0
4528698662.95,-13.425402010313336,0.0,-2.6112672597406275,0.0
4528713662.9495,-13.41261791709833,0.0,-2.622333759136144,0.0
4528728662.949,-13.424171816963892,0.0,-2.6250809801873136,0.0
4528743662.9485,-13.414371902723605,0.0,-2.6884619849888103,0.0
4528758662.948,-13.413042977710747,0.0,-2.5973780148626973,0.0
4528773662.9475,-13.40532315717595,0.0,-2.6253642274810978,0.0
4528788662.947,-13.407538116560884,0.0,-2.654344343681336,0.0
4528803662.9465,-13.415386949732328,0.0,-2.649929545497228,0.0
4528818662.946,-13.41794117952102,0.0,-2.621957259441549,0.0
4528833662.9455,-13.424264831586594,0.0,-2.6362180840061833,0.0
4528848662.945,-13.421437990878907,0.0,-2.6516627490142572,0.0
4528863662.9445,-13.41344690896986,0.0,-2.6456157099373177,0.0
4528878662.944,-13.416315288720762,0.0,-2.636220056608202,0.0
4528893662.9435,-13.412164960963269,0.0,-2.6279864600040583,0.0
4528908662.943,-13.409174114182871,0.0,-2.7095300875145787,0.0
4528923662.9425,-13.415080196393582,0.0,-2.733643217996961,0.0
4528938662.942,-13.41682427320774,0.0,-2.6610079988099224,0.0
4528953662.9415,-13.415384426231654,0.0,-2.7222762962886455,0.0
4528968662.941,-13.415585486788544,0.0,-2.6795418259690984,0.0
4528983662.9405,-13.42362977210856,0.0,-2.6610735490584148,0.0
4528998662.94,-13.424658050706908,0.0,-2.6998108869264072,0.0
4529013662.9395,-13.411997859459426,0.0,-2.646695620314323,0.0
4529028662.939,-13.415515964206797,0.0,-2.74938071445069,0.0
4529043662.9385,-13.417764303835797,0.0,-2.71923832122998,0.0
4529058662.938,-13.42008046809317,0.0,-2.682929015955924,0.0
4529073662.9375,-13.41399327301233,0.0,-2.7011146045114627,0.0
4529088662.937,-13.41354382384612,0.0,-2.705343505588189,0.0
4529103662.9365,-13.425488011663356,0.0,-2.645483927258725,0.0
4529118662.936,-13.421865729075375,0.0,-2.7035066455709273,0.0
4529133662.9355,-13.41852762857068,0.0,-2.745051899580728,0.0
4529148662.935,-13.405250586382909,0.0,-2.7103188068724524,0.0
4529163662.9345,-13.41509080893369,0.0,-2.7702130537058895,0.0
4529178662.934,-13.409045002669986,0.0,-2.736592689838365,0.0
4529193662.9335,-13.421313945587087,0.0,-2.739688235701839,0.0
4529208662.933,-13.417677684904206,0.0,-2.70629786997702,0.0
4529223662.9325,-13.426652327876354,0.0,-2.7267637006988146,0.0
4529238662.932,-13.418509306222122,0.0,-2.7643678720734295,0.0
4529253662.9315,-13.42122638199023,0.0,-2.7092221953085622,0.0
4529268662.931,-13.429452459298863,0.0,-2.75083286918916,0.0
4529283662.9305,-13.422561607064145,0.0,-2.7449628687941483,0.0
4529298662.93,-13.413840080385304,0.0,-2.740115778632425,0.0
4529313662.9295,-13.417922469412291,0.0,-2.6976161147817277,0.0
4529328662.929,-13.416665412999143,0.0,-2.791238493519904,0.0
4529343662.9285,-13.418331507571308,0.0,-2.690778597799584,0.0
4529358662.928,-13.416607084023234,0.0,-2.7197151747142216,0.0
4529373662.9275,-13.415654958327476,0.0,-2.790138873771412,0.0
4529388662.927,-13.420114670923706,0.0,-2.711131767987852,0.0
4529403662.9265,-13.417503312462388,0.0,-2.783105327033386,0.0
4529418662.926,-13.416321944135136,0.0,-2.7887771450792727,0.0
4529433662.9255,-13.410712361254085,0.0,-2.7591673897812004,0.0
4529448662.925,-13.415171499263609,0.0,-2.770108473481958,0.0
4529463662.9245,-13.415779937759265,0.0,-2.805894817498114,0.0
4529478662.924,-13.416822675345315,0.0,-2.7896886523373507,0.0
4529493662.9235,-13.424016228404055,0.0,-2.8035085430725695,0.0
4529508662.923,-13.43093804067376,0.0,-2.777159501577499,0.0
4529523662.9225,-13.424579802860247,0.0,-2.7821287880864083,0.0
4529538662.922,-13.421218574201678,0.0,-2.781818903230023,0.0
4529553662.9215,-13.418324995443205,0.0,-2.7642842912278676,0.0
4529568662.921,-13.41359121202013,0.0,-2.801840852988505,0.0
4529583662.9205,-13.417754789813362,0.0,-2.8377333739296047,0.0
4529598662.92,-13.412633895827584,0.0,-2.7680190132143228,0.0
4529613662.9195,-13.416860299196614,0.0,-2.8179607864622893,0.0
4529628662.919,-13.418752741342924,0.0,-2.8394526729618073,0.0
4529643662.9185,-13.429813519488656,0.0,-2.8171999656366626,0.0
4529658662.918,-13.418253831943595,0.0,-2.808209496294061,0.0
4529673662.9175,-13.412740710692681,0.0,-2.8024702667426427,0.0
4529688662.917,-13.414967385987865,0.0,-2.7849806314018895,0.0
4529703662.9165,-13.418831601713915,0.0,-2.769494149520344,0.0
4529718662.916,-13.421074537354333,0.0,-2.7809530287787405,0.0
4529733662.9155,-13.427313805426822,0.0,-2.793765085455918,0.0
4529748662.915,-13.422411529260003,0.0,-2.795575539035967,0.0
4529763662.9145,-13.423777427994466,0.0,-2.7681231350778,0.0
4529778662.914,-13.420125882321837,0.0,-2.8749162824179617,0.0
4529793662.9135,-13.423837861294057,0.0,-2.8144207153326386,0.0
4529808662.913,-13.418245386280745,0.0,-2.848552130156454,0.0
4529823662.9125,-13.422620521162564,0.0,-2.8219477980249725,0.0
4529838662.912,-13.431142170384208,0.0,-2.8329184445305944,0.0
4529853662.9115,-13.414448693316391,0.0,-2.7907801586826326,0.0
4529868662.911,-13.429888563242084,0.0,-2.770473321403897,0.0
4529883662.9105,-13.415267733619697,0.0,-2.851825454500017,0.0
4529898662.91,-13.427992815289969,0.0,-2.826446783750742,0.0
4529913662.9095,-13.41591592751102,0.0,-2.901406846743134,0.0
4529928662.909,-13.416093481645389,0.0,-2.8383539938138314,0.0
4529943662.9085,-13.415794669631591,0.0,-2.8315935920280517,0.0
4529958662.908,-13.414870084957524,0.0,-2.8810737839193727,0.0
4529973662.9075,-13.42377695550859,0.0,-2.8591811804229867,0.0
4529988662.907,-13.41541011788255,0.0,-2.8477549138874085,0.0
4530003662.9065,-13.417711493756162,0.0,-2.801157279780053,0.0
4530018662.906,-13.426885607243262,0.0,-2.832542955915775,0.0
4530033662.9055,-13.426148496341028,0.0,-2.91876692077164,0.0
4530048662.905,-13.410938160519565,0.0,-2.844565626560653,0.0
4530063662.9045,-13.424722222321353,0.0,-2.8737680933348626,0.0
4530078662.904,-13.427018737883383,0.0,-2.892632806435801,0.0
4530093662.9035,-13.431437994289306,0.0,-2.932574549410324,0.0
4530108662.903,-13.418267785164586,0.0,-2.860602367954373,0.0
4530123662.9025,-13.42543854058054,0.0,-2.9029219511544166,0.0
4530138662.902,-13.429105707126428,0.0,-2.847971124192747,0.0
4530153662.9015,-13.428900575631143,0.0,-2.8516028935418603,0.0
4530168662.901,-13.42146487112397,0.0,-2.8841947074842538,0.0
4530183662.9005,-13.415939920100687,0.0,-2.8771603220952606,0.0
4530198662.9,-13.420076756920782,0.0,-2.9136797433694444,0.0
4530213662.8995,-13.416329316609195,0.0,-2.901230713015657,0.0
4530228662.899,-13.422769472852671,0.0,-2.910850614871681,0.0
4530243662.8985,-13.424272723941478,0.0,-2.9430166467455408,0.0
4530258662.898,-13.425508024021136,0.0,-2.8596596054662027,0.0
4530273662.8975,-13.41720304034585,0.0,-2.865147742715928,0.0
4530288662.897,-13.418429791008236,0.0,-2.9317812307579882,0.0
4530303662.8965,-13.421577048785894,0.0,-2.911725883031131,0.0
4530318662.896,-13.4273359089792,0.0,-2.9646818926868055,0.0
4530333662.8955,-13.421262652135928,0.0,-2.9058335152395154,0.0
4530348662.895,-13.4183386004024,0.0,-2.97630061831614,0.0
4530363662.8945,-13.421639159823798,0.0,-2.9452034428047003,0.0
4530378662.894,-13.418777824142156,0.0,-3.005963971412941,0.0
4530393662.8935,-13.434567535391082,0.0,-2.8968368053837974,0.0
4530408662.893,-13.426234639782393,0.0,-2.889166784310411,0.0
4530423662.8925,-13.417941586538895,0.0,-2.9208458470331466,0.0
4530438662.892,-13.418991231033777,0.0,-2.9534322258066936,0.0
4530453662.8915,-13.425289966144163,0.0,-2.936505459317949,0.0
4530468662.891,-13.411856129725702,0.0,-2.9349564881786763,0.0
4530483662.8905,-13.412902973751766,0.0,-2.9345586785225404,0.0
4530498662.89,-13.421426145661083,0.0,-2.961078722930862,0.0
4530513662.8895,-13.429263407298567,0.0,-2.9607995221561847,0.0
4530528662.889,-13.413009147570087,0.0,-3.0010439318731557,0.0
4530543662.8885,-13.427013199087497,0.0,-2.9567038441286115,0.0
4530558662.888,-13.421671613823642,0.0,-2.9510727661628193,0.0
4530573662.8875,-13.414822905280863,0.0,-3.000342193022878,0.0
4530588662.887,-13.416923851625867,0.0,-2.976327878616225,0.0
4530603662.8865,-13.420074150331615,0.0,-2.984491364263193,0.0
4530618662.886,-13.416120958691904,0.0,-2.9553760938183298,0.0
4530633662.8855,-13.418742134923257,0.0,-2.995658869264721,0.0
4530648662.885,-13.4242701015066,0.0,-2.9393520324356315,0.0
4530663662.8845,-13.426005517218773,0.0,-3.0166878964261774,0.0
4530678662.884,-13.428934385607718,0.0,-3.055523358218356,0.0
4530693662.8835,-13.424340169930804,0.0,-2.9935173292417026,0.0
4530708662.883,-13.416959850454495,0.0,-3.0471569997833314,0.0
4530723662.8825,-13.412682708742699,0.0,-2.9505983358198566,0.0
4530738662.882,-13.42002113246261,0.0,-2.9931894671081762,0.0
4530753662.8815,-13.420005092174874,0.0,-3.05136673711545,0.0
4530768662.881,-13.423961061579227,0.0,-2.9986135882286646,0.0
4530783662.8805,-13.419987220021607,0.0,-3.0164650110007947,0.0
4530798662.88,-13.428737955565346,0.0,-2.9847258399442342,0.0
4530813662.8795,-13.428769757910793,0.0,-3.047938191165743,0.0
4530828662.879,-13.42725178051127,0.0,-3.0129972166120558,0.0
4530843662.8785,-13.420891598466653,0.0,-3.0031184988841244,0.0
4530858662.878,-13.427253765698158,0.0,-2.999998039445367,0.0
4530873662.8775,-13.421598413428356,0.0,-3.097368050482874,0.0
4530888662.877,-13.420784069771202,0.0,-2.97872361042285,0.0
4530903662.8765,-13.423327834993097,0.0,-3.0191982230498313,0.0
4530918662.876,-13.418797293814196,0.0,-3.0318581514471057,0.0
4530933662.8755,-13.423324046358434,0.0,-3.092022298295547,0.0
4530948662.875,-13.41599365886385,0.0,-3.0645651520647315,0.0
4530963662.8745,-13.42879832305012,0.0,-3.07546942681443,0.0
4530978662.874,-13.423359664913935,0.0,-3.0637794862270864,0.0
4530993662.8735,-13.43147006195882,0.0,-3.069268529686282,0.0
4531008662.873,-13.421689189764345,0.0,-3.1201050228186222,0.0
4531023662.8725,-13.422028582764398,0.0,-3.0812523636409286,0.0
4531038662.872,-13.417098999705741,0.0,-3.055819321942767,0.0
4531053662.8715,-13.425022913711722,0.0,-3.111079511047937,0.0
4531068662.871,-13.429110002080249,0.0,-3.0351363726063867,0.0
4531083662.8705,-13.429761973835689,0.0,-3.0457415561392716,0.0
4531098662.87,-13.427204926235934,0.0,-3.1823659121551358,0.0
4531113662.8695,-13.426605718440538,0.0,-3.0854643627444163,0.0
4531128662.869,-13.425979276393951,0.0,-3.097086286251231,0.0
4531143662.8685,-13.423414784560814,0.0,-3.0921483086611685,0.0
4531158662.868,-13.429227119356169,0.0,-3.132167633861772,0.0
4531173662.8675,-13.424821320114464,0.0,-3.099387954250672,0.0
4531188662.867,-13.424417903815192,0.0,-3.148469254704915,0.0
4531203662.8665,-13.429773057343512,0.0,-3.0038987549872656,0.0
4531218662.866,-13.429132851881603,0.0,-3.105746526610574,0.0
4531233662.8655,-13.424975009695956,0.0,-3.1580096948963416,0.0
4531248662.865,-13.422914646180391,0.0,-3.1559757640512283,0.0
4531263662.8645,-13.427192586262969,0.0,-3.1049772311159733,0.0
4531278662.864,-13.42328054103007,0.0,-3.1384098354320216,0.0
4531293662.8635,-13.431165817925912,0.0,-3.0769577528745984,0.0
4531308662.863,-13.420300360808053,0.0,-3.1501725447737647,0.0
4531323662.8625,-13.426957441186227,0.0,-3.1070329731222293,0.0
4531338662.862,-13.428904198464195,0.0,-3.1415644208957576,0.0
4531353662.8615,-13.425941652510733,0.0,-3.1154558942099038,0.0
4531368662.861,-13.426560314382748,0.0,-3.1590388996532273,0.0
4531383662.8605,-13.420141911950516,0.0,-3.1917014976222857,0.0
4531398662.86,-13.423756823920911,0.0,-3.215979871023424,0.0
4531413662.8595,-13.42729849520034,0.0,-3.116922303456624,0.0
4531428662.859,-13.422149696951601,0.0,-3.208788096378927,0.0
4531443662.8585,-13.423197647641068,0.0,-3.1643771955917814,0.0
4531458662.858,-13.425545812203586,0.0,-3.178009750102014,0.0
4531473662.8575,-13.433961124610361,0.0,-3.1938830459330894,0.0
4531488662.857,-13.42271053143861,0.0,-3.2019911239032135,0.0
4531503662.8565,-13.430968878778664,0.0,-3.2129981651708066,0.0
4531518662.856,-13.428116448349265,0.0,-3.2324604316322407,0.0
4531533662.8555,-13.432469406316375,0.0,-3.1646829432879953,0.0
4531548662.855,-13.43141721190923,0.0,-3.24615510051902,0.0
4531563662.8545,-13.421648941001763,0.0,-3.2270457020389802,0.0
4531578662.854,-13.42949142457777,0.0,-3.246004668728826,0.0
4531593662.8535,-13.421670123785795,0.0,-3.153210341258129,0.0
4531608662.853,-13.422751135605246,0.0,-3.1605222028575892,0.0
4531623662.8525,-13.430491407352932,0.0,-3.2149128841316843,0.0
4531638662.852,-13.420221561789239,0.0,-3.2157906606102324,0.0
4531653662.8515,-13.425437854720137,0.0,-3.230825822150828,0.0
4531668662.851,-13.434274821080233,0.0,-3.1998905877420274,0.0
4531683662.8505,-13.43935527043439,0.0,-3.235461179142786,0.0
4531698662.85,-13.433222512035242,0.0,-3.2688404305958914,0.0
4531713662.8495,-13.419405845113602,0.0,-3.2659923981717123,0.0
4531728662.849,-13.431583762618784,0.0,-3.267873339147139,0.0
4531743662.8485,-13.424430879108204,0.0,-3.249623888998602,0.0
4531758662.848,-13.42567987369075,0.0,-3.3019722906023365,0.0
4531773662.8475,-13.423645995258449,0.0,-3.2337730888485896,0.0
4531788662.847,-13.423654023024916,0.0,-3.2738142737929876,0.0
4531803662.8465,-13.427134284929798,0.0,-3.2418763296501116,0.0
4531818662.846,-13.430414141695351,0.0,-3.258595095197377,0.0
4531833662.8455,-13.432933436068373,0.0,-3.26620677030764,0.0
4531848662.845,-13.426724290193334,0.0,-3.2044990817801517,0.0
4531863662.8445,-13.41988030815418,0.0,-3.291706987478771,0.0
4531878662.844,-13.432696651222496,0.0,-3.2871144210131895,0.0
