Frequency,S11,S11-Q,S11-Phase,S11-Phase-Q
4527198663.0,-13.423279827581034,0.0,-2.55631195383891,0.0
4527213662.9995,-13.415967748422009,0.0,-2.513825022265953,0.0
4527228662.999,-13.429465190287077,0.0,-2.4885539748562184,0.0
4527243662.9985,-13.427582647231853,0.0,-2.6287685417630424,0.0
4527258662.998,-13.432748307157564,0.0,-2.4769367735650967,0.0
4527273662.9975,-13.42459073378804,0.0,-2.4930611633878375,0.0
4527288662.997,-13.423096739946665,0.0,-2.5795891609962616,0.0
4527303662.9965,-13.416659927400085,0.0,-2.5382837509507032,0.0
4527318662.996,-13.427233593576133,0.0,-2.5713245825052042,0.0
4527333662.9955,-13.428607603394829,0.0,-2.5310161796068504,0.0
4527348662.995,-13.438433219666507,0.0,-2.614768051000051,0.0
4527363662.9945,-13.432771948201115,0.0,-2.530503101596749,0.0
4527378662.994,-13.429187484421728,0.0,-2.5757195780647995,0.0
4527393662.9935,-13.425564039342257,0.0,-2.5456023472724705,0.0
4527408662.993,-13.41786311561615,0.0,-2.5284052001883373,0.0
4527423662.9925,-13.429804880885865,0.0,-2.586005056697226,0.0
4527438662.992,-13.41654826547993,0.0,-2.5134211601506338,0.0
4527453662.9915,-13.426452817970562,0.0,-2.5596700698216686,0.0
4527468662.991,-13.429859182530455,0.0,-2.5518248039393745,0.0
4527483662.9905,-13.432529949752505,0.0,-2.50129466125096,0.0
4527498662.99,-13.423956694572116,0.0,-2.5617187726666453,0.0
4527513662.9895,-13.425928684371513,0.0,-2.5740049200866975,0.0
4527528662.989,-13.427999215077055,0.0,-2.611743606271728,0.0
4527543662.9885,-13.42205063344391,0.0,-2.5834035153656063,0.0
4527558662.988,-13.427250371385231,0.0,-2.5755983062226147,0.0
4527573662.9875,-13.421673669512158,0.0,-2.5976251405401856,0.0
4527588662.987,-13.412500350455863,0.0,-2.5127818725124493,0.0
4527603662.9865,-13.433522733535572,0.0,-2.5774359936815334,0.0
4527618662.986,-13.429093026813536,0.0,-2.556820303134033,0.0
4527633662.9855,-13.428557608841139,0.0,-2.580727423572059,0.0
4527648662.985,-13.422289612915222,0.0,-2.586657779708956,0.0
4527663662.9845,-13.43312880605305,0.0,-2.612966238295468,0.0
4527678662.984,-13.42306882387006,0.0,-2.5755281090863376,0.0
4527693662.9835,-13.430939627084209,0.0,-2.599032340928437,0.0
4527708662.983,-13.422883439640499,0.0,-2.577197128673179,0.0
4527723662.9825,-13.417866396079322,0.0,-2.6338593172768285,0.0
4527738662.982,-13.431907134689403,0.0,-2.625988792538602,0.0
4527753662.9815,-13.433977381118527,0.0,-2.6593184927747577,0.0
4527768662.981,-13.423270622711588,0.0,-2.601722602219352,0.0
4527783662.9805,-13.419516141259734,0.0,-2.634050070999524,0.0
4527798662.98,-13.430868662697709,0.0,-2.580043441892109,0.0
4527813662.9795,-13.423596420428385,0.0,-2.6291773554888005,0.0
4527828662.979,-13.42685473082302,0.0,-2.5786385715043627,0.0
4527843662.9785,-13.42256656577948,0.0,-2.5866763194225846,0.0
4527858662.978,-13.42115267503807,0.0,-2.5801757565509,0.0
4527873662.9775,-13.429436015532863,0.0,-2.5880910091809213,0.0
4527888662.977,-13.41753566195629,0.0,-2.666578796205475,0.0
4527903662.9765,-13.436726605801766,0.0,-2.6060972592579446,0.0
4527918662.976,-13.431653517914786,0.0,-2.683677701966218,0.0
4527933662.9755,-13.428339237362188,0.0,-2.657461988546357,0.0
4527948662.975,-13.427602707042256,0.0,-2.633834024756827,0.0
4527963662.9745,-13.426857816562807,0.0,-2.660010175799794,0.0
4527978662.974,-13.434935099133353,0.0,-2.649620566311817,0.0
4527993662.9735,-13.421835533393548,0.0,-2.586822854058793,0.0
4528008662.973,-13.433909188616358,0.0,-2.6347326202725228,0.0
4528023662.9725,-13.426655717244412,0.0,-2.6378453274076237,0.0
4528038662.972,-13.420558555963849,0.0,-2.6981636927194232,0.0
4528053662.9715,-13.43036392168447,0.0,-2.64496805394471,0.0
4528068662.971,-13.433569242054528,0.0,-2.6627336433737296,0.0
4528083662.9705,-13.431719399626758,0.0,-2.6343995755190805,0.0
4528098662.97,-13.424130016280637,0.0,-2.602330011438382,0.0
4528113662.9695,-13.427074983001804,0.0,-2.6830395011874,0.0
4528128662.969,-13.434939530677035,0.0,-2.6445045341773024,0.0
4528143662.9685,-13.422830591387246,0.0,-2.703841069198003,0.0
4528158662.968,-13.421512752838945,0.0,-2.6861562443273685,0.0
4528173662.9675,-13.430302597563866,0.0,-2.645548500400638,0.0
4528188662.967,-13.430344831931784,0.0,-2.6489656762712426,0.0
4528203662.9665,-13.433687972196806,0.0,-2.708329417505774,0.0
4528218662.966,-13.438328261803,0.0,-2.714622761155374,0.0
4528233662.9655,-13.4274620358016,0.0,-2.6691664616805935,0.0
4528248662.965,-13.42807998724451,0.0,-2.6940916433064057,0.0
4528263662.9645,-13.429844577941605,0.0,-2.712872832813061,0.0
4528278662.964,-13.425242697711756,0.0,-2.6936686129269,0.0
4528293662.9635,-13.429689055712153,0.0,-2.653333114852024,0.0
4528308662.963,-13.432499738444024,0.0,-2.7058835664822993,0.0
4528323662.9625,-13.428634598527974,0.0,-2.7099645663247576,0.0
4528338662.962,-13.437454160789635,0.0,-2.727273816484952,0.0
4528353662.9615,-13.43162320130989,0.0,-2.709070402834344,0.0
4528368662.961,-13.420760401650618,0.0,-2.744582327245534,0.0
4528383662.9605,-13.429154493042684,0.0,-2.7030356062743532,0.0
4528398662.96,-13.430066854249539,0.0,-2.7884727029178626,0.0
4528413662.9595,-13.42880945242478,0.0,-2.66122445031064,0.0
4528428662.959,-13.428217625165736,0.0,-2.7521955460684935,0.0
4528443662.9585,-13.428288583923777,0.0,-2.717070756211533,0.0
4528458662.958,-13.425987137793953,0.0,-2.6909766502420327,0.0
4528473662.9575,-13.427065682948914,0.0,-2.6963571478496204,0.0
4528488662.957,-13.436508697377702,0.0,-2.7515341251920047,0.0
4528503662.9565,-13.43457123844649,0.0,-2.671402664017246,0.0
4528518662.956,-13.43417940243917,0.0,-2.7293884409658116,0.0
4528533662.9555,-13.431256182708411,0.0,-2.747890344309078,0.0
4528548662.955,-13.431633575393555,0.0,-2.7321102889629856,0.0
4528563662.9545,-13.435393334449408,0.0,-2.7349609836107978,0.0
4528578662.954,-13.420371940238336,0.0,-2.737865307704483,0.0
4528593662.9535,-13.433056978163497,0.0,-2.7119316013725236,0.0
4528608662.953,-13.437617641098669,0.0,-2.763223885999236,0.0
4528623662.9525,-13.432243232558495,0.0,-2.7662458112958026,0.0
4528638662.952,-13.431173521138852,0.0,-2.7412644792048404,0.0
4528653662.9515,-13.430675204586427,0.0,-2.7588464814603912,0.0
4528668662.951,-13.426420160434931,0.0,-2.7800065904359257,0.0
4528683662.9505,-13.424765163246548,0.0,-2.752634745570949,0.0
4528698662.95,-13.439339573205258,0.0,-2.7475641253063996,0.0
4528713662.9495,-13.428542299497009,0.0,-2.87687083038921,0.0
4528728662.949,-13.436832618647525,0.0,-2.7274186597539747,0.0
4528743662.9485,-13.428156686583769,0.0,-2.779607224183484,0.0
4528758662.948,-13.432573188617914,0.0,-2.7070872502840735,0.0
4528773662.9475,-13.444495833802213,0.0,-2.7546971302814236,0.0
4528788662.947,-13.440664177144788,0.0,-2.7976335573191418,0.0
4528803662.9465,-13.425038920741635,0.0,-2.7734637960714434,0.0
4528818662.946,-13.42312089695865,0.0,-2.864884367013574,0.0
4528833662.9455,-13.435509548905058,0.0,-2.8053663317350814,0.0
4528848662.945,-13.423925237150947,0.0,-2.7549102806651615,0.0
4528863662.9445,-13.43033689604521,0.0,-2.818123403448806,0.0
4528878662.944,-13.431700114260156,0.0,-2.761024680848764,0.0
4528893662.9435,-13.423678183642451,0.0,-2.826088144709713,0.0
4528908662.943,-13.43272147061693,0.0,-2.7998165282088956,0.0
4528923662.9425,-13.425362695356498,0.0,-2.8109655418484674,0.0
4528938662.942,-13.432110194147729,0.0,-2.812632401116015,0.0
4528953662.9415,-13.434376795612781,0.0,-2.8342983431248894,0.0
4528968662.941,-13.426336961567335,0.0,-2.806871820482905,0.0
4528983662.9405,-13.43155748366196,0.0,-2.7981855933077524,0.0
4528998662.94,-13.439929238599674,0.0,-2.8651989400734528,0.0
4529013662.9395,-13.4288701717729,0.0,-2.789814916958896,0.0
4529028662.939,-13.43993879577372,0.0,-2.8933788009318446,0.0
4529043662.9385,-13.434239046446216,0.0,-2.8085242409849887,0.0
4529058662.938,-13.42778420624622,0.0,-2.7854348840598044,0.0
4529073662.9375,-13.428257447035765,0.0,-2.8245448400359443,0.0
4529088662.937,-13.43369937416529,0.0,-2.862898488212586,0.0
4529103662.9365,-13.430967066413803,0.0,-2.840849311476993,0.0
4529118662.936,-13.428383133117102,0.0,-2.8191020486569625,0.0
4529133662.9355,-13.421749263523928,0.0,-2.8051559303015035,0.0
4529148662.935,-13.436228585911325,0.0,-2.86359297448596,0.0
4529163662.9345,-13.435610085775336,0.0,-2.889935797320546,0.0
4529178662.934,-13.435748871805126,0.0,-2.809716961665155,0.0
4529193662.9335,-13.433389531112477,0.0,-2.8176475908302634,0.0
4529208662.933,-13.437805050092289,0.0,-2.819814301925415,0.0
4529223662.9325,-13.431426028816114,0.0,-2.8453953108989976,0.0
4529238662.932,-13.42808302637721,0.0,-2.8257235519039057,0.0
4529253662.9315,-13.437723422694352,0.0,-2.8869083810707985,0.0
4529268662.931,-13.432604288112195,0.0,-2.857710546044463,0.0
4529283662.9305,-13.424364046931148,0.0,-2.876902748899698,0.0
4529298662.93,-13.42478336132359,0.0,-2.9033486151188463,0.0
4529313662.9295,-13.439574012270974,0.0,-2.9079570923081417,0.0
4529328662.929,-13.427705053191021,0.0,-2.9207298457768256,0.0
4529343662.9285,-13.419745642484148,0.0,-2.8672404503518627,0.0
4529358662.928,-13.439413580747415,0.0,-2.8869464219211687,0.0
4529373662.9275,-13.425940783184231,0.0,-2.917327116053058,0.0
4529388662.927,-13.429796236598548,0.0,-2.916539140416195,0.0
4529403662.9265,-13.426183323485004,0.0,-2.8870070763439433,0.0
4529418662.926,-13.4362367238396,0.0,-2.9016352692285468,0.0
4529433662.9255,-13.426683026116837,0.0,-2.8850939371150464,0.0
4529448662.925,-13.431762845945707,0.0,-2.9194043115660455,0.0
4529463662.9245,-13.426762958403973,0.0,-2.950492353594095,0.0
4529478662.924,-13.42651348392768,0.0,-2.937320337894472,0.0
4529493662.9235,-13.434031632266006,0.0,-2.898648427903714,0.0
4529508662.923,-13.434561020652572,0.0,-2.92878711814606,0.0
4529523662.9225,-13.434624940549387,0.0,-2.903449355679783,0.0
4529538662.922,-13.438806865198389,0.0,-2.9612185420880035,0.0
4529553662.9215,-13.435364653789854,0.0,-2.9398161326375747,0.0
4529568662.921,-13.43391138797127,0.0,-2.9268878781805454,0.0
4529583662.9205,-13.431199057230348,0.0,-2.926706292359342,0.0
4529598662.92,-13.430155201995062,0.0,-2.9446678153307757,0.0
4529613662.9195,-13.421668302971534,0.0,-2.9444609417926,0.0
4529628662.919,-13.432220045479204,0.0,-2.949780595915102,0.0
4529643662.9185,-13.423501001344025,0.0,-2.981626616799482,0.0
4529658662.918,-13.442351176732064,0.0,-2.9520077231904667,0.0
4529673662.9175,-13.431420068491601,0.0,-2.95537696153987,0.0
4529688662.917,-13.429293250371241,0.0,-2.915578087686838,0.0
4529703662.9165,-13.434937997372598,0.0,-2.943599242447075,0.0
4529718662.916,-13.431547757098876,0.0,-2.9675979542603583,0.0
4529733662.9155,-13.430265597475797,0.0,-2.9595920773836415,0.0
4529748662.915,-13.429926767543064,0.0,-2.93414395024599,0.0
4529763662.9145,-13.434617701668994,0.0,-2.913038404988915,0.0
4529778662.914,-13.432495743582297,0.0,-2.947059844557295,0.0
4529793662.9135,-13.424096189740933,0.0,-2.9716330985949804,0.0
4529808662.913,-13.432079957370782,0.0,-3.0269043726031715,0.0
4529823662.9125,-13.438540536738854,0.0,-2.9750963719375276,0.0
4529838662.912,-13.433291318524454,0.0,-2.9868386710928982,0.0
4529853662.9115,-13.433781473322275,0.0,-2.999692828234785,0.0
4529868662.911,-13.432382255658144,0.0,-3.024424183120555,0.0
4529883662.9105,-13.429168015143055,0.0,-3.0527070643488785,0.0
4529898662.91,-13.434074022022287,0.0,-3.0385132339428904,0.0
4529913662.9095,-13.43376859377577,0.0,-3.038643128189171,0.0
4529928662.909,-13.435425636289235,0.0,-2.9955651246573503,0.0
4529943662.9085,-13.441348920179566,0.0,-2.9718093770868923,0.0
4529958662.908,-13.440742422039245,0.0,-2.984681597480336,0.0
4529973662.9075,-13.426728129600763,0.0,-2.9658752511392192,0.0
4529988662.907,-13.438117989092362,0.0,-3.047765881679039,0.0
4530003662.9065,-13.43164482759918,0.0,-2.9956753245027126,0.0
4530018662.906,-13.42543897123801,0.0,-2.9835166392828034,0.0
4530033662.9055,-13.431574763565266,0.0,-3.0192387363193465,0.0
4530048662.905,-13.434934124450418,0.0,-3.0579338302439485,0.0
4530063662.9045,-13.436468005159192,0.0,-3.053683826854159,0.0
4530078662.904,-13.436609425598718,0.0,-3.0460116375115383,0.0
4530093662.9035,-13.436604183099776,0.0,-3.0434286114624993,0.0
4530108662.903,-13.441733044652466,0.0,-3.057919675076523,0.0
4530123662.9025,-13.427706930196937,0.0,-3.024648770346327,0.0
4530138662.902,-13.43907970710054,0.0,-3.1007679859500037,0.0
4530153662.9015,-13.428658468660863,0.0,-3.08228079881199,0.0
4530168662.901,-13.435669699203856,0.0,-3.1058634677770307,0.0
4530183662.9005,-13.43492925907021,0.0,-3.095113549542461,0.0
4530198662.9,-13.440738152677216,0.0,-3.045626391044391,0.0
4530213662.8995,-13.437153589360538,0.0,-3.0901219178056776,0.0
4530228662.899,-13.43109079508746,0.0,-3.069520239284856,0.0
4530243662.8985,-13.444185739249585,0.0,-3.035934821182769,0.0
4530258662.898,-13.435540477163997,0.0,-3.0509497100922998,0.0
4530273662.8975,-13.432054840085666,0.0,-3.050553732278833,0.0
4530288662.897,-13.4263550702062,0.0,-3.0586597957288935,0.0
4530303662.8965,-13.435815830265035,0.0,-3.050855336613894,0.0
4530318662.896,-13.430921942047725,0.0,-3.031789638705098,0.0
4530333662.8955,-13.440473571609829,0.0,-3.1826365125818916,0.0
4530348662.895,-13.436273852988233,0.0,-3.0591103935681243,0.0
4530363662.8945,-13.43138361196843,0.0,-3.1550961672713673,0.0
4530378662.894,-13.435364177880093,0.0,-3.0971570875079215,0.0
4530393662.8935,-13.434578291445604,0.0,-3.0991570404346653,0.0
4530408662.893,-13.437320141651094,0.0,-3.1445705931282903,0.0
4530423662.8925,-13.431463444430667,0.0,-3.12284197557612,0.0
4530438662.892,-13.434984275257527,0.0,-3.1269015836898455,0.0
4530453662.8915,-13.446503811277093,0.0,-3.192159155257904,0.0
4530468662.891,-13.437672328016914,0.0,-3.1148488248513067,0.0
4530483662.8905,-13.431946795606686,0.0,-3.137012887905911,0.0
4530498662.89,-13.438338886533344,0.0,-3.11001146520105,0.0
4530513662.8895,-13.428865710925642,0.0,-3.1601116457433727,0.0
4530528662.889,-13.43655960002065,0.0,-3.1288096627742155,0.0
4530543662.8885,-13.438395626632841,0.0,-3.1114128656648976,0.0
4530558662.888,-13.436799632528517,0.0,-3.106246423562318,0.0
4530573662.8875,-13.441189175104435,0.0,-3.1414468015090637,0.0
4530588662.887,-13.439398449371954,0.0,-3.159761835733168,0.0
4530603662.8865,-13.437754761894718,0.0,-3.1531523845340237,0.0
4530618662.886,-13.435907922748296,0.0,-3.1595078552504776,0.0
4530633662.8855,-13.442401186978321,0.0,-3.1553914220236883,0.0
4530648662.885,-13.424159765513114,0.0,-3.1938030654967626,0.0
4530663662.8845,-13.436726737800413,0.0,-3.141196363743214,0.0
4530678662.884,-13.433801709157834,0.0,-3.135043719721204,0.0
4530693662.8835,-13.430371918180677,0.0,-3.208625538949985,0.0
4530708662.883,-13.442676981103478,0.0,-3.1963752080626766,0.0
4530723662.8825,-13.440238104907769,0.0,-3.1335353983088905,0.0
4530738662.882,-13.437307847449436,0.0,-3.1566355854959434,0.0
4530753662.8815,-13.439613752588688,0.0,-3.1654341880756234,0.0
4530768662.881,-13.43832837451714,0.0,-3.1730548695514194,0.0
4530783662.8805,-13.437493079747671,0.0,-3.200422144015551,0.0
4530798662.88,-13.442508810669551,0.0,-3.1910908601991603,0.0
4530813662.8795,-13.436052135421848,0.0,-3.1797198769390675,0.0
4530828662.879,-13.433392857434294,0.0,-3.203587543763549,0.0
4530843662.8785,-13.434241382351843,0.0,-3.180009245712172,0.0
4530858662.878,-13.435913411595395,0.0,-3.169615288271807,0.0
4530873662.8775,-13.437655432041444,0.0,-3.188969402194857,0.0
4530888662.877,-13.430884178088704,0.0,-3.1623267615792425,0.0
4530903662.8765,-13.43843571760599,0.0,-3.2179630540069737,0.0
4530918662.876,-13.438988969665179,0.0,-3.2175793486325834,0.0
4530933662.8755,-13.441491562300206,0.0,-3.2554111774208803,0.0
4530948662.875,-13.44514689239199,0.0,-3.184693482327431,0.0
4530963662.8745,-13.436746277362236,0.0,-3.2708387307623314,0.0
4530978662.874,-13.44455574432386,0.0,-3.260870407801163,0.0
4530993662.8735,-13.445558420994994,0.0,-3.2265966323082966,0.0
4531008662.873,-13.426641954661358,0.0,-3.229012385110753,0.0
4531023662.8725,-13.444988604004628,0.0,-3.232218203652422,0.0
4531038662.872,-13.436864725291922,0.0,-3.2530806212758456,0.0
4531053662.8715,-13.437520064573773,0.0,-3.273761867790018,0.0
4531068662.871,-13.436270932813157,0.0,-3.317505660087268,0.0
4531083662.8705,-13.444450521736908,0.0,-3.286934855279377,0.0
4531098662.87,-13.453503578590505,0.0,-3.202538985125613,0.0
4531113662.8695,-13.436460701136097,0.0,-3.249711988215581,0.0
4531128662.869,-13.434368767280322,0.0,-3.2576874007890737,0.0
4531143662.8685,-13.439439303696703,0.0,-3.206111423921422,0.0
4531158662.868,-13.431542396285156,0.0,-3.2996765286949628,0.0
4531173662.8675,-13.434142363081147,0.0,-3.3112952648577467,0.0
4531188662.867,-13.438730696650325,0.0,-3.32543615686668,0.0
4531203662.8665,-13.439047826755736,0.0,-3.33210970355603,0.0
4531218662.866,-13.445394829702078,0.0,-3.2577617562067247,0.0
4531233662.8655,-13.429383176070948,0.0,-3.3504483305191997,0.0
4531248662.865,-13.441667108118265,0.0,-3.2648667918954577,0.0
4531263662.8645,-13.444086653695301,0.0,-3.304717512780219,0.0
4531278662.864,-13.432900786901346,0.0,-3.294251401699001,0.0
4531293662.8635,-13.438284942312857,0.0,-3.304740685500272,0.0
4531308662.863,-13.436840522854913,0.0,-3.327361748568515,0.0
4531323662.8625,-13.432522449983962,0.0,-3.2724939449168713,0.0
4531338662.862,-13.440266226079702,0.0,-3.2890804406390046,0.0
4531353662.8615,-13.430705948819888,0.0,-3.32545208437511,0.0
4531368662.861,-13.446964685474853,0.0,-3.3509583871872017,0.0
4531383662.8605,-13.44142163587603,0.0,-3.36358173816327,0.0
4531398662.86,-13.443039601227287,0.0,-3.4111085864856663,0.0
4531413662.8595,-13.434564496233246,0.0,-3.294241557106095,0.0
4531428662.859,-13.431920530098683,0.0,-3.321535314398317,0.0
4531443662.8585,-13.432893675855325,0.0,-3.3591584261996363,0.0
4531458662.858,-13.435934359766096,0.0,-3.365266085550044,0.0
4531473662.8575,-13.448700720931964,0.0,-3.4114280977361755,0.0
4531488662.857,-13.431471774618567,0.0,-3.3349668383712276,0.0
4531503662.8565,-13.438947213551547,0.0,-3.3797891807826854,0.0
4531518662.856,-13.431449786213996,0.0,-3.4188529825782967,0.0
4531533662.8555,-13.441890995458659,0.0,-3.3431434201263674,0.0
4531548662.855,-13.443824220394852,0.0,-3.3606610210234344,0.0
4531563662.8545,-13.433440938441294,0.0,-3.388587056567406,0.0
4531578662.854,-13.43310486162165,0.0,-3.341177061683306,0.0
4531593662.8535,-13.44196831624112,0.0,-3.3741761951421174,0.0
4531608662.853,-13.439159648652968,0.0,-3.4128889027565776,0.0
4531623662.8525,-13.443570003011605,0.0,-3.386086750723287,0.0
4531638662.852,-13.440370215757223,0.0,-3.418111191086753,0.0
4531653662.8515,-13.436090269945014,0.0,-3.4586547796600318,0.0
4531668662.851,-13.442824288164841,0.0,-3.423654705181482,0.0
4531683662.8505,-13.441499286252217,0.0,-3.388464563987556,0.0
4531698662.85,-13.43348806701788,0.0,-3.3730753319837636,0.0
4531713662.8495,-13.443505467486911,0.0,-3.4723110157400034,0.0
4531728662.849,-13.438026364187172,0.0,-3.4136670695428646,0.0
4531743662.8485,-13.442748443596145,0.0,-3.4093834882629537,0.0
4531758662.848,-13.441416195507877,0.0,-3.4494489230932963,0.0
4531773662.8475,-13.435429200511784,0.0,-3.4592261136207796,0.0
4531788662.847,-13.442274704659539,0.0,-3.4503284163921157,0.0
4531803662.8465,-13.44287790075299,0.0,-3.4159324548069483,0.0
4531818662.846,-13.442779060585925,0.0,-3.478216598879657,0.0
4531833662.8455,-13.443064247808731,0.0,-3.4603468978371175,0.0
4531848662.845,-13.442988286254892,0.0,-3.4619639879743387,0.0
4531863662.8445,-13.438792284030365,0.0,-3.507924035612195,0.0
4531878662.844,-13.440789508141542,0.0,-3.4589481891698317,0.0
