Frequency,S11,S11-Q,S11-Phase,S11-Phase-Q
4527198663.0,-13.408954939435873,0.0,-2.4779961462729774,0.0
4527213662.9995,-13.401325015306805,0.0,-2.4583098288128955,0.0
4527228662.999,-13.406216440908194,0.0,-2.473701296264077,0.0
4527243662.9985,-13.404541845269955,0.0,-2.3757594269018214,0.0
4527258662.998,-13.412647464139575,0.0,-2.3592795999484744,0.0
4527273662.9975,-13.406904656760998,0.0,-2.4337747089105655,0.0
4527288662.997,-13.410357879553567,0.0,-2.4526197354368167,0.0
4527303662.9965,-13.40878271311965,0.0,-2.4317726792765497,0.0
4527318662.996,-13.411436063860222,0.0,-2.414053311844014,0.0
4527333662.9955,-13.416290606715497,0.0,-2.492055362807797,0.0
4527348662.995,-13.410188934088492,0.0,-2.4503556310641366,0.0
4527363662.9945,-13.401222997526204,0.0,-2.4414337842100524,0.0
4527378662.994,-13.411782253691197,0.0,-2.4468680577612356,0.0
4527393662.9935,-13.405843993141765,0.0,-2.44883783295529,0.0
4527408662.993,-13.41078588728454,0.0,-2.4415933783430703,0.0
4527423662.9925,-13.406885637605546,0.0,-2.4340873063449306,0.0
4527438662.992,-13.40321224973611,0.0,-2.459043003244641,0.0
4527453662.9915,-13.407278632816162,0.0,-2.3852226475323466,0.0
4527468662.991,-13.407249044426964,0.0,-2.4203930392279975,0.0
4527483662.9905,-13.401864909187317,0.0,-2.5107254234430223,0.0
4527498662.99,-13.409483167563645,0.0,-2.4605067450464637,0.0
4527513662.9895,-13.406251730793077,0.0,-2.45055994269562,0.0
4527528662.989,-13.415079811905208,0.0,-2.5139524683943697,0.0
4527543662.9885,-13.40640412648054,0.0,-2.4805727147041225,0.0
4527558662.988,-13.406740527170658,0.0,-2.4807017101695847,0.0
4527573662.9875,-13.422747538588764,0.0,-2.4249931813161147,0.0
4527588662.987,-13.40065259856378,0.0,-2.4523074944229957,0.0
4527603662.9865,-13.414107499111132,0.0,-2.4812923293738844,0.0
4527618662.986,-13.407355845564775,0.0,-2.4720090847558587,0.0
4527633662.9855,-13.415046120836562,0.0,-2.4772470824072306,0.0
4527648662.985,-13.405182032518347,0.0,-2.4641810902787116,0.0
4527663662.9845,-13.41170927231846,0.0,-2.4812711500755933,0.0
4527678662.984,-13.413472314133667,0.0,-2.5233836516044956,0.0
4527693662.9835,-13.416510150611927,0.0,-2.4783898292880298,0.0
4527708662.983,-13.406712302508181,0.0,-2.4150748625456813,0.0
4527723662.9825,-13.421751194169474,0.0,-2.488814262902701,0.0
4527738662.982,-13.415563507788193,0.0,-2.4995248625166835,0.0
4527753662.9815,-13.407011388482958,0.0,-2.551117385080205,0.0
4527768662.981,-13.397219620437275,0.0,-2.5195822406677895,0.0
4527783662.9805,-13.398263111890794,0.0,-2.5444411846974684,0.0
4527798662.98,-13.418657652791328,0.0,-2.4806659726741684,0.0
4527813662.9795,-13.401966872805264,0.0,-2.529544279042098,0.0
4527828662.979,-13.408909319185128,0.0,-2.4679101893154107,0.0
4527843662.9785,-13.406753233932928,0.0,-2.5173864727582695,0.0
4527858662.978,-13.415347979097785,0.0,-2.5516107118794094,0.0
4527873662.9775,-13.413655482368267,0.0,-2.550988018964486,0.0
4527888662.977,-13.408233542250665,0.0,-2.5332625739410557,0.0
4527903662.9765,-13.406824348648192,0.0,-2.509127708575576,0.0
4527918662.976,-13.412894565075508,0.0,-2.4754314448607655,0.0
4527933662.9755,-13.405566279504008,0.0,-2.5105202081390416,0.0
4527948662.975,-13.401837372497669,0.0,-2.5639437841029595,0.0
4527963662.9745,-13.407456885078242,0.0,-2.5904561770537935,0.0
4527978662.974,-13.414100730824616,0.0,-2.5277113358683576,0.0
4527993662.9735,-13.404457343419145,0.0,-2.489847565621,0.0
4528008662.973,-13.405344996907726,0.0,-2.5159703149148567,0.0
4528023662.9725,-13.413610099575807,0.0,-2.5256415918318282,0.0
4528038662.972,-13.40826724705713,0.0,-2.5436269013498984,0.0
4528053662.9715,-13.412771044563174,0.0,-2.5661535875697963,0.0
4528068662.971,-13.410148111094957,0.0,-2.561931824389345,0.0
4528083662.9705,-13.409877651965434,0.0,-2.505657350491058,0.0
4528098662.97,-13.4060588156537,0.0,-2.5623675510136823,0.0
4528113662.9695,-13.414066622953367,0.0,-2.580269279936779,0.0
4528128662.969,-13.419490621085666,0.0,-2.550180418129536,0.0
4528143662.9685,-13.405213822021722,0.0,-2.5542422700475584,0.0
4528158662.968,-13.418433867525456,0.0,-2.586538348544273,0.0
4528173662.9675,-13.402027570014548,0.0,-2.511316957242497,0.0
4528188662.967,-13.415990260100909,0.0,-2.609326652557126,0.0
4528203662.9665,-13.400889288582515,0.0,-2.5100809121248124,0.0
4528218662.966,-13.415035029991966,0.0,-2.589579787691377,0.0
4528233662.9655,-13.412880224188113,0.0,-2.5228465575040677,0.0
4528248662.965,-13.413349380348897,0.0,-2.4679688634703183,0.0
4528263662.9645,-13.411618519159811,0.0,-2.5794017814915615,0.0
4528278662.964,-13.41388367698994,0.0,-2.5175420340120636,0.0
4528293662.9635,-13.409716987599726,0.0,-2.601154838472315,0.0
4528308662.963,-13.416899227480023,0.0,-2.6043854324094653,0.0
4528323662.9625,-13.414772574699885,0.0,-2.618080140917779,0.0
4528338662.962,-13.405400579067294,0.0,-2.5774308265461707,0.0
4528353662.9615,-13.415648721971682,0.0,-2.577851290170864,0.0
4528368662.961,-13.40923444882121,0.0,-2.547426386883493,0.0
4528383662.9605,-13.417585482380396,0.0,-2.572782500153463,0.0
4528398662.96,-13.409353109251146,0.0,-2.5786619916044757,0.0
4528413662.9595,-13.419898295824504,0.0,-2.5997614265112796,0.0
4528428662.959,-13.410642063626403,0.0,-2.650285062708264,0.0
4528443662.9585,-13.405627578935926,0.0,-2.6182580702412372,0.0
4528458662.958,-13.410180346698663,0.0,-2.5974411741365038,0.0
4528473662.9575,-13.412974370222274,0.0,-2.6205492140106292,0.0
4528488662.957,-13.412889718727355,0.0,-2.563810877033846,0.0
4528503662.9565,-13.40772133262478,0.0,-2.5405620693973274,0.0
4528518662.956,-13.420788857857008,0.0,-2.64835047109198,0.0
4528533662.9555,-13.422239667975717,0.0,-2.6443816564424014,0.0
4528548662.955,-13.410640334523347,0.0,-2.604544987232127,0.0
4528563662.9545,-13.416371043979158,0.0,-2.612518499453685,0.0
4528578662.954,-13.412955680792273,0.0,-2.6431074861907846,0.0
4528593662.9535,-13.41393493306445,0.0,-2.6171817308183525,0.0
4528608662.953,-13.413661656744512,0.0,-2.649284843932965,0.0
4528623662.9525,-13.409746227490263,0.0,-2.6214511575202386,0.0
4528638662.952,-13.416580448583424,0.0,-2.5873173852299503,0.0
4528653662.9515,-13.410695755221152,0.0,-2.651215983402265,0.0
4528668662.951,-13.417666009144138,0.0,-2.5772980657598366,0.0
4528683662.9505,-13.410304247932725,0.0,-2.630344236527638,0.0
4528698662.95,-13.417404960494935,0.0,-2.652693089071102,0.0
4528713662.9495,-13.416824758705836,0.0,-2.6655675610475846,0.0
4528728662.949,-13.41285737621125,0.0,-2.6440536852404093,0.0
4528743662.9485,-13.41174986082596,0.0,-2.6459278291517014,0.0
4528758662.948,-13.405760986669094,0.0,-2.681100675085663,0.0
4528773662.9475,-13.409459680811784,0.0,-2.6382107793743517,0.0
4528788662.947,-13.414488825983785,0.0,-2.599234954997575,0.0
4528803662.9465,-13.423382741205923,0.0,-2.6415881008584488,0.0
4528818662.946,-13.417116919516477,0.0,-2.684097728579801,0.0
4528833662.9455,-13.403664281723849,0.0,-2.6716919127356915,0.0
4528848662.945,-13.407531265565558,0.0,-2.683277498366065,0.0
4528863662.9445,-13.408980572958619,0.0,-2.6622946822375138,0.0
4528878662.944,-13.408735722110634,0.0,-2.6136527652281414,0.0
4528893662.9435,-13.412723853500403,0.0,-2.6600577521925146,0.0
4528908662.943,-13.414502213305425,0.0,-2.68679084053981,0.0
4528923662.9425,-13.413091354747493,0.0,-2.6837734545815732,0.0
4528938662.942,-13.414285792987393,0.0,-2.651221271653218,0.0
4528953662.9415,-13.419703262571925,0.0,-2.68094518624516,0.0
4528968662.941,-13.411482654302063,0.0,-2.70032661441338,0.0
4528983662.9405,-13.416790826390034,0.0,-2.698987237146741,0.0
4528998662.94,-13.411441819152133,0.0,-2.6587205868129034,0.0
4529013662.9395,-13.40741991898227,0.0,-2.7619299871535734,0.0
4529028662.939,-13.402301317946304,0.0,-2.7495294764914204,0.0
4529043662.9385,-13.413967265485256,0.0,-2.7114259343532496,0.0
4529058662.938,-13.419099707557917,0.0,-2.694661399916322,0.0
4529073662.9375,-13.418601764247349,0.0,-2.703409844192071,0.0
4529088662.937,-13.420488283463127,0.0,-2.6814480793047433,0.0
4529103662.9365,-13.414441501227671,0.0,-2.671117537115527,0.0
4529118662.936,-13.418182254876115,0.0,-2.7333905159027236,0.0
4529133662.9355,-13.414131460164185,0.0,-2.7714286892201025,0.0
4529148662.935,-13.421377723715286,0.0,-2.666689108270892,0.0
4529163662.9345,-13.41642525188421,0.0,-2.7141017060043247,0.0
4529178662.934,-13.419824286449229,0.0,-2.757512446319595,0.0
4529193662.9335,-13.410371692580075,0.0,-2.7752422294948387,0.0
4529208662.933,-13.41853475526284,0.0,-2.770526797781962,0.0
4529223662.9325,-13.411476610041609,0.0,-2.740550601940009,0.0
4529238662.932,-13.408178967176736,0.0,-2.6602468665063785,0.0
4529253662.9315,-13.409692458301318,0.0,-2.7455614002825826,0.0
4529268662.931,-13.405035509804124,0.0,-2.805854837845559,0.0
4529283662.9305,-13.411317014883943,0.0,-2.715845177262851,0.0
4529298662.93,-13.424576152566846,0.0,-2.676442657336737,0.0
4529313662.9295,-13.415670204488867,0.0,-2.7381199178689313,0.0
4529328662.929,-13.41755502071573,0.0,-2.776110354878248,0.0
4529343662.9285,-13.413610036999696,0.0,-2.7591064813054573,0.0
4529358662.928,-13.41235658783913,0.0,-2.7480735738114763,0.0
4529373662.9275,-13.413410659079126,0.0,-2.7780062247794284,0.0
4529388662.927,-13.415887622654328,0.0,-2.6991976680604917,0.0
4529403662.9265,-13.417166694511264,0.0,-2.7489245981946606,0.0
4529418662.926,-13.410960530064779,0.0,-2.733326448470475,0.0
4529433662.9255,-13.420842403223388,0.0,-2.779692290406872,0.0
4529448662.925,-13.413679966133383,0.0,-2.802203186053791,0.0
4529463662.9245,-13.412688283702002,0.0,-2.7307958817815283,0.0
4529478662.924,-13.415502619390995,0.0,-2.811956046582336,0.0
4529493662.9235,-13.407311335257823,0.0,-2.8614220341654977,0.0
4529508662.923,-13.41295263616097,0.0,-2.804268889602702,0.0
4529523662.9225,-13.411504196252054,0.0,-2.8294982596080263,0.0
4529538662.922,-13.41737238880956,0.0,-2.773673997650414,0.0
4529553662.9215,-13.417673783203812,0.0,-2.7979193039863106,0.0
4529568662.921,-13.414823707995723,0.0,-2.7376542137688524,0.0
4529583662.9205,-13.432666595069442,0.0,-2.8245866581684522,0.0
4529598662.92,-13.41414205219808,0.0,-2.758313734982919,0.0
4529613662.9195,-13.410083002776723,0.0,-2.7699743242428716,0.0
4529628662.919,-13.41381635816525,0.0,-2.7541502770248143,0.0
4529643662.9185,-13.409316384001453,0.0,-2.816445091578885,0.0
4529658662.918,-13.411400989301882,0.0,-2.7949680324893387,0.0
4529673662.9175,-13.417647434205106,0.0,-2.7872111580710994,0.0
4529688662.917,-13.424302516663875,0.0,-2.8552979484154255,0.0
4529703662.9165,-13.418579507597126,0.0,-2.792364169010317,0.0
4529718662.916,-13.417202655418897,0.0,-2.813789948417638,0.0
4529733662.9155,-13.420295776090793,0.0,-2.8474792204755706,0.0
4529748662.915,-13.415410242430678,0.0,-2.854592752458743,0.0
4529763662.9145,-13.417438128586909,0.0,-2.8884715927364555,0.0
4529778662.914,-13.405729245167151,0.0,-2.873846439490155,0.0
4529793662.9135,-13.416818344111574,0.0,-2.8797210617715927,0.0
4529808662.913,-13.406608675532777,0.0,-2.791991058237025,0.0
4529823662.9125,-13.419763519006565,0.0,-2.841759063641051,0.0
4529838662.912,-13.418529142679228,0.0,-2.826091385024732,0.0
4529853662.9115,-13.42008989264845,0.0,-2.802273399404544,0.0
4529868662.911,-13.404865287717476,0.0,-2.8990308126723168,0.0
4529883662.9105,-13.419343255165144,0.0,-2.8832161942841794,0.0
4529898662.91,-13.419449085972442,0.0,-2.882110731830041,0.0
4529913662.9095,-13.41273567617258,0.0,-2.859708121910747,0.0
4529928662.909,-13.409021001235224,0.0,-2.8392794469110054,0.0
4529943662.9085,-13.413709305686565,0.0,-2.8290903123322164,0.0
4529958662.908,-13.423968523534302,0.0,-2.896056276872409,0.0
4529973662.9075,-13.41844812362716,0.0,-2.8747947771446025,0.0
4529988662.907,-13.413559605554465,0.0,-2.8947807533263314,0.0
4530003662.9065,-13.412332640251208,0.0,-2.8356761914498416,0.0
4530018662.906,-13.40824470530944,0.0,-2.8543587444987035,0.0
4530033662.9055,-13.418420014058544,0.0,-2.884195455068524,0.0
4530048662.905,-13.41838963390175,0.0,-2.9104489956244377,0.0
4530063662.9045,-13.407504053365688,0.0,-2.8890357701345604,0.0
4530078662.904,-13.418660601040797,0.0,-2.857369084924613,0.0
4530093662.9035,-13.423951500816242,0.0,-2.8256482729467907,0.0
4530108662.903,-13.419331406690134,0.0,-2.9127743352517634,0.0
4530123662.9025,-13.412416504193107,0.0,-2.8642912848560473,0.0
4530138662.902,-13.413333693720501,0.0,-2.9984807864810534,0.0
4530153662.9015,-13.417253436059209,0.0,-2.9066628992820323,0.0
4530168662.901,-13.42340516095062,0.0,-2.8901671314717476,0.0
4530183662.9005,-13.42388312903613,0.0,-2.931024156282935,0.0
4530198662.9,-13.417733468200288,0.0,-2.877152785214609,0.0
4530213662.8995,-13.417128120409142,0.0,-2.94311586013365,0.0
4530228662.899,-13.418198264028057,0.0,-2.898206833108562,0.0
4530243662.8985,-13.422347307492505,0.0,-2.9689908211220857,0.0
4530258662.898,-13.414781213368336,0.0,-2.8475313895556718,0.0
4530273662.8975,-13.419896747889057,0.0,-2.918442502720709,0.0
4530288662.897,-13.41846931039411,0.0,-2.9344897067405475,0.0
4530303662.8965,-13.416312108944732,0.0,-2.979199656697037,0.0
4530318662.896,-13.420733747037279,0.0,-2.9608101290694036,0.0
4530333662.8955,-13.426431671938094,0.0,-2.9506861653708265,0.0
4530348662.895,-13.4197151582134,0.0,-2.873908228294933,0.0
4530363662.8945,-13.42030445875923,0.0,-2.938157465644308,0.0
4530378662.894,-13.423370086787987,0.0,-2.9647212845354938,0.0
4530393662.8935,-13.423327580894885,0.0,-2.953597660236192,0.0
4530408662.893,-13.41462433074048,0.0,-2.9748156107920756,0.0
4530423662.8925,-13.414282748670134,0.0,-2.9725344461040875,0.0
4530438662.892,-13.418451026528352,0.0,-2.9673436318127715,0.0
4530453662.8915,-13.417104889277542,0.0,-2.944792391288751,0.0
4530468662.891,-13.418353053265308,0.0,-2.9666411269061648,0.0
4530483662.8905,-13.418904647425014,0.0,-2.988408800270373,0.0
4530498662.89,-13.420021052877104,0.0,-2.9528706722843308,0.0
4530513662.8895,-13.416178406169381,0.0,-2.922117943446786,0.0
4530528662.889,-13.419608105988416,0.0,-2.908945407619749,0.0
4530543662.8885,-13.414750020627563,0.0,-2.980067601530876,0.0
4530558662.888,-13.418878332364368,0.0,-2.9372333743287617,0.0
4530573662.8875,-13.420576658608766,0.0,-3.021825274623586,0.0
4530588662.887,-13.415169653007357,0.0,-2.984453645663442,0.0
4530603662.8865,-13.421482214053208,0.0,-2.9595504282656893,0.0
4530618662.886,-13.41424315876958,0.0,-2.9908445953578235,0.0
4530633662.8855,-13.427913979343169,0.0,-3.044471368765104,0.0
4530648662.885,-13.418137202702775,0.0,-3.011127924624484,0.0
4530663662.8845,-13.41473147071933,0.0,-2.984543166598099,0.0
4530678662.884,-13.421009094490191,0.0,-2.9457356535419943,0.0
4530693662.8835,-13.414652144842456,0.0,-3.013089402923184,0.0
4530708662.883,-13.4070556897682,0.0,-3.045688993766095,0.0
4530723662.8825,-13.411460622237838,0.0,-3.0072639343259406,0.0
4530738662.882,-13.419861411784236,0.0,-3.049317852431858,0.0
4530753662.8815,-13.424699082979457,0.0,-3.051722145640425,0.0
4530768662.881,-13.411025124648466,0.0,-3.0120049078630307,0.0
4530783662.8805,-13.42101006693174,0.0,-3.075390157394239,0.0
4530798662.88,-13.415433684281952,0.0,-3.0274469027414406,0.0
4530813662.8795,-13.417233277190423,0.0,-3.0771547061388165,0.0
4530828662.879,-13.412162330560422,0.0,-3.069916957973076,0.0
4530843662.8785,-13.417969086160348,0.0,-3.0097356718953083,0.0
4530858662.878,-13.41831577427226,0.0,-3.0100165041686546,0.0
4530873662.8775,-13.42278668244,0.0,-3.0635341209040594,0.0
4530888662.877,-13.413699121240118,0.0,-3.0345115118244594,0.0
4530903662.8765,-13.410604642910322,0.0,-3.079192812464418,0.0
4530918662.876,-13.418447621336437,0.0,-3.036825678103246,0.0
4530933662.8755,-13.41412581827128,0.0,-3.0884588828602695,0.0
4530948662.875,-13.42050222852597,0.0,-3.07726031272387,0.0
4530963662.8745,-13.414519009298772,0.0,-3.0491602376221145,0.0
4530978662.874,-13.415487970617153,0.0,-3.0880419229242886,0.0
4530993662.8735,-13.41718174865278,0.0,-3.055244220921939,0.0
4531008662.873,-13.421933844668317,0.0,-3.0262458141719812,0.0
4531023662.8725,-13.423034984849751,0.0,-3.083919153171399,0.0
4531038662.872,-13.416900718115556,0.0,-3.0937808682233556,0.0
4531053662.8715,-13.417791403866007,0.0,-3.1329833997403425,0.0
4531068662.871,-13.414102958803326,0.0,-3.1007411755124803,0.0
4531083662.8705,-13.410555055202028,0.0,-3.1049499377489402,0.0
4531098662.87,-13.420844461433038,0.0,-3.086976215235264,0.0
4531113662.8695,-13.423953503340018,0.0,-3.131190140204525,0.0
4531128662.869,-13.427381969813428,0.0,-3.092186683353654,0.0
4531143662.8685,-13.413590335729644,0.0,-3.131990444109781,0.0
4531158662.868,-13.425325267971287,0.0,-3.124708985469725,0.0
4531173662.8675,-13.428339618176924,0.0,-3.200944558307866,0.0
4531188662.867,-13.419585258599492,0.0,-3.155772620951353,0.0
4531203662.8665,-13.420030875764139,0.0,-3.1514520483380695,0.0
4531218662.866,-13.418668468045576,0.0,-3.1249158342406234,0.0
4531233662.8655,-13.427231795192816,0.0,-3.119802462763739,0.0
4531248662.865,-13.431846329415052,0.0,-3.095323700825369,0.0
4531263662.8645,-13.420310070671464,0.0,-3.099137792811519,0.0
4531278662.864,-13.42513842398983,0.0,-3.1187048867094704,0.0
4531293662.8635,-13.41803235404063,0.0,-3.1497651255140875,0.0
4531308662.863,-13.422945115290645,0.0,-3.2068034103061995,0.0
4531323662.8625,-13.422149337895455,0.0,-3.1830154138679894,0.0
4531338662.862,-13.42614500175422,0.0,-3.147635716881473,0.0
4531353662.8615,-13.41471068964821,0.0,-3.167487846930671,0.0
4531368662.861,-13.427006361715929,0.0,-3.1140532275201322,0.0
4531383662.8605,-13.419561180461713,0.0,-3.151818698107407,0.0
4531398662.86,-13.419618384228064,0.0,-3.2108711571569604,0.0
4531413662.8595,-13.425776557455729,0.0,-3.1113328019873943,0.0
4531428662.859,-13.423029856509858,0.0,-3.1894972656243152,0.0
4531443662.8585,-13.425240102287471,0.0,-3.263917258443087,0.0
4531458662.858,-13.426315765899904,0.0,-3.2074252517867747,0.0
4531473662.8575,-13.425195534887573,0.0,-3.1890519497717005,0.0
4531488662.857,-13.409293488660028,0.0,-3.1787258133012526,0.0
4531503662.8565,-13.420161933692764,0.0,-3.166118669271345,0.0
4531518662.856,-13.423053569922324,0.0,-3.1723019926196954,0.0
4531533662.8555,-13.419611551621387,0.0,-3.1797841031357725,0.0
4531548662.855,-13.419982486575607,0.0,-3.14332040193493,0.0
4531563662.8545,-13.424910127236522,0.0,-3.2604381710990915,0.0
4531578662.854,-13.418714524970046,0.0,-3.2254370501739444,0.0
4531593662.8535,-13.425317466988083,0.0,-3.2195870167493372,0.0
4531608662.853,-13.423960277499544,0.0,-3.278333997034065,0.0
4531623662.8525,-13.421102427790188,0.0,-3.2104176592427027,0.0
4531638662.852,-13.429686337297813,0.0,-3.2640448759745215,0.0
4531653662.8515,-13.42166408630995,0.0,-3.2245603171919437,0.0
4531668662.851,-13.42711050952011,0.0,-3.280324006493232,0.0
4531683662.8505,-13.426936720995293,0.0,-3.242602962275097,0.0
4531698662.85,-13.423145035128318,0.0,-3.219378926275431,0.0
4531713662.8495,-13.423710665475948,0.0,-3.2749598125099784,0.0
4531728662.849,-13.414279284713162,0.0,-3.2779179959111033,0.0
4531743662.8485,-13.424514450999162,0.0,-3.266136483002772,0.0
4531758662.848,-13.430505855428535,0.0,-3.2267393060685285,0.0
4531773662.8475,-13.427782185136362,0.0,-3.219901842093103,0.0
4531788662.847,-13.423482095316718,0.0,-3.233979991882879,0.0
4531803662.8465,-13.42402972908372,0.0,-3.2420569044314047,0.0
4531818662.846,-13.423867699250758,0.0,-3.322740643696937,0.0
4531833662.8455,-13.4250357667874,0.0,-3.266185587320785,0.0
4531848662.845,-13.43052347359379,0.0,-3.2889112408083134,0.0
4531863662.8445,-13.41910090470941,0.0,-3.265495416343409,0.0
