Frequency,S11,S11-Q,S11-Phase,S11-Phase-Q
4527198663.0,-13.423501839975332,0.0,-2.5305927968360327,0.0
4527213662.9995,-13.434742993127928,0.0,-2.5669904439022866,0.0
4527228662.999,-13.42155358191391,0.0,-2.5421787048093356,0.0
4527243662.9985,-13.427776156332975,0.0,-2.590060938244987,0.0
4527258662.998,-13.425827187551093,0.0,-2.58892654563181,0.0
4527273662.9975,-13.42208667004843,0.0,-2.557719031975622,0.0
4527288662.997,-13.424222108027513,0.0,-2.5986705123669984,0.0
4527303662.9965,-13.43246189131565,0.0,-2.5937984922537742,0.0
4527318662.996,-13.429820668749235,0.0,-2.6196387827366365,0.0
4527333662.9955,-13.422370972046647,0.0,-2.5937281490175335,0.0
4527348662.995,-13.434365587627859,0.0,-2.615118098600878,0.0
4527363662.9945,-13.42199995119691,0.0,-2.582861619024379,0.0
4527378662.994,-13.43076288868106,0.0,-2.559914200278013,0.0
4527393662.9935,-13.425768316763978,0.0,-2.6338693112926173,0.0
4527408662.993,-13.42044114504824,0.0,-2.5470909007100557,0.0
4527423662.9925,-13.424134731567257,0.0,-2.5996231999139816,0.0
4527438662.992,-13.42025887741142,0.0,-2.587864321435279,0.0
4527453662.9915,-13.429711707702335,0.0,-2.6585680680382713,0.0
4527468662.991,-13.423014997076672,0.0,-2.596435888749027,0.0
4527483662.9905,-13.421117623486383,0.0,-2.612923535680751,0.0
4527498662.99,-13.427596685675898,0.0,-2.6550296557116186,0.0
4527513662.9895,-13.435032195878405,0.0,-2.6162421601507146,0.0
4527528662.989,-13.421217131524827,0.0,-2.598044696834599,0.0
4527543662.9885,-13.422326926051513,0.0,-2.5967518772696687,0.0
4527558662.988,-13.417023982422887,0.0,-2.634700638416027,0.0
4527573662.9875,-13.437906090359686,0.0,-2.570620141121122,0.0
4527588662.987,-13.424986464922291,0.0,-2.6328035671986116,0.0
4527603662.9865,-13.429244729742111,0.0,-2.611997447219656,0.0
4527618662.986,-13.427338699220348,0.0,-2.6570997406010677,0.0
4527633662.9855,-13.43222573779126,0.0,-2.6603842994957367,0.0
4527648662.985,-13.426732254074306,0.0,-2.63097429650878,0.0
4527663662.9845,-13.422278980495255,0.0,-2.660672732490831,0.0
4527678662.984,-13.429118912795746,0.0,-2.635604955464918,0.0
4527693662.9835,-13.428492222137054,0.0,-2.6824588922911614,0.0
4527708662.983,-13.42083468163649,0.0,-2.652242585167287,0.0
4527723662.9825,-13.417983478108866,0.0,-2.6872363901022176,0.0
4527738662.982,-13.435666375503947,0.0,-2.544427858467826,0.0
4527753662.9815,-13.427376587367979,0.0,-2.685217174195387,0.0
4527768662.981,-13.423060281620572,0.0,-2.6781963347000888,0.0
4527783662.9805,-13.421868238330056,0.0,-2.6434326634470056,0.0
4527798662.98,-13.424619650438865,0.0,-2.667970788085234,0.0
4527813662.9795,-13.415428668020342,0.0,-2.6546336693386046,0.0
4527828662.979,-13.426879672632484,0.0,-2.697462494164055,0.0
4527843662.9785,-13.429437386912806,0.0,-2.709840710471357,0.0
4527858662.978,-13.426999988521635,0.0,-2.645628363134158,0.0
4527873662.9775,-13.442269278211931,0.0,-2.683521701284288,0.0
4527888662.977,-13.424152452619037,0.0,-2.689981940488446,0.0
4527903662.9765,-13.424994729920607,0.0,-2.694765920221217,0.0
4527918662.976,-13.434629452884863,0.0,-2.7309054092146674,0.0
4527933662.9755,-13.42598912564154,0.0,-2.722833670234763,0.0
4527948662.975,-13.424244417960802,0.0,-2.715291287392396,0.0
4527963662.9745,-13.430222626221617,0.0,-2.708384162308981,0.0
4527978662.974,-13.427584073140142,0.0,-2.730215777878871,0.0
4527993662.9735,-13.42581278112458,0.0,-2.7202389658464003,0.0
4528008662.973,-13.433453047436956,0.0,-2.6312670667713767,0.0
4528023662.9725,-13.425238714627923,0.0,-2.741200133813735,0.0
4528038662.972,-13.429221933105751,0.0,-2.70854836026629,0.0
4528053662.9715,-13.426507208599554,0.0,-2.7612807201639047,0.0
4528068662.971,-13.42802230061189,0.0,-2.7102472628931458,0.0
4528083662.9705,-13.424638390431586,0.0,-2.709656280040131,0.0
4528098662.97,-13.434298075781893,0.0,-2.736093756455221,0.0
4528113662.9695,-13.422619586154475,0.0,-2.717816755156455,0.0
4528128662.969,-13.437136109569142,0.0,-2.759753458316903,0.0
4528143662.9685,-13.438892370329736,0.0,-2.7384103189719458,0.0
4528158662.968,-13.4281414382959,0.0,-2.7322947086253273,0.0
4528173662.9675,-13.43437927538496,0.0,-2.7221482144298395,0.0
4528188662.967,-13.433774219379524,0.0,-2.709909628175232,0.0
4528203662.9665,-13.42530605589252,0.0,-2.711572334752813,0.0
4528218662.966,-13.429938758882894,0.0,-2.766738379905348,0.0
4528233662.9655,-13.425011368500323,0.0,-2.7878233393857372,0.0
4528248662.965,-13.422971404150914,0.0,-2.754349947356281,0.0
4528263662.9645,-13.423684737066635,0.0,-2.698960926526784,0.0
4528278662.964,-13.429892898242207,0.0,-2.729968453051475,0.0
4528293662.9635,-13.426325216209307,0.0,-2.7975642609416194,0.0
4528308662.963,-13.43044074127911,0.0,-2.8046770094280804,0.0
4528323662.9625,-13.431048015977815,0.0,-2.791917905191872,0.0
4528338662.962,-13.436750786499198,0.0,-2.7522146729297803,0.0
4528353662.9615,-13.432332306442811,0.0,-2.7654318921866365,0.0
4528368662.961,-13.428091545304426,0.0,-2.794511382099894,0.0
4528383662.9605,-13.419386449134283,0.0,-2.8068345436738005,0.0
4528398662.96,-13.418162732782957,0.0,-2.8057732981904757,0.0
4528413662.9595,-13.432312291339256,0.0,-2.8473031173447536,0.0
4528428662.959,-13.430650896602643,0.0,-2.831209025604691,0.0
4528443662.9585,-13.43539553276752,0.0,-2.7517046877510842,0.0
4528458662.958,-13.432452893886301,0.0,-2.825958455270839,0.0
4528473662.9575,-13.431477558445357,0.0,-2.8087813323451862,0.0
4528488662.957,-13.426021829970452,0.0,-2.823040176955061,0.0
4528503662.9565,-13.42603392950114,0.0,-2.780843506238465,0.0
4528518662.956,-13.432830854716528,0.0,-2.804055775730081,0.0
4528533662.9555,-13.423109560342002,0.0,-2.8305632004468095,0.0
4528548662.955,-13.43093748054806,0.0,-2.826954551715205,0.0
4528563662.9545,-13.430009314585568,0.0,-2.8156982667560153,0.0
4528578662.954,-13.425034590249831,0.0,-2.810317176469512,0.0
4528593662.9535,-13.420171793624514,0.0,-2.8081182441458066,0.0
4528608662.953,-13.425763050875245,0.0,-2.846420767837937,0.0
4528623662.9525,-13.43897953168971,0.0,-2.8081954907022433,0.0
4528638662.952,-13.426452904721419,0.0,-2.823494812271448,0.0
4528653662.9515,-13.429452677661287,0.0,-2.7783161601638824,0.0
4528668662.951,-13.42339320889039,0.0,-2.835765950950504,0.0
4528683662.9505,-13.426581641856412,0.0,-2.8321313148215053,0.0
4528698662.95,-13.434184750331433,0.0,-2.9066873501738404,0.0
4528713662.9495,-13.429669955063293,0.0,-2.811839765787688,0.0
4528728662.949,-13.42494378067869,0.0,-2.8692392975232806,0.0
4528743662.9485,-13.428409763090754,0.0,-2.847504390453724,0.0
4528758662.948,-13.429074606227477,0.0,-2.8888398465477656,0.0
4528773662.9475,-13.42599767787094,0.0,-2.8113189824250333,0.0
4528788662.947,-13.433993180348496,0.0,-2.8822548471913136,0.0
4528803662.9465,-13.430264060641244,0.0,-2.9096835876373155,0.0
4528818662.946,-13.433155630968672,0.0,-2.8939490272352923,0.0
4528833662.9455,-13.43454545367733,0.0,-2.8521728148157575,0.0
4528848662.945,-13.42664326016893,0.0,-2.90520878752889,0.0
4528863662.9445,-13.420568465130675,0.0,-2.8892036368610445,0.0
4528878662.944,-13.430798349244153,0.0,-2.8768545307355606,0.0
4528893662.9435,-13.439567613958118,0.0,-2.895941721225618,0.0
4528908662.943,-13.42970902962336,0.0,-2.841494357346018,0.0
4528923662.9425,-13.427054534749248,0.0,-2.8848795387523802,0.0
4528938662.942,-13.430427435181668,0.0,-2.883016720107793,0.0
4528953662.9415,-13.431219383472435,0.0,-2.8660396016726706,0.0
4528968662.941,-13.431063170525546,0.0,-2.844576697380465,0.0
4528983662.9405,-13.430549586752523,0.0,-2.8732978875729467,0.0
4528998662.94,-13.443492828892394,0.0,-2.9102066317763025,0.0
4529013662.9395,-13.433414232386955,0.0,-2.8453934081676646,0.0
4529028662.939,-13.431308597132304,0.0,-2.907183868452609,0.0
4529043662.9385,-13.430634349750736,0.0,-2.9543171959272074,0.0
4529058662.938,-13.434017350913525,0.0,-2.947960298559702,0.0
4529073662.9375,-13.43161411282271,0.0,-2.9331659038049884,0.0
4529088662.937,-13.42870885205486,0.0,-2.8995132622256095,0.0
4529103662.9365,-13.437548772156585,0.0,-2.9423799033716795,0.0
4529118662.936,-13.425942134287958,0.0,-2.86902446138239,0.0
4529133662.9355,-13.434939580940226,0.0,-2.918852465859955,0.0
4529148662.935,-13.424372396573649,0.0,-2.9271899128119254,0.0
4529163662.9345,-13.433485143914048,0.0,-2.9302714885540957,0.0
4529178662.934,-13.431007089838294,0.0,-2.990655812181166,0.0
4529193662.9335,-13.42505636904827,0.0,-2.94573257698993,0.0
4529208662.933,-13.435388513662286,0.0,-2.9449287610023163,0.0
4529223662.9325,-13.437137840578464,0.0,-2.928463607975866,0.0
4529238662.932,-13.421891953312075,0.0,-2.9452753465595953,0.0
4529253662.9315,-13.438232482378043,0.0,-3.013625810732573,0.0
4529268662.931,-13.429424028457749,0.0,-2.9761447332528355,0.0
4529283662.9305,-13.428899235873162,0.0,-2.9187472428376964,0.0
4529298662.93,-13.42740077256521,0.0,-2.898815330045605,0.0
4529313662.9295,-13.43235051988955,0.0,-2.967812082381967,0.0
4529328662.929,-13.436226925827112,0.0,-2.99165468438637,0.0
4529343662.9285,-13.423063320475329,0.0,-2.9287497215878213,0.0
4529358662.928,-13.438373480740552,0.0,-2.9397453140161836,0.0
4529373662.9275,-13.435862243763964,0.0,-2.9608060266810328,0.0
4529388662.927,-13.43215149227083,0.0,-2.9701933944455634,0.0
4529403662.9265,-13.425454645726575,0.0,-2.958088916586828,0.0
4529418662.926,-13.435060429994314,0.0,-2.9765381064255636,0.0
4529433662.9255,-13.43296474552687,0.0,-2.9531171813028414,0.0
4529448662.925,-13.442323076757738,0.0,-2.976357137504708,0.0
4529463662.9245,-13.43454842689013,0.0,-3.001263199497783,0.0
4529478662.924,-13.438407208553409,0.0,-2.9830429216533965,0.0
4529493662.9235,-13.436387677185941,0.0,-3.031744303905382,0.0
4529508662.923,-13.436971184282617,0.0,-3.0516169553355748,0.0
4529523662.9225,-13.424617035784422,0.0,-3.0282199488992516,0.0
4529538662.922,-13.439419375916845,0.0,-2.9135213663606923,0.0
4529553662.9215,-13.436735043601653,0.0,-2.9599693908688933,0.0
4529568662.921,-13.435481338546829,0.0,-3.078798297183678,0.0
4529583662.9205,-13.438275394224618,0.0,-3.0315518479592973,0.0
4529598662.92,-13.434553789759011,0.0,-2.9892359080936943,0.0
4529613662.9195,-13.42883710460754,0.0,-3.0029754078370856,0.0
4529628662.919,-13.433606717399304,0.0,-3.0243813313736965,0.0
4529643662.9185,-13.438365369319083,0.0,-3.0828917316414652,0.0
4529658662.918,-13.426472696164165,0.0,-3.072400049511533,0.0
4529673662.9175,-13.432809964583136,0.0,-3.0184982564079963,0.0
4529688662.917,-13.430280410560563,0.0,-3.0548618106067007,0.0
4529703662.9165,-13.436754868467034,0.0,-3.0499633349602115,0.0
4529718662.916,-13.429058905593367,0.0,-3.08582309573372,0.0
4529733662.9155,-13.428088671540088,0.0,-3.0731035410296164,0.0
4529748662.915,-13.433653385949821,0.0,-3.047297164119049,0.0
4529763662.9145,-13.434173861840994,0.0,-3.1252346763946837,0.0
4529778662.914,-13.419461858873927,0.0,-3.033249228349878,0.0
4529793662.9135,-13.432935152457354,0.0,-3.065783681733037,0.0
4529808662.913,-13.421368706919823,0.0,-3.0523284616873037,0.0
4529823662.9125,-13.432114712213705,0.0,-3.007921428700427,0.0
4529838662.912,-13.432594261893874,0.0,-2.9932600600854116,0.0
4529853662.9115,-13.433708695949143,0.0,-3.0751754699486615,0.0
4529868662.911,-13.423234034216765,0.0,-3.0493651134384714,0.0
4529883662.9105,-13.453860517385506,0.0,-3.0785974566946592,0.0
4529898662.91,-13.441058937070682,0.0,-3.106201683599291,0.0
4529913662.9095,-13.43430836804982,0.0,-3.061987144085516,0.0
4529928662.909,-13.43287133022618,0.0,-3.036414318482196,0.0
4529943662.9085,-13.431080556756395,0.0,-3.0159510651974726,0.0
4529958662.908,-13.431335304453409,0.0,-3.077307661898012,0.0
4529973662.9075,-13.435838373502653,0.0,-3.057935755777268,0.0
4529988662.907,-13.436198695051182,0.0,-3.1898702341151024,0.0
4530003662.9065,-13.423259404378046,0.0,-3.057735860059479,0.0
4530018662.906,-13.438128082439036,0.0,-3.102678805760938,0.0
4530033662.9055,-13.428061106481195,0.0,-3.136673358608785,0.0
4530048662.905,-13.426885184638627,0.0,-3.040550702012095,0.0
4530063662.9045,-13.445683066730293,0.0,-3.150649391074919,0.0
4530078662.904,-13.439847895075749,0.0,-3.133311572277323,0.0
4530093662.9035,-13.433188339799926,0.0,-3.0634921042092738,0.0
4530108662.903,-13.433417083001785,0.0,-3.0933670833130495,0.0
4530123662.9025,-13.436287148932278,0.0,-3.103168892415745,0.0
4530138662.902,-13.438556108216336,0.0,-3.141475385205889,0.0
4530153662.9015,-13.428398550607659,0.0,-3.169430081948409,0.0
4530168662.901,-13.433624312892851,0.0,-3.121717329285669,0.0
4530183662.9005,-13.44130582300669,0.0,-3.121434053565511,0.0
4530198662.9,-13.430767478745565,0.0,-3.1791360659852783,0.0
4530213662.8995,-13.443988453490697,0.0,-3.103952277369181,0.0
4530228662.899,-13.425416294460415,0.0,-3.130789770250368,0.0
4530243662.8985,-13.436364678882086,0.0,-3.211899065670914,0.0
4530258662.898,-13.443266805570829,0.0,-3.163252220848118,0.0
4530273662.8975,-13.432791504994581,0.0,-3.1431812515009643,0.0
4530288662.897,-13.428815304785118,0.0,-3.167269589505473,0.0
4530303662.8965,-13.42866965697242,0.0,-3.1329944067441273,0.0
4530318662.896,-13.431855792770396,0.0,-3.17486762423666,0.0
4530333662.8955,-13.42972361939955,0.0,-3.173058469200873,0.0
4530348662.895,-13.423199299867377,0.0,-3.174477777409029,0.0
4530363662.8945,-13.442936781017051,0.0,-3.16393277175641,0.0
4530378662.894,-13.433741507260685,0.0,-3.2495178734308254,0.0
4530393662.8935,-13.439509507277322,0.0,-3.235826602649075,0.0
4530408662.893,-13.441211669042408,0.0,-3.203734395748397,0.0
4530423662.8925,-13.437792839742087,0.0,-3.1392891273702586,0.0
4530438662.892,-13.43158275350718,0.0,-3.1147014848658694,0.0
4530453662.8915,-13.438210833362616,0.0,-3.1681670263449764,0.0
4530468662.891,-13.435572794877842,0.0,-3.1955204417969587,0.0
4530483662.8905,-13.431466175770536,0.0,-3.2390786606640076,0.0
4530498662.89,-13.433121895475592,0.0,-3.1774401750064407,0.0
4530513662.8895,-13.427627725224717,0.0,-3.239742009203022,0.0
4530528662.889,-13.433242909188683,0.0,-3.2021298025721907,0.0
4530543662.8885,-13.445488743662885,0.0,-3.2234963762057918,0.0
4530558662.888,-13.432540667786387,0.0,-3.2379121455898177,0.0
4530573662.8875,-13.436243737639948,0.0,-3.228791035747497,0.0
4530588662.887,-13.4369522053891,0.0,-3.2279462733024786,0.0
4530603662.8865,-13.42936159562062,0.0,-3.249975030751622,0.0
4530618662.886,-13.431381284946122,0.0,-3.2509839354378545,0.0
4530633662.8855,-13.428996522651758,0.0,-3.256689635891334,0.0
4530648662.885,-13.440868591234645,0.0,-3.2000098791970055,0.0
4530663662.8845,-13.449464392003016,0.0,-3.245580814350254,0.0
4530678662.884,-13.434343648210502,0.0,-3.289108949916867,0.0
4530693662.8835,-13.437947349085178,0.0,-3.2004792490307095,0.0
4530708662.883,-13.436815110199197,0.0,-3.2620042561672244,0.0
4530723662.8825,-13.44762774344104,0.0,-3.2703176314787474,0.0
4530738662.882,-13.441206680021375,0.0,-3.213057703832338,0.0
4530753662.8815,-13.438435537468242,0.0,-3.2599109144990934,0.0
4530768662.881,-13.437992815731697,0.0,-3.2872229359152008,0.0
4530783662.8805,-13.441150881231977,0.0,-3.259911841818233,0.0
4530798662.88,-13.429428231209792,0.0,-3.2742019819098,0.0
4530813662.8795,-13.437086194403724,0.0,-3.261292259942595,0.0
4530828662.879,-13.433975931500978,0.0,-3.252695971871579,0.0
4530843662.8785,-13.440785442868258,0.0,-3.265127386028162,0.0
4530858662.878,-13.424445203108885,0.0,-3.27772599600153,0.0
4530873662.8775,-13.442348747788078,0.0,-3.2943962013189516,0.0
4530888662.877,-13.442003683313843,0.0,-3.3379332643752178,0.0
4530903662.8765,-13.445321420949918,0.0,-3.3371683618010977,0.0
4530918662.876,-13.44286300592361,0.0,-3.3285019414043195,0.0
4530933662.8755,-13.438101689027555,0.0,-3.3537108642199738,0.0
4530948662.875,-13.435978709543623,0.0,-3.3004164795325046,0.0
4530963662.8745,-13.43159862417252,0.0,-3.3288564430177976,0.0
4530978662.874,-13.434159538385316,0.0,-3.352727529643488,0.0
4530993662.8735,-13.449067118975188,0.0,-3.3246996329709373,0.0
4531008662.873,-13.443549260279323,0.0,-3.3236737935088687,0.0
4531023662.8725,-13.442074098523609,0.0,-3.3321107545708464,0.0
4531038662.872,-13.446001763692356,0.0,-3.321587650518436,0.0
4531053662.8715,-13.440341208355091,0.0,-3.360490582010625,0.0
4531068662.871,-13.435505721381782,0.0,-3.3456189602209663,0.0
4531083662.8705,-13.438799373441206,0.0,-3.3422885288001285,0.0
4531098662.87,-13.445073903047263,0.0,-3.3508208386338914,0.0
4531113662.8695,-13.441630183510204,0.0,-3.372960788464906,0.0
4531128662.869,-13.437852325762574,0.0,-3.331231747981523,0.0
4531143662.8685,-13.441910716011998,0.0,-3.3538952959184516,0.0
4531158662.868,-13.442604056717187,0.0,-3.3666894285194218,0.0
4531173662.8675,-13.441817857692719,0.0,-3.4001434205927024,0.0
4531188662.867,-13.42936925365403,0.0,-3.3575361219525033,0.0
4531203662.8665,-13.435924363489278,0.0,-3.408879664829958,0.0
4531218662.866,-13.431259605886126,0.0,-3.42861254521305,0.0
4531233662.8655,-13.43538949101755,0.0,-3.387810736376789,0.0
4531248662.865,-13.43438213507143,0.0,-3.3935859949489426,0.0
4531263662.8645,-13.43584038157983,0.0,-3.4054691207184002,0.0
4531278662.864,-13.440420987234036,0.0,-3.423113869335544,0.0
4531293662.8635,-13.44797140605116,0.0,-3.4622401445049924,0.0
4531308662.863,-13.44010212106933,0.0,-3.4018030103908634,0.0
4531323662.8625,-13.440964888261075,0.0,-3.4682777970147853,0.0
4531338662.862,-13.436007020694108,0.0,-3.3851621036506567,0.0
4531353662.8615,-13.443892178144898,0.0,-3.4313737755238245,0.0
4531368662.861,-13.442439017655733,0.0,-3.3214236306151883,0.0
4531383662.8605,-13.440390245019751,0.0,-3.491682644681321,0.0
4531398662.86,-13.437774195555793,0.0,-3.422817227161691,0.0
4531413662.8595,-13.4467875800214,0.0,-3.4786216037006787,0.0
4531428662.859,-13.438310688421236,0.0,-3.4712884256620242,0.0
4531443662.8585,-13.441154873668646,0.0,-3.50067771948528,0.0
4531458662.858,-13.438208685269261,0.0,-3.4045355259115255,0.0
4531473662.8575,-13.442646261753513,0.0,-3.4438059463184425,0.0
4531488662.857,-13.447469327863535,0.0,-3.4490351067150824,0.0
4531503662.8565,-13.45249331152872,0.0,-3.488258597110106,0.0
4531518662.856,-13.453328660396899,0.0,-3.4672738922376216,0.0
4531533662.8555,-13.451190305901333,0.0,-3.448728443392484,0.0
4531548662.855,-13.439841530697116,0.0,-3.5191504005942416,0.0
4531563662.8545,-13.43368229235185,0.0,-3.472718821874353,0.0
4531578662.854,-13.438857507199305,0.0,-3.504833559794665,0.0
4531593662.8535,-13.440357613325475,0.0,-3.4828001934290236,0.0
4531608662.853,-13.433757563612723,0.0,-3.4831262679088684,0.0
4531623662.8525,-13.43890201988454,0.0,-3.5884001922090114,0.0
4531638662.852,-13.444308830536784,0.0,-3.4842479682064793,0.0
4531653662.8515,-13.440220912960621,0.0,-3.4948903220310785,0.0
4531668662.851,-13.436522951547685,0.0,-3.5084481328587676,0.0
4531683662.8505,-13.437084607987053,0.0,-3.539591156805483,0.0
4531698662.85,-13.436685949015562,0.0,-3.546196565640204,0.0
4531713662.8495,-13.445049631702728,0.0,-3.60368405250633,0.0
4531728662.849,-13.434766672165049,0.0,-3.5468230125923736,0.0
4531743662.8485,-13.450527630386382,0.0,-3.5120315060115037,0.0
4531758662.848,-13.440760551432057,0.0,-3.5749484381105345,0.0
4531773662.8475,-13.4455491227851,0.0,-3.555687132077509,0.0
4531788662.847,-13.442012849946215,0.0,-3.586882685981133,0.0
4531803662.8465,-13.443243696699627,0.0,-3.569116363296624,0.0
4531818662.846,-13.450552894903911,0.0,-3.5810176913278924,0.0
4531833662.8455,-13.447343606274003,0.0,-3.578166005981171,0.0
4531848662.845,-13.445270923569122,0.0,-3.591544786656082,0.0
4531863662.8445,-13.432843445960096,0.0,-3.5905187915489254,0.0
4531878662.844,-13.440652841643983,0.0,-3.6105415362791455,0.0
