Frequency,S11,S11-Q,S11-Phase,S11-Phase-Q
4527198663.0,-13.432285719295615,0.0,-2.558249197241479,0.0
4527213662.9995,-13.422386267430875,0.0,-2.5235709620363598,0.0
4527228662.999,-13.4288849640825,0.0,-2.526952159183785,0.0
4527243662.9985,-13.433015258613603,0.0,-2.473831691323034,0.0
4527258662.998,-13.432104440741885,0.0,-2.505673311086552,0.0
4527273662.9975,-13.424473546500186,0.0,-2.5059501073083488,0.0
4527288662.997,-13.431188256852423,0.0,-2.5725015513590117,0.0
4527303662.9965,-13.430410733747163,0.0,-2.520506614948592,0.0
4527318662.996,-13.42639212552675,0.0,-2.517338941777428,0.0
4527333662.9955,-13.426644258628395,0.0,-2.495930454340589,0.0
4527348662.995,-13.426588813280635,0.0,-2.564621215487666,0.0
4527363662.9945,-13.417450118508755,0.0,-2.5182431917557233,0.0
4527378662.994,-13.434222604834263,0.0,-2.4535215833421846,0.0
4527393662.9935,-13.429172418893758,0.0,-2.4982902545951036,0.0
4527408662.993,-13.430591123435773,0.0,-2.4979498167861944,0.0
4527423662.9925,-13.432299922586452,0.0,-2.4994174096319037,0.0
4527438662.992,-13.428647932943816,0.0,-2.5598534818777834,0.0
4527453662.9915,-13.427819546477682,0.0,-2.511439080834358,0.0
4527468662.991,-13.433146071548618,0.0,-2.56425574378881,0.0
4527483662.9905,-13.42488020356729,0.0,-2.5876638325102173,0.0
4527498662.99,-13.432899737757038,0.0,-2.5411246978278577,0.0
4527513662.9895,-13.432642458117424,0.0,-2.5780987024725266,0.0
4527528662.989,-13.428403055418096,0.0,-2.5705245198400455,0.0
4527543662.9885,-13.429802447319696,0.0,-2.580268577431351,0.0
4527558662.988,-13.42910605495915,0.0,-2.622095608542045,0.0
4527573662.9875,-13.418951239837938,0.0,-2.581619672992964,0.0
4527588662.987,-13.419440732509448,0.0,-2.579679651233675,0.0
4527603662.9865,-13.426804581225104,0.0,-2.5910519077446565,0.0
4527618662.986,-13.42981212492434,0.0,-2.594022609865969,0.0
4527633662.9855,-13.430727748873391,0.0,-2.5746466719284293,0.0
4527648662.985,-13.435379447978546,0.0,-2.585046446867255,0.0
4527663662.9845,-13.432254508620833,0.0,-2.6164670943062696,0.0
4527678662.984,-13.430507300394234,0.0,-2.640003840668226,0.0
4527693662.9835,-13.427842156596238,0.0,-2.586316666184009,0.0
4527708662.983,-13.42115293001076,0.0,-2.624428548245693,0.0
4527723662.9825,-13.422027176057643,0.0,-2.5811987348171064,0.0
4527738662.982,-13.428464024722542,0.0,-2.61730498100953,0.0
4527753662.9815,-13.425198335057773,0.0,-2.6160689622566577,0.0
4527768662.981,-13.43847658122699,0.0,-2.6052540173105156,0.0
4527783662.9805,-13.432273799637723,0.0,-2.520761656985016,0.0
4527798662.98,-13.432804198877328,0.0,-2.636600822481415,0.0
4527813662.9795,-13.425826270497325,0.0,-2.594977120666291,0.0
4527828662.979,-13.42384676803266,0.0,-2.5801046113582746,0.0
4527843662.9785,-13.428130202603866,0.0,-2.617956028630771,0.0
4527858662.978,-13.431839879040666,0.0,-2.660968512417207,0.0
4527873662.9775,-13.420620935319032,0.0,-2.7003824790770996,0.0
4527888662.977,-13.432236245086289,0.0,-2.6001010271401737,0.0
4527903662.9765,-13.427448910732325,0.0,-2.6641208613491894,0.0
4527918662.976,-13.42738973110852,0.0,-2.618660905063365,0.0
4527933662.9755,-13.431069708434983,0.0,-2.6624113042932636,0.0
4527948662.975,-13.42329623235588,0.0,-2.6192053188854025,0.0
4527963662.9745,-13.428543069982714,0.0,-2.622101702111969,0.0
4527978662.974,-13.430221310402843,0.0,-2.6682292723513394,0.0
4527993662.9735,-13.43648295196613,0.0,-2.59710492054344,0.0
4528008662.973,-13.428679033800881,0.0,-2.616825115641948,0.0
4528023662.9725,-13.427600433243336,0.0,-2.6301741031913513,0.0
4528038662.972,-13.43465068205736,0.0,-2.692306100121893,0.0
4528053662.9715,-13.436134389645332,0.0,-2.6300099779936548,0.0
4528068662.971,-13.433516389865359,0.0,-2.6790822856243683,0.0
4528083662.9705,-13.426700244030926,0.0,-2.693008655197527,0.0
4528098662.97,-13.431748427484756,0.0,-2.6194102941972246,0.0
4528113662.9695,-13.430179561139528,0.0,-2.62827102306282,0.0
4528128662.969,-13.436860464877851,0.0,-2.628593052806055,0.0
4528143662.9685,-13.434752873939715,0.0,-2.6303230057934317,0.0
4528158662.968,-13.432216753802244,0.0,-2.6534908758891684,0.0
4528173662.9675,-13.428504627796805,0.0,-2.662589280124141,0.0
4528188662.967,-13.423315222844082,0.0,-2.682690944103556,0.0
4528203662.9665,-13.424037517291934,0.0,-2.675866876144532,0.0
4528218662.966,-13.425695505105645,0.0,-2.7278186368070605,0.0
4528233662.9655,-13.427900170389435,0.0,-2.6530984070386117,0.0
4528248662.965,-13.438634891266519,0.0,-2.66569560454094,0.0
4528263662.9645,-13.433063837590154,0.0,-2.63415751307405,0.0
4528278662.964,-13.433171732777005,0.0,-2.6452222702020314,0.0
4528293662.9635,-13.429907281866287,0.0,-2.6647293226732764,0.0
4528308662.963,-13.432764816123889,0.0,-2.6789888364837204,0.0
4528323662.9625,-13.42846510249763,0.0,-2.725009937272187,0.0
4528338662.962,-13.435780943703588,0.0,-2.7131609944265884,0.0
4528353662.9615,-13.426446983171447,0.0,-2.737953860989215,0.0
4528368662.961,-13.431726945256173,0.0,-2.674853787075739,0.0
4528383662.9605,-13.418949262726231,0.0,-2.724068000241642,0.0
4528398662.96,-13.433246187331155,0.0,-2.672316990079188,0.0
4528413662.9595,-13.423223067297306,0.0,-2.69594238166125,0.0
4528428662.959,-13.436188020268654,0.0,-2.6890590764563345,0.0
4528443662.9585,-13.428707445693739,0.0,-2.7362515979256945,0.0
4528458662.958,-13.427219610955085,0.0,-2.705782571803976,0.0
4528473662.9575,-13.424672801984759,0.0,-2.6775491516618257,0.0
4528488662.957,-13.424913198230978,0.0,-2.7266444353807127,0.0
4528503662.9565,-13.422160398165115,0.0,-2.810618805425368,0.0
4528518662.956,-13.434635476810717,0.0,-2.6668076681539463,0.0
4528533662.9555,-13.429226274272075,0.0,-2.6879776458189624,0.0
4528548662.955,-13.435263898310454,0.0,-2.807721048426866,0.0
4528563662.9545,-13.432901185203319,0.0,-2.7056526301734825,0.0
4528578662.954,-13.430848118096396,0.0,-2.7297648201840627,0.0
4528593662.9535,-13.428229377860056,0.0,-2.6902638162603667,0.0
4528608662.953,-13.4265737886294,0.0,-2.8097410808821563,0.0
4528623662.9525,-13.428775275397562,0.0,-2.7786641446284617,0.0
4528638662.952,-13.433610160481813,0.0,-2.7187670850054504,0.0
4528653662.9515,-13.428222533930814,0.0,-2.6899249753863432,0.0
4528668662.951,-13.435878747952666,0.0,-2.7348975884035585,0.0
4528683662.9505,-13.437613077411644,0.0,-2.7845507407135375,0.0
4528698662.95,-13.43383836785594,0.0,-2.764003530743561,0.0
4528713662.9495,-13.428888873466722,0.0,-2.7336439510079926,0.0
4528728662.949,-13.433778768832251,0.0,-2.7626705696445817,0.0
4528743662.9485,-13.437063360042634,0.0,-2.850481059483598,0.0
4528758662.948,-13.431902934684485,0.0,-2.731219235955573,0.0
4528773662.9475,-13.432572729947282,0.0,-2.7520815254480406,0.0
4528788662.947,-13.440264241775935,0.0,-2.7507983332495054,0.0
4528803662.9465,-13.438387343918297,0.0,-2.7725140765307716,0.0
4528818662.946,-13.424178220692884,0.0,-2.8048396234390345,0.0
4528833662.9455,-13.432343870398535,0.0,-2.805373217882837,0.0
4528848662.945,-13.434721655115847,0.0,-2.7083233167841416,0.0
4528863662.9445,-13.430152002007024,0.0,-2.7772882200363727,0.0
4528878662.944,-13.42971071386659,0.0,-2.7937976369897637,0.0
4528893662.9435,-13.42799363161604,0.0,-2.8019938376130624,0.0
4528908662.943,-13.431016580423549,0.0,-2.780811085909581,0.0
4528923662.9425,-13.436366809883097,0.0,-2.741657672697261,0.0
4528938662.942,-13.445658390161114,0.0,-2.8116086950876,0.0
4528953662.9415,-13.427799191963857,0.0,-2.765039786234591,0.0
4528968662.941,-13.43331127128999,0.0,-2.7768114827130614,0.0
4528983662.9405,-13.43038089451506,0.0,-2.835020896314337,0.0
4528998662.94,-13.424683945240492,0.0,-2.8160760515622667,0.0
4529013662.9395,-13.429583604474992,0.0,-2.797261759662637,0.0
4529028662.939,-13.439656416013948,0.0,-2.7796359365434657,0.0
4529043662.9385,-13.437695173602522,0.0,-2.817225989953428,0.0
4529058662.938,-13.433385886639936,0.0,-2.7762536646259126,0.0
4529073662.9375,-13.42679802781216,0.0,-2.790486101990074,0.0
4529088662.937,-13.432691788650652,0.0,-2.804063361390581,0.0
4529103662.9365,-13.42565166887681,0.0,-2.828703348668752,0.0
4529118662.936,-13.42845853958494,0.0,-2.8343045379032583,0.0
4529133662.9355,-13.430599041403147,0.0,-2.8693415427538858,0.0
4529148662.935,-13.43275571846273,0.0,-2.7790629543916587,0.0
4529163662.9345,-13.42139168324739,0.0,-2.866191503661845,0.0
4529178662.934,-13.42938700058272,0.0,-2.821298944317041,0.0
4529193662.9335,-13.434110532192934,0.0,-2.8479051145404592,0.0
4529208662.933,-13.440773615242417,0.0,-2.844914589535894,0.0
4529223662.9325,-13.435897890051038,0.0,-2.8112757305395584,0.0
4529238662.932,-13.441860418576766,0.0,-2.8781880186401048,0.0
4529253662.9315,-13.431739030826932,0.0,-2.896153778796867,0.0
4529268662.931,-13.430972491121274,0.0,-2.8460458363644308,0.0
4529283662.9305,-13.425102408838232,0.0,-2.8723914310459966,0.0
4529298662.93,-13.437464644474941,0.0,-2.850750784339646,0.0
4529313662.9295,-13.425139817985468,0.0,-2.8861144241498016,0.0
4529328662.929,-13.435429077005256,0.0,-2.9109658181395224,0.0
4529343662.9285,-13.440497640677677,0.0,-2.883268636538988,0.0
4529358662.928,-13.434602021772548,0.0,-2.8467881909549706,0.0
4529373662.9275,-13.436599430508263,0.0,-2.908732543892296,0.0
4529388662.927,-13.427059457495037,0.0,-2.902454422462735,0.0
4529403662.9265,-13.43024032858697,0.0,-2.8622251742777918,0.0
4529418662.926,-13.435774869082076,0.0,-2.8719459568561705,0.0
4529433662.9255,-13.434839736163687,0.0,-2.9068045229859143,0.0
4529448662.925,-13.441620203905876,0.0,-2.84619748212836,0.0
4529463662.9245,-13.438306042897448,0.0,-2.853575959979866,0.0
4529478662.924,-13.4408764425222,0.0,-2.9489922486281137,0.0
4529493662.9235,-13.431905091477251,0.0,-2.8929497547200347,0.0
4529508662.923,-13.430455252365306,0.0,-2.8808379799642845,0.0
4529523662.9225,-13.440032569916294,0.0,-2.9292630877595847,0.0
4529538662.922,-13.434814267806594,0.0,-2.8999611436348647,0.0
4529553662.9215,-13.425870033815583,0.0,-2.947627487498114,0.0
4529568662.921,-13.436207770478244,0.0,-2.976478190452185,0.0
4529583662.9205,-13.435847051937959,0.0,-2.87817704402975,0.0
4529598662.92,-13.435352311183744,0.0,-2.910991072373999,0.0
4529613662.9195,-13.432828668980665,0.0,-2.973787134376491,0.0
4529628662.919,-13.429400430382724,0.0,-2.932028930921701,0.0
4529643662.9185,-13.426803004148933,0.0,-2.9822167322078657,0.0
4529658662.918,-13.423937550294857,0.0,-2.863491647482776,0.0
4529673662.9175,-13.426672943999927,0.0,-2.9010165275016355,0.0
4529688662.917,-13.434433804995567,0.0,-2.933033464199903,0.0
4529703662.9165,-13.43565854448882,0.0,-2.9365339201769376,0.0
4529718662.916,-13.438178757748203,0.0,-2.9718591519512776,0.0
4529733662.9155,-13.43248251416518,0.0,-2.9452120689419874,0.0
4529748662.915,-13.435099138855671,0.0,-2.9628614382630865,0.0
4529763662.9145,-13.435901135867212,0.0,-2.942189573756631,0.0
4529778662.914,-13.43275447257453,0.0,-2.9527055190848412,0.0
4529793662.9135,-13.439431432725478,0.0,-2.9216542506354277,0.0
4529808662.913,-13.435224329064742,0.0,-2.931617713968423,0.0
4529823662.9125,-13.445801908964924,0.0,-3.0014010268224522,0.0
4529838662.912,-13.439510967551056,0.0,-2.9488249302447556,0.0
4529853662.9115,-13.443113584003326,0.0,-2.9698841051337412,0.0
4529868662.911,-13.432207008828517,0.0,-2.9519573788789004,0.0
4529883662.9105,-13.43948309763733,0.0,-3.019531389182916,0.0
4529898662.91,-13.43092435961314,0.0,-2.9922395200812235,0.0
4529913662.9095,-13.434609225673448,0.0,-2.9306326612452147,0.0
4529928662.909,-13.43244219949743,0.0,-2.945405459856982,0.0
4529943662.9085,-13.434333406849326,0.0,-2.9835334420429294,0.0
4529958662.908,-13.443883302779717,0.0,-2.9552918510162325,0.0
4529973662.9075,-13.44143172137191,0.0,-2.9525829528885517,0.0
4529988662.907,-13.434451842578639,0.0,-2.9940357105462567,0.0
4530003662.9065,-13.429782601912068,0.0,-2.9869609387401788,0.0
4530018662.906,-13.437357612048505,0.0,-3.010044008814243,0.0
4530033662.9055,-13.430567744346913,0.0,-3.057362092670834,0.0
4530048662.905,-13.437169483920437,0.0,-3.010164773614054,0.0
4530063662.9045,-13.423749742209408,0.0,-3.0259235273657454,0.0
4530078662.904,-13.434011651965596,0.0,-2.9966811294482074,0.0
4530093662.9035,-13.429518321391958,0.0,-3.000541879645827,0.0
4530108662.903,-13.436483970934539,0.0,-2.9929387884097345,0.0
4530123662.9025,-13.439701333946353,0.0,-3.0562154946599502,0.0
4530138662.902,-13.432191845499158,0.0,-3.0664203050267855,0.0
4530153662.9015,-13.430291877693508,0.0,-3.051984996827554,0.0
4530168662.901,-13.42851712250464,0.0,-3.0486553094010413,0.0
4530183662.9005,-13.443531324742137,0.0,-3.022521088323698,0.0
4530198662.9,-13.438478882505311,0.0,-3.0641888604657836,0.0
4530213662.8995,-13.444439989814303,0.0,-3.069073227989345,0.0
4530228662.899,-13.447324337157111,0.0,-3.0502993092053727,0.0
4530243662.8985,-13.439957426020985,0.0,-3.0546383142317826,0.0
4530258662.898,-13.436257451919282,0.0,-3.016382060264144,0.0
4530273662.8975,-13.430341977314065,0.0,-3.0403689557870752,0.0
4530288662.897,-13.432139321999365,0.0,-3.0565429793920926,0.0
4530303662.8965,-13.440041953658211,0.0,-3.0385633982045306,0.0
4530318662.896,-13.43999114692969,0.0,-3.089201497932778,0.0
4530333662.8955,-13.433589586337018,0.0,-3.1193846414797664,0.0
4530348662.895,-13.439914843424507,0.0,-3.0678014226630195,0.0
4530363662.8945,-13.438770146487567,0.0,-3.059565636585983,0.0
4530378662.894,-13.437963428210821,0.0,-2.99927663513463,0.0
4530393662.8935,-13.441965683691034,0.0,-3.0613567852836434,0.0
4530408662.893,-13.427214385892395,0.0,-3.1323375631079746,0.0
4530423662.8925,-13.423518922421003,0.0,-3.1745045316948457,0.0
4530438662.892,-13.439960546940032,0.0,-3.086310017234139,0.0
4530453662.8915,-13.435890858030975,0.0,-3.1333782656835782,0.0
4530468662.891,-13.434940012144923,0.0,-3.1233241131919205,0.0
4530483662.8905,-13.446340864521826,0.0,-3.1221626637780666,0.0
4530498662.89,-13.440428282347801,0.0,-3.0727946072618755,0.0
4530513662.8895,-13.44215897169921,0.0,-3.1159187751467434,0.0
4530528662.889,-13.446105999296162,0.0,-3.0505812534006886,0.0
4530543662.8885,-13.441152052103773,0.0,-3.1148663391202756,0.0
4530558662.888,-13.439431723004486,0.0,-3.0842453819344344,0.0
4530573662.8875,-13.426011452316517,0.0,-3.0970879976357546,0.0
4530588662.887,-13.438693818081013,0.0,-3.1421444923395705,0.0
4530603662.8865,-13.43267123499036,0.0,-3.09864331664417,0.0
4530618662.886,-13.437061459868021,0.0,-3.1233904554209326,0.0
4530633662.8855,-13.442989997723222,0.0,-3.1763556781102644,0.0
4530648662.885,-13.44055772043986,0.0,-3.1240569359520864,0.0
4530663662.8845,-13.437728981355988,0.0,-3.1800706891040105,0.0
4530678662.884,-13.429677462229254,0.0,-3.16278291320972,0.0
4530693662.8835,-13.434406212996697,0.0,-3.170229247908718,0.0
4530708662.883,-13.429996680196954,0.0,-3.121980978918932,0.0
4530723662.8825,-13.445508671374917,0.0,-3.104363138867089,0.0
4530738662.882,-13.447590588136238,0.0,-3.182564156123309,0.0
4530753662.8815,-13.439843063022627,0.0,-3.1403180758522113,0.0
4530768662.881,-13.44429127545056,0.0,-3.2005728031079936,0.0
4530783662.8805,-13.446667188030645,0.0,-3.163914871826236,0.0
4530798662.88,-13.441360348637723,0.0,-3.1902127559004363,0.0
4530813662.8795,-13.43248986515892,0.0,-3.1900936412009946,0.0
4530828662.879,-13.43646367373294,0.0,-3.1894708160941634,0.0
4530843662.8785,-13.44449957099605,0.0,-3.201136347928861,0.0
4530858662.878,-13.438222706551162,0.0,-3.1793156988815174,0.0
4530873662.8775,-13.446772239148741,0.0,-3.181319528633097,0.0
4530888662.877,-13.442626501639639,0.0,-3.1688395705909604,0.0
4530903662.8765,-13.435532435466746,0.0,-3.238032956984056,0.0
4530918662.876,-13.440342449468732,0.0,-3.251439031208885,0.0
4530933662.8755,-13.444492674145023,0.0,-3.2624622710861986,0.0
4530948662.875,-13.436848277688647,0.0,-3.196449280892724,0.0
4530963662.8745,-13.433463366432505,0.0,-3.25280427623995,0.0
4530978662.874,-13.436555870478706,0.0,-3.222323564933009,0.0
4530993662.8735,-13.445987546090528,0.0,-3.229969179901401,0.0
4531008662.873,-13.434462387595932,0.0,-3.1795410669616717,0.0
4531023662.8725,-13.448543900081024,0.0,-3.228572569407285,0.0
4531038662.872,-13.440665579398871,0.0,-3.267927893115667,0.0
4531053662.8715,-13.440979596622356,0.0,-3.2688671178496334,0.0
4531068662.871,-13.428018543377096,0.0,-3.1860252951574672,0.0
4531083662.8705,-13.442228386286741,0.0,-3.256226390975651,0.0
4531098662.87,-13.445696217643269,0.0,-3.2355398252795746,0.0
4531113662.8695,-13.434509807325561,0.0,-3.2657988533951867,0.0
4531128662.869,-13.436797928665996,0.0,-3.2914659371503148,0.0
4531143662.8685,-13.443990075617059,0.0,-3.241026936203614,0.0
4531158662.868,-13.446228637601504,0.0,-3.2750443522885244,0.0
4531173662.8675,-13.436076514773081,0.0,-3.21543891518713,0.0
4531188662.867,-13.434117829731205,0.0,-3.2933544848296656,0.0
4531203662.8665,-13.439354050194254,0.0,-3.2996957732870027,0.0
4531218662.866,-13.436787709393982,0.0,-3.2847431055183893,0.0
4531233662.8655,-13.444298240217027,0.0,-3.265764098480402,0.0
4531248662.865,-13.436173132565902,0.0,-3.2980309217495365,0.0
4531263662.8645,-13.437429881628608,0.0,-3.280510294647521,0.0
4531278662.864,-13.441978179001188,0.0,-3.266531808076319,0.0
4531293662.8635,-13.439649131697708,0.0,-3.3350456973080838,0.0
4531308662.863,-13.439617521798326,0.0,-3.331659357673135,0.0
4531323662.8625,-13.445969795059472,0.0,-3.3081439284967065,0.0
4531338662.862,-13.435207425933068,0.0,-3.380165128395182,0.0
4531353662.8615,-13.437622839156075,0.0,-3.249087840757771,0.0
4531368662.861,-13.438144695932355,0.0,-3.3678814448834693,0.0
4531383662.8605,-13.439277892476628,0.0,-3.251257835971191,0.0
4531398662.86,-13.450535423626597,0.0,-3.3555340427466436,0.0
4531413662.8595,-13.441132751825114,0.0,-3.31230222093811,0.0
4531428662.859,-13.44230265392592,0.0,-3.342667694117885,0.0
4531443662.8585,-13.443414038013756,0.0,-3.3170746221142893,0.0
4531458662.858,-13.438426477252342,0.0,-3.333048680842517,0.0
4531473662.8575,-13.44190222787603,0.0,-3.32761063800088,0.0
4531488662.857,-13.436740540149732,0.0,-3.3795200437753827,0.0
4531503662.8565,-13.445265781674998,0.0,-3.393561247311763,0.0
4531518662.856,-13.448117159593838,0.0,-3.4056933077949636,0.0
4531533662.8555,-13.438767223276855,0.0,-3.3675606600642434,0.0
4531548662.855,-13.435542161076985,0.0,-3.345067468047097,0.0
4531563662.8545,-13.440360630373743,0.0,-3.3924601034722435,0.0
4531578662.854,-13.444639321834224,0.0,-3.318996446433447,0.0
4531593662.8535,-13.4331616264316,0.0,-3.365171128041405,0.0
4531608662.853,-13.44075257231802,0.0,-3.3907963866759374,0.0
4531623662.8525,-13.440643289842606,0.0,-3.3827376613712725,0.0
4531638662.852,-13.440054471241021,0.0,-3.4103640674746556,0.0
4531653662.8515,-13.44926959603839,0.0,-3.3859198213915733,0.0
4531668662.851,-13.437690771169027,0.0,-3.361544638188329,0.0
4531683662.8505,-13.450040768810233,0.0,-3.455110930692662,0.0
4531698662.85,-13.442175216999924,0.0,-3.3466707360684076,0.0
4531713662.8495,-13.44089280965035,0.0,-3.409044825301528,0.0
4531728662.849,-13.44673927194421,0.0,-3.454708523436611,0.0
4531743662.8485,-13.441749470211601,0.0,-3.471437062318192,0.0
4531758662.848,-13.448570580884212,0.0,-3.3994618917390804,0.0
4531773662.8475,-13.448577872188721,0.0,-3.453455590093124,0.0
4531788662.847,-13.451814435463156,0.0,-3.484243475899904,0.0
4531803662.8465,-13.446899393397711,0.0,-3.4113879858119014,0.0
4531818662.846,-13.443324846919584,0.0,-3.409812412921476,0.0
4531833662.8455,-13.437831477894058,0.0,-3.48454099354498,0.0
4531848662.845,-13.435020297274491,0.0,-3.478171548040932,0.0
4531863662.8445,-13.437111078191116,0.0,-3.4874813020065574,0.0
4531878662.844,-13.451681559541475,0.0,-3.442243766252525,0.0
