Frequency,S11,S11-Q,S11-Phase,S11-Phase-Q
4527198663.0,-13.576960572401886,0.0,-2.1780724187857783,0.0
4527213662.9995,-13.573768926369315,0.0,-2.2785795242841482,0.0
4527228662.999,-13.569802139242428,0.0,-2.2327387377348007,0.0
4527243662.9985,-13.573022014543394,0.0,-2.20487419866158,0.0
4527258662.998,-13.573140579189342,0.0,-2.2577601451399727,0.0
4527273662.9975,-13.573180770261859,0.0,-2.2732529041207212,0.0
4527288662.997,-13.572132691001022,0.0,-2.2337175110281327,0.0
4527303662.9965,-13.580178706315596,0.0,-2.222893100114677,0.0
4527318662.996,-13.577123743889567,0.0,-2.227002175244348,0.0
4527333662.9955,-13.563463804697008,0.0,-2.115586302935455,0.0
4527348662.995,-13.57431817818142,0.0,-2.224651260420779,0.0
4527363662.9945,-13.574567146432193,0.0,-2.1755114726407405,0.0
4527378662.994,-13.575310509455658,0.0,-2.2041485474560885,0.0
4527393662.9935,-13.573622133313311,0.0,-2.1886924183358487,0.0
4527408662.993,-13.575471839191609,0.0,-2.2197903151682192,0.0
4527423662.9925,-13.57704009183715,0.0,-2.253920797995219,0.0
4527438662.992,-13.578601678438869,0.0,-2.1836274955508332,0.0
4527453662.9915,-13.578219625001642,0.0,-2.1683091847571343,0.0
4527468662.991,-13.573598819049675,0.0,-2.212302046185383,0.0
4527483662.9905,-13.577215810222965,0.0,-2.166925482036999,0.0
4527498662.99,-13.574464608011848,0.0,-2.1381142500550774,0.0
4527513662.9895,-13.575990257556143,0.0,-2.23978519662395,0.0
4527528662.989,-13.581231759786267,0.0,-2.122916819044142,0.0
4527543662.9885,-13.574241006325419,0.0,-2.1974723424710456,0.0
4527558662.988,-13.584355441593717,0.0,-2.1808375042091845,0.0
4527573662.9875,-13.582460910342187,0.0,-2.1917891746326776,0.0
4527588662.987,-13.572236166235452,0.0,-2.1572816242188337,0.0
4527603662.9865,-13.572887299487215,0.0,-2.187239746037465,0.0
4527618662.986,-13.57381686774846,0.0,-2.095255879210152,0.0
4527633662.9855,-13.572446733751608,0.0,-2.165202299581593,0.0
4527648662.985,-13.573248024039838,0.0,-2.12909772857885,0.0
4527663662.9845,-13.572544259107184,0.0,-2.173996886614913,0.0
4527678662.984,-13.572272945648283,0.0,-2.219086340533983,0.0
4527693662.9835,-13.576936265399857,0.0,-2.1830507213750003,0.0
4527708662.983,-13.577105906827969,0.0,-2.1586097798353285,0.0
4527723662.9825,-13.576677936166114,0.0,-2.185010505961595,0.0
4527738662.982,-13.565995197997909,0.0,-2.152650281740092,0.0
4527753662.9815,-13.567943827425694,0.0,-2.12136980378547,0.0
4527768662.981,-13.581660861930935,0.0,-2.1625568707413,0.0
4527783662.9805,-13.572665655345089,0.0,-2.1097841826740926,0.0
4527798662.98,-13.570751216155095,0.0,-2.1833976769429966,0.0
4527813662.9795,-13.570726592756404,0.0,-2.170817106060787,0.0
4527828662.979,-13.5751353713075,0.0,-2.180268485057183,0.0
4527843662.9785,-13.574568654456158,0.0,-2.1740888471275643,0.0
4527858662.978,-13.571127018282336,0.0,-2.0944395697683493,0.0
4527873662.9775,-13.569067074543739,0.0,-2.1623458250489627,0.0
4527888662.977,-13.582935423389033,0.0,-2.1089760328955176,0.0
4527903662.9765,-13.576695897161903,0.0,-2.1468764109226433,0.0
4527918662.976,-13.574964709408793,0.0,-2.167923064960752,0.0
4527933662.9755,-13.571150434355104,0.0,-2.202154546001354,0.0
4527948662.975,-13.57288416085137,0.0,-2.155059039888254,0.0
4527963662.9745,-13.56674757459765,0.0,-2.2068692916961785,0.0
4527978662.974,-13.575729775607993,0.0,-2.1444148662716143,0.0
4527993662.9735,-13.565163432252023,0.0,-2.145409179913398,0.0
4528008662.973,-13.577317424075538,0.0,-2.150835837933184,0.0
4528023662.9725,-13.576916941012612,0.0,-2.091592687853972,0.0
4528038662.972,-13.573596059933447,0.0,-2.1366745584756086,0.0
4528053662.9715,-13.574757678030148,0.0,-2.1404011501275155,0.0
4528068662.971,-13.577564791569399,0.0,-2.08070743447166,0.0
4528083662.9705,-13.568387589026463,0.0,-2.1723244829072392,0.0
4528098662.97,-13.568557807780937,0.0,-2.1380015798247483,0.0
4528113662.9695,-13.569167701956532,0.0,-2.1734778062583304,0.0
4528128662.969,-13.564655566960093,0.0,-2.1000604236174736,0.0
4528143662.9685,-13.571599898137695,0.0,-2.1343046371434626,0.0
4528158662.968,-13.568480693882478,0.0,-2.1135389688592503,0.0
4528173662.9675,-13.568861953754567,0.0,-2.1261924681832576,0.0
4528188662.967,-13.58153407707496,0.0,-2.130858146271605,0.0
4528203662.9665,-13.568213863211314,0.0,-2.180583404393734,0.0
4528218662.966,-13.5673427010067,0.0,-2.094926756919787,0.0
4528233662.9655,-13.57680409193547,0.0,-2.13885019770589,0.0
4528248662.965,-13.561775318918443,0.0,-2.131295479365143,0.0
4528263662.9645,-13.562038370006944,0.0,-2.0887221969225584,0.0
4528278662.964,-13.566804813999408,0.0,-2.119447458456304,0.0
4528293662.9635,-13.575484876833684,0.0,-2.117133078547664,0.0
4528308662.963,-13.57292428172541,0.0,-2.1050602780831915,0.0
4528323662.9625,-13.561044004817669,0.0,-2.114464983400934,0.0
4528338662.962,-13.568594685039105,0.0,-2.172240324960811,0.0
4528353662.9615,-13.550911251504072,0.0,-2.059436256703696,0.0
4528368662.961,-13.565052530772741,0.0,-2.0813986820294117,0.0
4528383662.9605,-13.566881972174908,0.0,-2.059534506938266,0.0
4528398662.96,-13.56710723503081,0.0,-2.0436139789070333,0.0
4528413662.9595,-13.565174655722448,0.0,-2.102741710987328,0.0
4528428662.959,-13.561714895822082,0.0,-2.172690333672154,0.0
4528443662.9585,-13.56614736278193,0.0,-2.113005066081512,0.0
4528458662.958,-13.569841053183664,0.0,-2.077690515940289,0.0
4528473662.9575,-13.562263664199413,0.0,-2.1600372217021278,0.0
4528488662.957,-13.560111220143247,0.0,-2.1081764296774526,0.0
4528503662.9565,-13.56367725039781,0.0,-2.1395317494523547,0.0
4528518662.956,-13.559775110741754,0.0,-2.082645349040524,0.0
4528533662.9555,-13.557298068371214,0.0,-2.1103862069842165,0.0
4528548662.955,-13.569538937351801,0.0,-2.1265959986005663,0.0
4528563662.9545,-13.560603962050749,0.0,-2.122345122810031,0.0
4528578662.954,-13.563192574492827,0.0,-2.107550841276683,0.0
4528593662.9535,-13.55864509000659,0.0,-2.108866941410535,0.0
4528608662.953,-13.553048371632478,0.0,-2.1337224092515394,0.0
4528623662.9525,-13.561105064180268,0.0,-2.0676983241444837,0.0
4528638662.952,-13.575749283381107,0.0,-2.05938014596117,0.0
4528653662.9515,-13.565282295381301,0.0,-2.091585703061194,0.0
4528668662.951,-13.559423248356968,0.0,-2.1072365622493323,0.0
4528683662.9505,-13.573714937175518,0.0,-2.0950604531234216,0.0
4528698662.95,-13.548376236785082,0.0,-2.1394941402737206,0.0
4528713662.9495,-13.557664381798695,0.0,-2.146438944459226,0.0
4528728662.949,-13.558976654941988,0.0,-2.1643263887185475,0.0
4528743662.9485,-13.56080735725464,0.0,-2.1077908102546825,0.0
4528758662.948,-13.569725389230618,0.0,-2.0914505026356114,0.0
4528773662.9475,-13.566599829326176,0.0,-2.056989190698969,0.0
4528788662.947,-13.558064636640584,0.0,-2.10706655923659,0.0
4528803662.9465,-13.556954559229785,0.0,-2.0930232247848513,0.0
4528818662.946,-13.562960331718351,0.0,-2.120386727944958,0.0
4528833662.9455,-13.564133662634703,0.0,-2.1120100265902155,0.0
4528848662.945,-13.565045835698255,0.0,-2.080077019512379,0.0
4528863662.9445,-13.557945186164869,0.0,-2.1296623097536993,0.0
4528878662.944,-13.55381927875883,0.0,-2.1251373787406305,0.0
4528893662.9435,-13.558123357053184,0.0,-2.1336589289358807,0.0
4528908662.943,-13.564761301193904,0.0,-2.1153903968955796,0.0
4528923662.9425,-13.55472972270628,0.0,-2.138258852625691,0.0
4528938662.942,-13.557834128831196,0.0,-2.086697116586689,0.0
4528953662.9415,-13.557384164305432,0.0,-2.1519733916693435,0.0
4528968662.941,-13.563904334929147,0.0,-2.1402840440106163,0.0
4528983662.9405,-13.56780367613853,0.0,-2.071583343979801,0.0
4528998662.94,-13.555054056606226,0.0,-2.163637363165961,0.0
4529013662.9395,-13.555594809286102,0.0,-2.14263633586016,0.0
4529028662.939,-13.561646574097477,0.0,-2.1130323610493744,0.0
4529043662.9385,-13.55727568601312,0.0,-2.0983642366252955,0.0
4529058662.938,-13.559237148177761,0.0,-2.136505947048808,0.0
4529073662.9375,-13.567754101043892,0.0,-2.171019324020814,0.0
4529088662.937,-13.559363549521652,0.0,-2.0909499384428463,0.0
4529103662.9365,-13.55776896869098,0.0,-2.1301106460491135,0.0
4529118662.936,-13.557766822080602,0.0,-2.069110404371583,0.0
4529133662.9355,-13.559784286631933,0.0,-2.108938391676933,0.0
4529148662.935,-13.554485175398392,0.0,-2.110082110016815,0.0
4529163662.9345,-13.555631844310717,0.0,-2.078282122675922,0.0
4529178662.934,-13.556411096283883,0.0,-2.143219802614328,0.0
4529193662.9335,-13.55931329863533,0.0,-2.1296492001803307,0.0
4529208662.933,-13.563465249860581,0.0,-2.068078043331787,0.0
4529223662.9325,-13.552114889603146,0.0,-2.1430739632802225,0.0
4529238662.932,-13.548400339281619,0.0,-2.1220416828012287,0.0
4529253662.9315,-13.551069268040223,0.0,-2.1109734717293787,0.0
4529268662.931,-13.55310560789627,0.0,-2.1535576076365297,0.0
4529283662.9305,-13.551360115233928,0.0,-2.121684130997012,0.0
4529298662.93,-13.555411566147974,0.0,-2.1162143501526995,0.0
4529313662.9295,-13.551091788074315,0.0,-2.1057852207463332,0.0
4529328662.929,-13.55738847352314,0.0,-2.155038986054598,0.0
4529343662.9285,-13.552843055438718,0.0,-2.1377309938660183,0.0
4529358662.928,-13.55057106834597,0.0,-2.1104671653842075,0.0
4529373662.9275,-13.551918214709442,0.0,-2.115972702195611,0.0
4529388662.927,-13.543034020181686,0.0,-2.1746248862307413,0.0
4529403662.9265,-13.549725020312858,0.0,-2.088094921315218,0.0
4529418662.926,-13.547914879206635,0.0,-2.111113809644864,0.0
4529433662.9255,-13.548278136536586,0.0,-2.1312028425899454,0.0
4529448662.925,-13.55371975732715,0.0,-2.123193626026285,0.0
4529463662.9245,-13.551886791110926,0.0,-2.0999438413486606,0.0
4529478662.924,-13.54361744757535,0.0,-2.090135281259756,0.0
4529493662.9235,-13.546832786930521,0.0,-2.075573952348454,0.0
4529508662.923,-13.545131831425817,0.0,-2.129255343853743,0.0
4529523662.9225,-13.545822728884856,0.0,-2.1274181172396367,0.0
4529538662.922,-13.547017865178958,0.0,-2.200267289357076,0.0
4529553662.9215,-13.553983115584957,0.0,-2.094277110154172,0.0
4529568662.921,-13.551456779423876,0.0,-2.111682230701022,0.0
4529583662.9205,-13.547063590706669,0.0,-2.1565066841431935,0.0
4529598662.92,-13.547092897383482,0.0,-2.085879114859698,0.0
4529613662.9195,-13.566694875031972,0.0,-2.1580070833159577,0.0
4529628662.919,-13.54898650658312,0.0,-2.1677080562574993,0.0
4529643662.9185,-13.547563123938097,0.0,-2.120336671002799,0.0
4529658662.918,-13.5478413867434,0.0,-2.1823788764972165,0.0
4529673662.9175,-13.537828949895461,0.0,-2.108993690659165,0.0
4529688662.917,-13.548016716805263,0.0,-2.1696785257887523,0.0
4529703662.9165,-13.551825745539752,0.0,-2.151029099612087,0.0
4529718662.916,-13.552584484352773,0.0,-2.136354473489854,0.0
4529733662.9155,-13.549410036016504,0.0,-2.15263069103573,0.0
4529748662.915,-13.553565566005567,0.0,-2.07634710055665,0.0
4529763662.9145,-13.544816596638029,0.0,-2.0436230103321953,0.0
4529778662.914,-13.555979149722095,0.0,-2.141914444510418,0.0
4529793662.9135,-13.55065671838657,0.0,-2.138756456801118,0.0
4529808662.913,-13.543459056839076,0.0,-2.1489199192091806,0.0
4529823662.9125,-13.548176701572956,0.0,-2.138659761729656,0.0
4529838662.912,-13.549649867207263,0.0,-2.130818360800959,0.0
4529853662.9115,-13.542777694994722,0.0,-2.2021449654792553,0.0
4529868662.911,-13.54062459972578,0.0,-2.1292181258882077,0.0
4529883662.9105,-13.54096510513384,0.0,-2.1162031887859887,0.0
4529898662.91,-13.549153268831036,0.0,-2.1227837894445725,0.0
4529913662.9095,-13.543490283399235,0.0,-2.1518189481584993,0.0
4529928662.909,-13.55344356817434,0.0,-2.1844375219837064,0.0
4529943662.9085,-13.556442553817744,0.0,-2.135358332084322,0.0
4529958662.908,-13.547367875208176,0.0,-2.143813436737319,0.0
4529973662.9075,-13.546365937538118,0.0,-2.1246484226776934,0.0
4529988662.907,-13.546884294384638,0.0,-2.1898752926146874,0.0
4530003662.9065,-13.541502659929286,0.0,-2.2315988574453143,0.0
4530018662.906,-13.541950848500326,0.0,-2.1870385844143803,0.0
4530033662.9055,-13.54796177256597,0.0,-2.091526161864013,0.0
4530048662.905,-13.545970345669945,0.0,-2.1848469890114877,0.0
4530063662.9045,-13.547855859947411,0.0,-2.1430536811840257,0.0
4530078662.904,-13.538342109112797,0.0,-2.1287283365137766,0.0
4530093662.9035,-13.528676813575496,0.0,-2.119315576255392,0.0
4530108662.903,-13.535853568443164,0.0,-2.1473820048755994,0.0
4530123662.9025,-13.538865649819915,0.0,-2.1670126848062505,0.0
4530138662.902,-13.537073154218097,0.0,-2.1422385740572336,0.0
4530153662.9015,-13.54567451717443,0.0,-2.175354679194679,0.0
4530168662.901,-13.536431311505655,0.0,-2.1455906547295407,0.0
4530183662.9005,-13.533924130209375,0.0,-2.151168867702907,0.0
4530198662.9,-13.537844389233326,0.0,-2.1809744246815246,0.0
4530213662.8995,-13.537424163928314,0.0,-2.2019228035304237,0.0
4530228662.899,-13.531003671817917,0.0,-2.1817948572491894,0.0
4530243662.8985,-13.544580927730813,0.0,-2.2276330570022367,0.0
4530258662.898,-13.54934539734425,0.0,-2.170102181168513,0.0
4530273662.8975,-13.54373915590081,0.0,-2.2047526090258476,0.0
4530288662.897,-13.54180518016014,0.0,-2.1814798235618293,0.0
4530303662.8965,-13.529687700104658,0.0,-2.2283527532053755,0.0
4530318662.896,-13.545967737311141,0.0,-2.245552727482188,0.0
4530333662.8955,-13.544326179407381,0.0,-2.163592471433307,0.0
4530348662.895,-13.542589912965393,0.0,-2.1458307386160906,0.0
4530363662.8945,-13.53680914544859,0.0,-2.2254022756276046,0.0
4530378662.894,-13.535587349155458,0.0,-2.1856489413940796,0.0
4530393662.8935,-13.54115681264721,0.0,-2.218709056385063,0.0
4530408662.893,-13.542910282314267,0.0,-2.1633615458867164,0.0
4530423662.8925,-13.530332494503908,0.0,-2.2043950472494966,0.0
4530438662.892,-13.544047906256417,0.0,-2.163316658865133,0.0
4530453662.8915,-13.536635883336633,0.0,-2.184394979370984,0.0
4530468662.891,-13.53411627218816,0.0,-2.190154680655728,0.0
4530483662.8905,-13.533572617217636,0.0,-2.157502335522681,0.0
4530498662.89,-13.533239487744776,0.0,-2.226027435704049,0.0
4530513662.8895,-13.539453581430168,0.0,-2.2349000713616967,0.0
4530528662.889,-13.531633135243057,0.0,-2.14144592983373,0.0
4530543662.8885,-13.53592708703079,0.0,-2.2548758517596874,0.0
4530558662.888,-13.542163688720377,0.0,-2.246219897541532,0.0
4530573662.8875,-13.537948848252322,0.0,-2.23503096528303,0.0
4530588662.887,-13.529204678100937,0.0,-2.225642679878553,0.0
4530603662.8865,-13.539915779941246,0.0,-2.164159678036544,0.0
4530618662.886,-13.536373270085766,0.0,-2.1270595355635624,0.0
4530633662.8855,-13.536733212512162,0.0,-2.2131937906087953,0.0
4530648662.885,-13.539573773389753,0.0,-2.212917516784176,0.0
4530663662.8845,-13.547449786100218,0.0,-2.261311786873312,0.0
4530678662.884,-13.533640712968008,0.0,-2.2578055503558585,0.0
4530693662.8835,-13.54310932243977,0.0,-2.2201967938807514,0.0
4530708662.883,-13.528476265405821,0.0,-2.202756411696744,0.0
4530723662.8825,-13.534729918268503,0.0,-2.2763673238053252,0.0
4530738662.882,-13.535091230730323,0.0,-2.2287546518974812,0.0
4530753662.8815,-13.537841205974344,0.0,-2.2267571743133643,0.0
4530768662.881,-13.546664060317804,0.0,-2.248025133818648,0.0
4530783662.8805,-13.535767855915253,0.0,-2.2855771437886956,0.0
4530798662.88,-13.541589130215899,0.0,-2.1884649484157053,0.0
4530813662.8795,-13.532889978499956,0.0,-2.2070896216158964,0.0
4530828662.879,-13.535863682441668,0.0,-2.2664902827592988,0.0
4530843662.8785,-13.537012191260423,0.0,-2.2438681302547434,0.0
4530858662.878,-13.527198879856737,0.0,-2.235866606245984,0.0
4530873662.8775,-13.536494306672859,0.0,-2.2527277029359745,0.0
4530888662.877,-13.540857680801913,0.0,-2.2291642805182326,0.0
4530903662.8765,-13.533110487498671,0.0,-2.1977572109155967,0.0
4530918662.876,-13.533378445750081,0.0,-2.2292676834463245,0.0
4530933662.8755,-13.542402037574387,0.0,-2.2941422332143855,0.0
4530948662.875,-13.536318204478427,0.0,-2.2576129012224264,0.0
4530963662.8745,-13.526661864962847,0.0,-2.2661649184714525,0.0
4530978662.874,-13.533241934903051,0.0,-2.2233047098264085,0.0
4530993662.8735,-13.534159995268789,0.0,-2.262025189635717,0.0
4531008662.873,-13.541690337611227,0.0,-2.2256501470673467,0.0
4531023662.8725,-13.542119169190766,0.0,-2.2805820039445823,0.0
4531038662.872,-13.536472863177643,0.0,-2.2873098546806383,0.0
4531053662.8715,-13.536513536446556,0.0,-2.286554190424243,0.0
4531068662.871,-13.536737983462501,0.0,-2.3139479542535044,0.0
4531083662.8705,-13.526328051668123,0.0,-2.269779154066037,0.0
4531098662.87,-13.533380254451776,0.0,-2.2958505786444148,0.0
4531113662.8695,-13.534199358261706,0.0,-2.2775473738190417,0.0
4531128662.869,-13.541026521127309,0.0,-2.2898454662372743,0.0
4531143662.8685,-13.532809720030938,0.0,-2.300440636875709,0.0
4531158662.868,-13.542508572259823,0.0,-2.2506358861654574,0.0
4531173662.8675,-13.533327620950569,0.0,-2.340995926800068,0.0
4531188662.867,-13.527089251184277,0.0,-2.2960325156730814,0.0
4531203662.8665,-13.526215502787185,0.0,-2.3008833678086864,0.0
4531218662.866,-13.535241491009755,0.0,-2.2688334180938474,0.0
4531233662.8655,-13.525875395466366,0.0,-2.336533367021862,0.0
4531248662.865,-13.52718162681089,0.0,-2.2601701680738584,0.0
4531263662.8645,-13.530557635489352,0.0,-2.3659738601381384,0.0
4531278662.864,-13.531652938163353,0.0,-2.275405410939906,0.0
4531293662.8635,-13.532712074263733,0.0,-2.331947329932824,0.0
4531308662.863,-13.534404967084512,0.0,-2.2995138385828406,0.0
4531323662.8625,-13.542831834623891,0.0,-2.309216223486982,0.0
4531338662.862,-13.526370610640516,0.0,-2.296072601015227,0.0
4531353662.8615,-13.540828917401475,0.0,-2.320819880013993,0.0
4531368662.861,-13.525472714748759,0.0,-2.3621666314352234,0.0
4531383662.8605,-13.535077260436555,0.0,-2.315293851925768,0.0
4531398662.86,-13.529569913959062,0.0,-2.3520040061515375,0.0
4531413662.8595,-13.527931979999872,0.0,-2.287850409282762,0.0
4531428662.859,-13.52587555104602,0.0,-2.3133934794921416,0.0
4531443662.8585,-13.526775598256652,0.0,-2.259653307214315,0.0
4531458662.858,-13.533508846082276,0.0,-2.35451565768338,0.0
4531473662.8575,-13.523457899269268,0.0,-2.3536727805423157,0.0
4531488662.857,-13.523298852922277,0.0,-2.2899850349332715,0.0
4531503662.8565,-13.526660799345468,0.0,-2.3378480936205657,0.0
4531518662.856,-13.533391465273748,0.0,-2.3500629377724445,0.0
4531533662.8555,-13.53189008579643,0.0,-2.373087623681869,0.0
4531548662.855,-13.539485694313296,0.0,-2.2976316855994914,0.0
4531563662.8545,-13.530040800131157,0.0,-2.3517729160496317,0.0
4531578662.854,-13.528594980473827,0.0,-2.3212559013889376,0.0
4531593662.8535,-13.53398377636246,0.0,-2.4023131586932998,0.0
4531608662.853,-13.533696625102753,0.0,-2.410607329830402,0.0
4531623662.8525,-13.524340525629317,0.0,-2.368709733714477,0.0
4531638662.852,-13.529273069274101,0.0,-2.3381795208768046,0.0
4531653662.8515,-13.534184136469987,0.0,-2.3712460479438078,0.0
4531668662.851,-13.527486721446316,0.0,-2.3191896856068737,0.0
4531683662.8505,-13.531314027557075,0.0,-2.4258093749893948,0.0
4531698662.85,-13.52251225609406,0.0,-2.416354065236626,0.0
4531713662.8495,-13.535783752333653,0.0,-2.407062684571754,0.0
4531728662.849,-13.51884117763823,0.0,-2.3760916551926123,0.0
4531743662.8485,-13.52598352660086,0.0,-2.452137329202021,0.0
4531758662.848,-13.5261487084927,0.0,-2.3951971250713937,0.0
4531773662.8475,-13.530030587928747,0.0,-2.3613358841672123,0.0
4531788662.847,-13.526380473750672,0.0,-2.3979276415973914,0.0
4531803662.8465,-13.529282055823558,0.0,-2.401393945836691,0.0
4531818662.846,-13.533127304758843,0.0,-2.3714638737315203,0.0
4531833662.8455,-13.524254659792884,0.0,-2.405405976684745,0.0
4531848662.845,-13.524052834545767,0.0,-2.3918430479049717,0.0
4531863662.8445,-13.528338279875147,0.0,-2.3748985954517075,0.0
