Frequency,S11,S11-Q,S11-Phase,S11-Phase-Q
4527198663.0,-13.426930473219059,0.0,-2.529854853266373,0.0
4527213662.9995,-13.418139358570894,0.0,-2.4941356626369,0.0
4527228662.999,-13.427538638699541,0.0,-2.521703223845483,0.0
4527243662.9985,-13.420482014803763,0.0,-2.4980680394264443,0.0
4527258662.998,-13.419168373173145,0.0,-2.4866536765019434,0.0
4527273662.9975,-13.423823468895486,0.0,-2.5526695867477582,0.0
4527288662.997,-13.421390284948334,0.0,-2.5743063487452242,0.0
4527303662.9965,-13.427765343790183,0.0,-2.5193732437856466,0.0
4527318662.996,-13.422917300573003,0.0,-2.550625067513261,0.0
4527333662.9955,-13.42059180664579,0.0,-2.512223037323497,0.0
4527348662.995,-13.425353500891449,0.0,-2.5436112240528783,0.0
4527363662.9945,-13.422723005858622,0.0,-2.456271763412156,0.0
4527378662.994,-13.426384826604565,0.0,-2.5792895157650637,0.0
4527393662.9935,-13.436307022208613,0.0,-2.5875416775905387,0.0
4527408662.993,-13.425879443395951,0.0,-2.589482951665198,0.0
4527423662.9925,-13.423463501185983,0.0,-2.553179970217093,0.0
4527438662.992,-13.42691802710348,0.0,-2.6004818729002803,0.0
4527453662.9915,-13.425656873584725,0.0,-2.588687709747506,0.0
4527468662.991,-13.42011382990028,0.0,-2.530933569118735,0.0
4527483662.9905,-13.425768361669066,0.0,-2.6035583050866338,0.0
4527498662.99,-13.434087492095284,0.0,-2.5464341839959017,0.0
4527513662.9895,-13.425117326767268,0.0,-2.5552099894044553,0.0
4527528662.989,-13.43483223912491,0.0,-2.5881471390820794,0.0
4527543662.9885,-13.426479206801085,0.0,-2.596319446077825,0.0
4527558662.988,-13.435125260216056,0.0,-2.552440079747013,0.0
4527573662.9875,-13.421590080556472,0.0,-2.516072269148533,0.0
4527588662.987,-13.430447621381866,0.0,-2.5942562406169234,0.0
4527603662.9865,-13.42241233558857,0.0,-2.5868773610448668,0.0
4527618662.986,-13.430718497872991,0.0,-2.5414228034480417,0.0
4527633662.9855,-13.422019282473233,0.0,-2.5606220555582038,0.0
4527648662.985,-13.430377631954403,0.0,-2.5286821658156047,0.0
4527663662.9845,-13.42363176655091,0.0,-2.6139636183176616,0.0
4527678662.984,-13.41594633378097,0.0,-2.5950269325916766,0.0
4527693662.9835,-13.430421647542413,0.0,-2.567515156040388,0.0
4527708662.983,-13.430537890332248,0.0,-2.6305802886852123,0.0
4527723662.9825,-13.428164740047892,0.0,-2.6483686846834047,0.0
4527738662.982,-13.427966501585015,0.0,-2.5565534349942496,0.0
4527753662.9815,-13.424543901824578,0.0,-2.655201038114887,0.0
4527768662.981,-13.426929668555918,0.0,-2.561020807032735,0.0
4527783662.9805,-13.428014128995777,0.0,-2.6346194266300613,0.0
4527798662.98,-13.422475550704508,0.0,-2.5917097660141826,0.0
4527813662.9795,-13.430150861974745,0.0,-2.6020853896146785,0.0
4527828662.979,-13.431464598410043,0.0,-2.724496093874223,0.0
4527843662.9785,-13.429587010012455,0.0,-2.5894477949603814,0.0
4527858662.978,-13.425954727425705,0.0,-2.6212139587731165,0.0
4527873662.9775,-13.429436650438404,0.0,-2.6262812620820997,0.0
4527888662.977,-13.429207421741552,0.0,-2.6777163907631074,0.0
4527903662.9765,-13.425771567465858,0.0,-2.6759684503357857,0.0
4527918662.976,-13.419361852890525,0.0,-2.6563363435115135,0.0
4527933662.9755,-13.424439386151848,0.0,-2.6126459303470733,0.0
4527948662.975,-13.426627693946106,0.0,-2.6412355362897304,0.0
4527963662.9745,-13.415779006668085,0.0,-2.637605475048479,0.0
4527978662.974,-13.425498226083823,0.0,-2.6434864041742605,0.0
4527993662.9735,-13.412415638705689,0.0,-2.681938713346351,0.0
4528008662.973,-13.42530018910696,0.0,-2.637250135809373,0.0
4528023662.9725,-13.424696084197873,0.0,-2.6660661420338365,0.0
4528038662.972,-13.435019131053581,0.0,-2.675900125893151,0.0
4528053662.9715,-13.425567468424344,0.0,-2.642298204105016,0.0
4528068662.971,-13.425915972848676,0.0,-2.655941675838829,0.0
4528083662.9705,-13.42298894371098,0.0,-2.6688475049543965,0.0
4528098662.97,-13.42414153888232,0.0,-2.653787252861484,0.0
4528113662.9695,-13.42926779785965,0.0,-2.691521090779001,0.0
4528128662.969,-13.421341454266267,0.0,-2.6668612914132668,0.0
4528143662.9685,-13.431154156520078,0.0,-2.644279688368302,0.0
4528158662.968,-13.422498551392694,0.0,-2.7371840144577413,0.0
4528173662.9675,-13.426189528242642,0.0,-2.63599965494218,0.0
4528188662.967,-13.433503306451922,0.0,-2.7072869913772037,0.0
4528203662.9665,-13.427155990959886,0.0,-2.7798574034569925,0.0
4528218662.966,-13.431069357991475,0.0,-2.708741073313792,0.0
4528233662.9655,-13.429643040570376,0.0,-2.738410846304386,0.0
4528248662.965,-13.424237927941107,0.0,-2.6620464412606006,0.0
4528263662.9645,-13.422970625595976,0.0,-2.71953431123062,0.0
4528278662.964,-13.427583720955605,0.0,-2.6802404485554305,0.0
4528293662.9635,-13.421848932425444,0.0,-2.634667320191936,0.0
4528308662.963,-13.422740584017102,0.0,-2.703191741937668,0.0
4528323662.9625,-13.420398157223856,0.0,-2.7217923165099243,0.0
4528338662.962,-13.425028769984348,0.0,-2.7425963548509,0.0
4528353662.9615,-13.430975579772564,0.0,-2.7289003144322153,0.0
4528368662.961,-13.428848525144076,0.0,-2.7387930578936808,0.0
4528383662.9605,-13.428408325989302,0.0,-2.70265584826653,0.0
4528398662.96,-13.425394981906225,0.0,-2.7234117550212606,0.0
4528413662.9595,-13.43255247272458,0.0,-2.683082318532751,0.0
4528428662.959,-13.433688756357666,0.0,-2.7496538740007934,0.0
4528443662.9585,-13.430228932767282,0.0,-2.729810673674113,0.0
4528458662.958,-13.426661714574204,0.0,-2.7443902393520117,0.0
4528473662.9575,-13.421288312276122,0.0,-2.776525908522028,0.0
4528488662.957,-13.420407229864841,0.0,-2.781155853905752,0.0
4528503662.9565,-13.425568158586302,0.0,-2.739910512461451,0.0
4528518662.956,-13.4216480530001,0.0,-2.758626367997446,0.0
4528533662.9555,-13.425321474040198,0.0,-2.71800934311013,0.0
4528548662.955,-13.435250690633769,0.0,-2.694067254391849,0.0
4528563662.9545,-13.42824638787224,0.0,-2.7683943493249186,0.0
4528578662.954,-13.425015832626686,0.0,-2.731469675758251,0.0
4528593662.9535,-13.416692588364544,0.0,-2.756293394694077,0.0
4528608662.953,-13.429735337352856,0.0,-2.7240918228273086,0.0
4528623662.9525,-13.424109835985966,0.0,-2.7418168156017817,0.0
4528638662.952,-13.438131019524368,0.0,-2.676857617582571,0.0
4528653662.9515,-13.427094752323425,0.0,-2.8062945194981883,0.0
4528668662.951,-13.422784643265352,0.0,-2.74932180530498,0.0
4528683662.9505,-13.423049612999085,0.0,-2.779340376559866,0.0
4528698662.95,-13.421371419933784,0.0,-2.755599471531454,0.0
4528713662.9495,-13.424496645237676,0.0,-2.719732987896694,0.0
4528728662.949,-13.428273354191028,0.0,-2.7810351003351825,0.0
4528743662.9485,-13.420292568135217,0.0,-2.746581239860651,0.0
4528758662.948,-13.421013880322594,0.0,-2.7670379114904105,0.0
4528773662.9475,-13.431823293496105,0.0,-2.7595104790771203,0.0
4528788662.947,-13.423273816788772,0.0,-2.7802804839013424,0.0
4528803662.9465,-13.44123672897478,0.0,-2.7690042765008163,0.0
4528818662.946,-13.423594456197943,0.0,-2.815361115278122,0.0
4528833662.9455,-13.428967479442766,0.0,-2.78576737680656,0.0
4528848662.945,-13.42841041859279,0.0,-2.762375200091945,0.0
4528863662.9445,-13.42602683450277,0.0,-2.7553585712518784,0.0
4528878662.944,-13.428222004465107,0.0,-2.8412986641967137,0.0
4528893662.9435,-13.418655265039249,0.0,-2.807142309416805,0.0
4528908662.943,-13.422543425685475,0.0,-2.8367831484147117,0.0
4528923662.9425,-13.430944843725612,0.0,-2.801243039826929,0.0
4528938662.942,-13.423149749586731,0.0,-2.7713736431119065,0.0
4528953662.9415,-13.426362000486098,0.0,-2.7771706367733655,0.0
4528968662.941,-13.429973623086157,0.0,-2.797564061534762,0.0
4528983662.9405,-13.417890877338216,0.0,-2.7817531550567764,0.0
4528998662.94,-13.429571784209362,0.0,-2.8939408549186227,0.0
4529013662.9395,-13.434158109241466,0.0,-2.852269013419102,0.0
4529028662.939,-13.42955506588474,0.0,-2.812318879046166,0.0
4529043662.9385,-13.427083703012512,0.0,-2.861697586326983,0.0
4529058662.938,-13.427323220916971,0.0,-2.7767703509850565,0.0
4529073662.9375,-13.43034629507972,0.0,-2.863042023944943,0.0
4529088662.937,-13.426389191128532,0.0,-2.8337557237054924,0.0
4529103662.9365,-13.43370069749811,0.0,-2.8657887454220368,0.0
4529118662.936,-13.425980082558432,0.0,-2.894413468504475,0.0
4529133662.9355,-13.427891513307815,0.0,-2.8313187595710003,0.0
4529148662.935,-13.430400057042235,0.0,-2.849226940125336,0.0
4529163662.9345,-13.430731941177019,0.0,-2.883372202268951,0.0
4529178662.934,-13.434409313115474,0.0,-2.8626105742967645,0.0
4529193662.9335,-13.42660344021356,0.0,-2.841593594414343,0.0
4529208662.933,-13.430625503328852,0.0,-2.872621309313271,0.0
4529223662.9325,-13.436832854055032,0.0,-2.8334805681121473,0.0
4529238662.932,-13.422410410188268,0.0,-2.8647516367898587,0.0
4529253662.9315,-13.427574468638523,0.0,-2.919387590253063,0.0
4529268662.931,-13.42625396773557,0.0,-2.8644188238919583,0.0
4529283662.9305,-13.427397477536758,0.0,-2.876087653238128,0.0
4529298662.93,-13.426251299725616,0.0,-2.9614143700184594,0.0
4529313662.9295,-13.432479217731316,0.0,-2.918760227723144,0.0
4529328662.929,-13.430081879649185,0.0,-2.8888004333252506,0.0
4529343662.9285,-13.429487206712768,0.0,-2.9916160713072593,0.0
4529358662.928,-13.431310705968759,0.0,-2.937762975359681,0.0
4529373662.9275,-13.431920568690519,0.0,-2.8450060019738617,0.0
4529388662.927,-13.428529786427033,0.0,-2.933451490692392,0.0
4529403662.9265,-13.425600415306878,0.0,-2.9433366442122346,0.0
4529418662.926,-13.433064397582253,0.0,-2.9435649689967796,0.0
4529433662.9255,-13.428890808753263,0.0,-2.8826892603468406,0.0
4529448662.925,-13.426044197726588,0.0,-2.943866877608044,0.0
4529463662.9245,-13.421885294426792,0.0,-2.909870454360481,0.0
4529478662.924,-13.436499120132662,0.0,-2.993279396661278,0.0
4529493662.9235,-13.42003398270026,0.0,-2.9122247287581047,0.0
4529508662.923,-13.429914475067068,0.0,-2.9554816757949447,0.0
4529523662.9225,-13.43168088831119,0.0,-2.949141498700625,0.0
4529538662.922,-13.435688476723161,0.0,-2.939925177676118,0.0
4529553662.9215,-13.428711565714135,0.0,-2.9844100939770084,0.0
4529568662.921,-13.435801810151677,0.0,-2.9577265328498688,0.0
4529583662.9205,-13.435352580183546,0.0,-2.9935107095949296,0.0
4529598662.92,-13.428898649877652,0.0,-2.9265932191110915,0.0
4529613662.9195,-13.429497053886557,0.0,-2.946853666289405,0.0
4529628662.919,-13.426144941349438,0.0,-2.928673899117249,0.0
4529643662.9185,-13.44029110991811,0.0,-2.9305633170240397,0.0
4529658662.918,-13.43374687786173,0.0,-2.979205345163617,0.0
4529673662.9175,-13.436989231095534,0.0,-2.9773990995041677,0.0
4529688662.917,-13.420263593658783,0.0,-2.9272333817926754,0.0
4529703662.9165,-13.43654487058316,0.0,-3.0018500113781856,0.0
4529718662.916,-13.44046731710118,0.0,-2.950677427118876,0.0
4529733662.9155,-13.43101511426461,0.0,-2.945068827062107,0.0
4529748662.915,-13.428535794955913,0.0,-2.9647046867693376,0.0
4529763662.9145,-13.427082387222205,0.0,-2.9929239387362414,0.0
4529778662.914,-13.439018859323344,0.0,-2.8978491053682944,0.0
4529793662.9135,-13.431048836340182,0.0,-3.0305612401273714,0.0
4529808662.913,-13.424570668204145,0.0,-2.997793321957714,0.0
4529823662.9125,-13.43115783521117,0.0,-2.9722372613477193,0.0
4529838662.912,-13.420696696818899,0.0,-2.9761988336231973,0.0
4529853662.9115,-13.435616915454059,0.0,-3.0109154676126813,0.0
4529868662.911,-13.433757755991849,0.0,-2.990044131026394,0.0
4529883662.9105,-13.431582721899414,0.0,-3.0159650694891567,0.0
4529898662.91,-13.423974267859188,0.0,-3.0215612637336995,0.0
4529913662.9095,-13.435138691679324,0.0,-3.0381262755007907,0.0
4529928662.909,-13.428360962690702,0.0,-3.023041747114673,0.0
4529943662.9085,-13.422612435313194,0.0,-3.0419656743665486,0.0
4529958662.908,-13.429801724220171,0.0,-2.9701996193569165,0.0
4529973662.9075,-13.429232172574885,0.0,-3.0148573208767036,0.0
4529988662.907,-13.430378584459422,0.0,-3.0271920030903776,0.0
4530003662.9065,-13.430623307261438,0.0,-3.01235288073735,0.0
4530018662.906,-13.437766588703358,0.0,-3.084865927522793,0.0
4530033662.9055,-13.429546647836794,0.0,-2.9921643052012428,0.0
4530048662.905,-13.41532578971077,0.0,-3.086512252767623,0.0
4530063662.9045,-13.431731514979266,0.0,-3.0438165976625218,0.0
4530078662.904,-13.429394661382435,0.0,-3.0409750046627084,0.0
4530093662.9035,-13.427934379817621,0.0,-3.0619900862339047,0.0
4530108662.903,-13.428940377999872,0.0,-3.0668863882544737,0.0
4530123662.9025,-13.431199786868792,0.0,-2.986283559639568,0.0
4530138662.902,-13.431610618626538,0.0,-3.0968753271264964,0.0
4530153662.9015,-13.428448804182366,0.0,-3.013668473307766,0.0
4530168662.901,-13.433627240637145,0.0,-3.050508878445094,0.0
4530183662.9005,-13.433397785962416,0.0,-3.0539348054235185,0.0
4530198662.9,-13.43874600154107,0.0,-3.1191235498735836,0.0
4530213662.8995,-13.433284908434661,0.0,-3.038447024401417,0.0
4530228662.899,-13.436126993066937,0.0,-3.0844756616887548,0.0
4530243662.8985,-13.432184628506205,0.0,-3.105126662792263,0.0
4530258662.898,-13.430522580370782,0.0,-3.0729340305484687,0.0
4530273662.8975,-13.441992613464656,0.0,-3.0539534139239852,0.0
4530288662.897,-13.431423537531714,0.0,-3.0460450760964664,0.0
4530303662.8965,-13.428475193670348,0.0,-3.0586034284146066,0.0
4530318662.896,-13.43749943052555,0.0,-3.145527496552001,0.0
4530333662.8955,-13.433346664700576,0.0,-3.094856289102756,0.0
4530348662.895,-13.43362358597317,0.0,-3.1386124466784358,0.0
4530363662.8945,-13.443099631721715,0.0,-3.1045131784302304,0.0
4530378662.894,-13.428163561871711,0.0,-3.1093533591424882,0.0
4530393662.8935,-13.436325532424497,0.0,-3.0852183334575662,0.0
4530408662.893,-13.445031653544495,0.0,-3.1278908383104342,0.0
4530423662.8925,-13.428687887278773,0.0,-3.1495076190195768,0.0
4530438662.892,-13.43742292469981,0.0,-3.1760782237393235,0.0
4530453662.8915,-13.429049368061355,0.0,-3.1116498110640016,0.0
4530468662.891,-13.429310895734947,0.0,-3.2022209477622674,0.0
4530483662.8905,-13.438615295262942,0.0,-3.1656132257914367,0.0
4530498662.89,-13.441970307807885,0.0,-3.174724245826148,0.0
4530513662.8895,-13.442737779371203,0.0,-3.164057534279436,0.0
4530528662.889,-13.437231774316,0.0,-3.0815423543004448,0.0
4530543662.8885,-13.436118662799998,0.0,-3.099824226916297,0.0
4530558662.888,-13.434404386539953,0.0,-3.1369537872433657,0.0
4530573662.8875,-13.42910560091907,0.0,-3.074831454150915,0.0
4530588662.887,-13.429911844986158,0.0,-3.1614613585922227,0.0
4530603662.8865,-13.436006812039691,0.0,-3.182290283643751,0.0
4530618662.886,-13.441069516727211,0.0,-3.159686016747563,0.0
4530633662.8855,-13.428304448965845,0.0,-3.2034025619767754,0.0
4530648662.885,-13.434326438898198,0.0,-3.145328039238585,0.0
4530663662.8845,-13.429749321076706,0.0,-3.161193407991482,0.0
4530678662.884,-13.439471917803079,0.0,-3.156178770215277,0.0
4530693662.8835,-13.425256766144189,0.0,-3.2104930202486246,0.0
4530708662.883,-13.43213632111768,0.0,-3.251221528321617,0.0
4530723662.8825,-13.445181928605798,0.0,-3.214626758395815,0.0
4530738662.882,-13.419040372315136,0.0,-3.204591613332728,0.0
4530753662.8815,-13.440442928979701,0.0,-3.214012534917588,0.0
4530768662.881,-13.437386303701702,0.0,-3.1768826887336594,0.0
4530783662.8805,-13.430603983162497,0.0,-3.2335362021512357,0.0
4530798662.88,-13.438819570525855,0.0,-3.1737081809518646,0.0
4530813662.8795,-13.428261567301112,0.0,-3.16747079376937,0.0
4530828662.879,-13.435846082384465,0.0,-3.254175638992278,0.0
4530843662.8785,-13.434316232026571,0.0,-3.2755924065242006,0.0
4530858662.878,-13.438091961893674,0.0,-3.223639381336143,0.0
4530873662.8775,-13.433891640842576,0.0,-3.2023311643597108,0.0
4530888662.877,-13.439855969580833,0.0,-3.2155531500685286,0.0
4530903662.8765,-13.442094231046006,0.0,-3.2311273727280465,0.0
4530918662.876,-13.434286417478623,0.0,-3.1971677139998116,0.0
4530933662.8755,-13.437852226126756,0.0,-3.221602926183552,0.0
4530948662.875,-13.442630756478323,0.0,-3.28354746374143,0.0
4530963662.8745,-13.437073178100999,0.0,-3.175911912699955,0.0
4530978662.874,-13.437082816168523,0.0,-3.237779598411347,0.0
4530993662.8735,-13.432470662788035,0.0,-3.28716834445441,0.0
4531008662.873,-13.43565310908314,0.0,-3.278048918698932,0.0
4531023662.8725,-13.432183742585917,0.0,-3.311627816477939,0.0
4531038662.872,-13.435058397929996,0.0,-3.2718485532094093,0.0
4531053662.8715,-13.43606642134014,0.0,-3.231947167233284,0.0
4531068662.871,-13.430981951065707,0.0,-3.243244372910461,0.0
4531083662.8705,-13.431864417031553,0.0,-3.27320700721647,0.0
4531098662.87,-13.429313179870995,0.0,-3.290845300900749,0.0
4531113662.8695,-13.436771628625904,0.0,-3.3140622479897552,0.0
4531128662.869,-13.441904241318014,0.0,-3.250341435894918,0.0
4531143662.8685,-13.43417122658584,0.0,-3.3738679340391347,0.0
4531158662.868,-13.437272657006856,0.0,-3.360433770723821,0.0
4531173662.8675,-13.43766540997969,0.0,-3.328922682323105,0.0
4531188662.867,-13.445195836946052,0.0,-3.326214406246808,0.0
4531203662.8665,-13.44785239390376,0.0,-3.3216822551257636,0.0
4531218662.866,-13.437898666358542,0.0,-3.355587005165741,0.0
4531233662.8655,-13.44329072003303,0.0,-3.3385862444872427,0.0
4531248662.865,-13.428519246774561,0.0,-3.347858226689893,0.0
4531263662.8645,-13.433248638036616,0.0,-3.339765819442935,0.0
4531278662.864,-13.431427804188447,0.0,-3.3165208994087307,0.0
4531293662.8635,-13.439316309487614,0.0,-3.3635540188152766,0.0
4531308662.863,-13.445787659803797,0.0,-3.3457407504422076,0.0
4531323662.8625,-13.433305927183065,0.0,-3.364368251297835,0.0
4531338662.862,-13.438465003889435,0.0,-3.322031838388295,0.0
4531353662.8615,-13.429013393919691,0.0,-3.38854326350728,0.0
4531368662.861,-13.444226620683155,0.0,-3.355197679982454,0.0
4531383662.8605,-13.440524895314454,0.0,-3.4162786641488756,0.0
4531398662.86,-13.429380217333327,0.0,-3.3382994114952655,0.0
4531413662.8595,-13.440025097035672,0.0,-3.361667769562567,0.0
4531428662.859,-13.43178040710593,0.0,-3.403854738230605,0.0
4531443662.8585,-13.43551117426326,0.0,-3.3714170205477982,0.0
4531458662.858,-13.440773310127161,0.0,-3.3760346043794986,0.0
4531473662.8575,-13.42766137837178,0.0,-3.3343244032183024,0.0
4531488662.857,-13.443061641227779,0.0,-3.388358357292835,0.0
4531503662.8565,-13.43021581352292,0.0,-3.369391512813482,0.0
4531518662.856,-13.43606464395224,0.0,-3.387482035895421,0.0
4531533662.8555,-13.42977854476187,0.0,-3.388811006966693,0.0
4531548662.855,-13.4347901040021,0.0,-3.372998098519737,0.0
4531563662.8545,-13.438693846349386,0.0,-3.4000018982742226,0.0
4531578662.854,-13.447857973381135,0.0,-3.4875570956644175,0.0
4531593662.8535,-13.439018904850347,0.0,-3.4035217510063323,0.0
4531608662.853,-13.440720935528143,0.0,-3.4338495292749522,0.0
4531623662.8525,-13.436444238207983,0.0,-3.4536166187982507,0.0
4531638662.852,-13.431169068140926,0.0,-3.3730547682582857,0.0
4531653662.8515,-13.437492204335125,0.0,-3.422255111802946,0.0
4531668662.851,-13.450742011947748,0.0,-3.4127171030843946,0.0
4531683662.8505,-13.443704630291982,0.0,-3.372862641590216,0.0
4531698662.85,-13.436355868306318,0.0,-3.4378217812533363,0.0
4531713662.8495,-13.436406142740898,0.0,-3.40145153654814,0.0
4531728662.849,-13.435442589541557,0.0,-3.4483832932693685,0.0
4531743662.8485,-13.437142829535096,0.0,-3.4594616630335313,0.0
4531758662.848,-13.4362597668257,0.0,-3.455703809042787,0.0
4531773662.8475,-13.439190975375311,0.0,-3.4613064133410574,0.0
4531788662.847,-13.437813851011304,0.0,-3.4372797205673633,0.0
4531803662.8465,-13.444309693445145,0.0,-3.4167841905322023,0.0
4531818662.846,-13.439739023754068,0.0,-3.4492840870598953,0.0
4531833662.8455,-13.435936149086746,0.0,-3.4741307401106325,0.0
4531848662.845,-13.430215939736582,0.0,-3.453200175312495,0.0
4531863662.8445,-13.433905668930215,0.0,-3.470142819402599,0.0
4531878662.844,-13.4323613963769,0.0,-3.5052417132121443,0.0
