Frequency,S11,S11-Q,S11-Phase,S11-Phase-Q
4527198663.0,-13.412631592555403,0.0,-2.423275877647354,0.0
4527213662.9995,-13.42302525669824,0.0,-2.3618534129778914,0.0
4527228662.999,-13.417748800313653,0.0,-2.3601579003349142,0.0
4527243662.9985,-13.415039664530287,0.0,-2.4542187980661994,0.0
4527258662.998,-13.41679095788417,0.0,-2.379403461113785,0.0
4527273662.9975,-13.418054147867766,0.0,-2.4291462502785963,0.0
4527288662.997,-13.415149714278217,0.0,-2.4140951561588486,0.0
4527303662.9965,-13.417872630202098,0.0,-2.404255344813768,0.0
4527318662.996,-13.413660904644802,0.0,-2.419475807664235,0.0
4527333662.9955,-13.42095043400133,0.0,-2.3950674872954694,0.0
4527348662.995,-13.416127636737489,0.0,-2.429788995866875,0.0
4527363662.9945,-13.40615819475241,0.0,-2.444522216223979,0.0
4527378662.994,-13.407891370090477,0.0,-2.375967508883646,0.0
4527393662.9935,-13.422132565236014,0.0,-2.359568731359573,0.0
4527408662.993,-13.419474971884853,0.0,-2.4360705060477446,0.0
4527423662.9925,-13.422551844173004,0.0,-2.480125106765021,0.0
4527438662.992,-13.423122489924573,0.0,-2.3885208689449016,0.0
4527453662.9915,-13.410116149659107,0.0,-2.452683626143332,0.0
4527468662.991,-13.418835805463623,0.0,-2.4337901179586594,0.0
4527483662.9905,-13.4141670057451,0.0,-2.46557121492186,0.0
4527498662.99,-13.412667126170257,0.0,-2.417192263171772,0.0
4527513662.9895,-13.41703890136693,0.0,-2.4514747777165464,0.0
4527528662.989,-13.40641950415443,0.0,-2.466564016635669,0.0
4527543662.9885,-13.426374132123357,0.0,-2.42391519498293,0.0
4527558662.988,-13.421711434437269,0.0,-2.461432913293199,0.0
4527573662.9875,-13.421275944688176,0.0,-2.4845310673966345,0.0
4527588662.987,-13.417656361795167,0.0,-2.4573548095689657,0.0
4527603662.9865,-13.42136102199592,0.0,-2.4652770585623474,0.0
4527618662.986,-13.42224919139911,0.0,-2.430860925283584,0.0
4527633662.9855,-13.420577754871417,0.0,-2.450638294030271,0.0
4527648662.985,-13.415534666829226,0.0,-2.534829118349152,0.0
4527663662.9845,-13.420770283552244,0.0,-2.4499133619112237,0.0
4527678662.984,-13.414850013277968,0.0,-2.44367522109399,0.0
4527693662.9835,-13.420637988863726,0.0,-2.4307971876467045,0.0
4527708662.983,-13.410080470027285,0.0,-2.498962128337947,0.0
4527723662.9825,-13.42018110069074,0.0,-2.410931391456725,0.0
4527738662.982,-13.413899264349883,0.0,-2.493003349274895,0.0
4527753662.9815,-13.41724830128084,0.0,-2.5027869057665963,0.0
4527768662.981,-13.42068026745964,0.0,-2.444118448039388,0.0
4527783662.9805,-13.420380471211136,0.0,-2.5015223697556217,0.0
4527798662.98,-13.418769227836748,0.0,-2.4632829074644227,0.0
4527813662.9795,-13.413988468967602,0.0,-2.526161862514608,0.0
4527828662.979,-13.41847775188654,0.0,-2.387469359745724,0.0
4527843662.9785,-13.415564761636471,0.0,-2.491785989372771,0.0
4527858662.978,-13.415386976235244,0.0,-2.4981065131903484,0.0
4527873662.9775,-13.417264311873176,0.0,-2.377118304264653,0.0
4527888662.977,-13.40963203525533,0.0,-2.4926823040700423,0.0
4527903662.9765,-13.422424559868713,0.0,-2.498219258878372,0.0
4527918662.976,-13.428305566811776,0.0,-2.483537558879412,0.0
4527933662.9755,-13.4205671179784,0.0,-2.486884986783022,0.0
4527948662.975,-13.418343509118152,0.0,-2.518464282594951,0.0
4527963662.9745,-13.415363151551333,0.0,-2.505770384878298,0.0
4527978662.974,-13.416323607585827,0.0,-2.4673979425914787,0.0
4527993662.9735,-13.417888121421264,0.0,-2.4697380957722523,0.0
4528008662.973,-13.416773173937456,0.0,-2.506926525020982,0.0
4528023662.9725,-13.42497029715021,0.0,-2.493927874372419,0.0
4528038662.972,-13.417212799140545,0.0,-2.473614707733269,0.0
4528053662.9715,-13.41902592851661,0.0,-2.554729160320551,0.0
4528068662.971,-13.4106739023362,0.0,-2.4780216632743906,0.0
4528083662.9705,-13.421721908359892,0.0,-2.5590321490343357,0.0
4528098662.97,-13.423660948445857,0.0,-2.5273128012510373,0.0
4528113662.9695,-13.411710308110791,0.0,-2.437803146608331,0.0
4528128662.969,-13.420207310779478,0.0,-2.5368510248213183,0.0
4528143662.9685,-13.418544116800552,0.0,-2.547201708582032,0.0
4528158662.968,-13.417389602786232,0.0,-2.5418565964976403,0.0
4528173662.9675,-13.425522298798178,0.0,-2.503128920783662,0.0
4528188662.967,-13.424505337741357,0.0,-2.4859381758284758,0.0
4528203662.9665,-13.429803720828087,0.0,-2.5897882982885014,0.0
4528218662.966,-13.414827167360146,0.0,-2.514294772964342,0.0
4528233662.9655,-13.418615409967343,0.0,-2.549736057287105,0.0
4528248662.965,-13.413261550586608,0.0,-2.5659860713107827,0.0
4528263662.9645,-13.408781916661747,0.0,-2.5055975572264435,0.0
4528278662.964,-13.416976827014484,0.0,-2.569999932557292,0.0
4528293662.9635,-13.414888021152922,0.0,-2.546780989536067,0.0
4528308662.963,-13.41754187810578,0.0,-2.5869153779275433,0.0
4528323662.9625,-13.429974398621805,0.0,-2.545714151142787,0.0
4528338662.962,-13.422725892664824,0.0,-2.598616037088063,0.0
4528353662.9615,-13.415058678101452,0.0,-2.55219722596119,0.0
4528368662.961,-13.405079172081233,0.0,-2.5843404299874257,0.0
4528383662.9605,-13.416485657593984,0.0,-2.5782234963838606,0.0
4528398662.96,-13.419156467875801,0.0,-2.5259470601199867,0.0
4528413662.9595,-13.418340136769553,0.0,-2.549542795270007,0.0
4528428662.959,-13.424703854278128,0.0,-2.5593901954290526,0.0
4528443662.9585,-13.423339649160567,0.0,-2.572477599688939,0.0
4528458662.958,-13.421776869474996,0.0,-2.6129993238148526,0.0
4528473662.9575,-13.413212603390239,0.0,-2.629876876944718,0.0
4528488662.957,-13.414748295537846,0.0,-2.631645170473207,0.0
4528503662.9565,-13.418083046758795,0.0,-2.5631929090782726,0.0
4528518662.956,-13.417075894339428,0.0,-2.559391673326475,0.0
4528533662.9555,-13.417817012362578,0.0,-2.5687744366186966,0.0
4528548662.955,-13.419142181983915,0.0,-2.574298159939199,0.0
4528563662.9545,-13.425784108118158,0.0,-2.5221028290898557,0.0
4528578662.954,-13.421809912657368,0.0,-2.574061392101215,0.0
4528593662.9535,-13.42348226522686,0.0,-2.5734415966080437,0.0
4528608662.953,-13.418319058868198,0.0,-2.576161072110939,0.0
4528623662.9525,-13.421800235395526,0.0,-2.6254452853153825,0.0
4528638662.952,-13.415861516674969,0.0,-2.612530175148498,0.0
4528653662.9515,-13.4221823771205,0.0,-2.6258993246719213,0.0
4528668662.951,-13.433252315326683,0.0,-2.5689367623561434,0.0
4528683662.9505,-13.424860587675266,0.0,-2.5786844986008486,0.0
4528698662.95,-13.42658009209822,0.0,-2.6270321394308587,0.0
4528713662.9495,-13.422513797941082,0.0,-2.610795897439688,0.0
4528728662.949,-13.418235576081535,0.0,-2.6288929702837285,0.0
4528743662.9485,-13.420861929969428,0.0,-2.6689596167589027,0.0
4528758662.948,-13.417642983616549,0.0,-2.7030923717150395,0.0
4528773662.9475,-13.416820406134221,0.0,-2.634397982783437,0.0
4528788662.947,-13.41620715430454,0.0,-2.6406753063410955,0.0
4528803662.9465,-13.424027031589599,0.0,-2.614596321990579,0.0
4528818662.946,-13.429592089153669,0.0,-2.631310294873841,0.0
4528833662.9455,-13.416283805605115,0.0,-2.595629807486998,0.0
4528848662.945,-13.424064114455215,0.0,-2.696133939503548,0.0
4528863662.9445,-13.426352111573859,0.0,-2.6213026969920112,0.0
4528878662.944,-13.41248859511506,0.0,-2.5896516645765835,0.0
4528893662.9435,-13.425384550464328,0.0,-2.6542964443342,0.0
4528908662.943,-13.41179241875501,0.0,-2.645415505152535,0.0
4528923662.9425,-13.413182381562915,0.0,-2.6818428724496863,0.0
4528938662.942,-13.420135165035346,0.0,-2.647736881190341,0.0
4528953662.9415,-13.421333179000365,0.0,-2.68310261617376,0.0
4528968662.941,-13.417770874270005,0.0,-2.6801922513116616,0.0
4528983662.9405,-13.424053727565589,0.0,-2.618445477322237,0.0
4528998662.94,-13.430015139458977,0.0,-2.696662196735773,0.0
4529013662.9395,-13.422742153889914,0.0,-2.659322352797287,0.0
4529028662.939,-13.414604894191648,0.0,-2.655949472880329,0.0
4529043662.9385,-13.426137412423467,0.0,-2.6603892869350907,0.0
4529058662.938,-13.423034951957632,0.0,-2.6896299574805034,0.0
4529073662.9375,-13.429901151026558,0.0,-2.6014415695647384,0.0
4529088662.937,-13.420415049492647,0.0,-2.6794310788045914,0.0
4529103662.9365,-13.42782391301146,0.0,-2.6703984796323135,0.0
4529118662.936,-13.4195897048534,0.0,-2.6358789747439335,0.0
4529133662.9355,-13.418851855930093,0.0,-2.7063929907016147,0.0
4529148662.935,-13.41533620705702,0.0,-2.697695805860721,0.0
4529163662.9345,-13.422860610300303,0.0,-2.7294042898780124,0.0
4529178662.934,-13.41670591406039,0.0,-2.6597315884644006,0.0
4529193662.9335,-13.431415430451318,0.0,-2.7403477857769,0.0
4529208662.933,-13.428428366313025,0.0,-2.697217560154113,0.0
4529223662.9325,-13.420593529041922,0.0,-2.652379174222327,0.0
4529238662.932,-13.425719047410503,0.0,-2.7163587895847505,0.0
4529253662.9315,-13.418170342523695,0.0,-2.7223825861454123,0.0
4529268662.931,-13.424785073812027,0.0,-2.7464288016145435,0.0
4529283662.9305,-13.41709740821419,0.0,-2.705384542732216,0.0
4529298662.93,-13.412487069376004,0.0,-2.7313458856741293,0.0
4529313662.9295,-13.41891784748336,0.0,-2.732474195969737,0.0
4529328662.929,-13.41618309672185,0.0,-2.725395668198659,0.0
4529343662.9285,-13.42023122385411,0.0,-2.7295568145451115,0.0
4529358662.928,-13.42158276406441,0.0,-2.7259167331892145,0.0
4529373662.9275,-13.415516266344653,0.0,-2.720038256911904,0.0
4529388662.927,-13.423326290875279,0.0,-2.727996089231377,0.0
4529403662.9265,-13.42263837077665,0.0,-2.7281967353415117,0.0
4529418662.926,-13.421762144883438,0.0,-2.7175683500919945,0.0
4529433662.9255,-13.416454192380291,0.0,-2.7048433443779314,0.0
4529448662.925,-13.424272175125749,0.0,-2.793389681155692,0.0
4529463662.9245,-13.419316821095135,0.0,-2.7290814246821284,0.0
4529478662.924,-13.425682496047335,0.0,-2.7151544174295243,0.0
4529493662.9235,-13.42380416570175,0.0,-2.74334169498388,0.0
4529508662.923,-13.424362870804469,0.0,-2.7406176090869203,0.0
4529523662.9225,-13.418801201785273,0.0,-2.759254054998019,0.0
4529538662.922,-13.419267218769786,0.0,-2.7456712718399188,0.0
4529553662.9215,-13.417575032506983,0.0,-2.749109136505336,0.0
4529568662.921,-13.417206981885263,0.0,-2.782561406872348,0.0
4529583662.9205,-13.41363285774922,0.0,-2.766146166463511,0.0
4529598662.92,-13.421400779258,0.0,-2.7432879374050843,0.0
4529613662.9195,-13.428819279702381,0.0,-2.791115374128402,0.0
4529628662.919,-13.424226526892316,0.0,-2.7864862204433263,0.0
4529643662.9185,-13.417264963173444,0.0,-2.8254748183827654,0.0
4529658662.918,-13.426236107002023,0.0,-2.7908549593184038,0.0
4529673662.9175,-13.40752839993568,0.0,-2.800005253906805,0.0
4529688662.917,-13.421220796325137,0.0,-2.8017752534189,0.0
4529703662.9165,-13.421184776898185,0.0,-2.8327871698193183,0.0
4529718662.916,-13.429479741493944,0.0,-2.8020193099448902,0.0
4529733662.9155,-13.433578528242258,0.0,-2.7625810123770282,0.0
4529748662.915,-13.42108279570888,0.0,-2.7856687106280935,0.0
4529763662.9145,-13.428079867742678,0.0,-2.7580706825400165,0.0
4529778662.914,-13.423348975109207,0.0,-2.801959972898399,0.0
4529793662.9135,-13.426880648983332,0.0,-2.8256967238924364,0.0
4529808662.913,-13.429260893773966,0.0,-2.8332908754379558,0.0
4529823662.9125,-13.420715724309552,0.0,-2.847203979285217,0.0
4529838662.912,-13.42420523391182,0.0,-2.7609491723638313,0.0
4529853662.9115,-13.428651355569556,0.0,-2.8120163660190944,0.0
4529868662.911,-13.42354540362434,0.0,-2.8069114024747845,0.0
4529883662.9105,-13.424438045743983,0.0,-2.8898936125323185,0.0
4529898662.91,-13.421068382613303,0.0,-2.7747161088209147,0.0
4529913662.9095,-13.41390036177497,0.0,-2.7925159899880128,0.0
4529928662.909,-13.418393447880126,0.0,-2.82048493065347,0.0
4529943662.9085,-13.422835477937978,0.0,-2.8774413679296393,0.0
4529958662.908,-13.431654838394758,0.0,-2.763802070621941,0.0
4529973662.9075,-13.42597767938818,0.0,-2.8342188175036878,0.0
4529988662.907,-13.428620846152297,0.0,-2.8654314147400575,0.0
4530003662.9065,-13.434195567479733,0.0,-2.8316555486488943,0.0
4530018662.906,-13.426949446798705,0.0,-2.879648141817804,0.0
4530033662.9055,-13.422176469727143,0.0,-2.9009399281131554,0.0
4530048662.905,-13.416582982184089,0.0,-2.867844719135941,0.0
4530063662.9045,-13.431989770791317,0.0,-2.866773483336584,0.0
4530078662.904,-13.419871327960864,0.0,-2.895525984657534,0.0
4530093662.9035,-13.421481689007628,0.0,-2.8495507110295293,0.0
4530108662.903,-13.419967823763985,0.0,-2.8333546166940016,0.0
4530123662.9025,-13.427097864709193,0.0,-2.834675777099165,0.0
4530138662.902,-13.423884719258847,0.0,-2.8970107471803908,0.0
4530153662.9015,-13.423310423206347,0.0,-2.9122032592382645,0.0
4530168662.901,-13.424441578099579,0.0,-2.9143962779736112,0.0
4530183662.9005,-13.421761885849989,0.0,-2.8597716203430825,0.0
4530198662.9,-13.41796390659011,0.0,-2.904422525106112,0.0
4530213662.8995,-13.418465671743519,0.0,-2.862108914136389,0.0
4530228662.899,-13.42085927962713,0.0,-2.921486415409368,0.0
4530243662.8985,-13.419420676885723,0.0,-2.8682383774304774,0.0
4530258662.898,-13.42883461482004,0.0,-2.9327301428594756,0.0
4530273662.8975,-13.417256197454652,0.0,-2.938438378337372,0.0
4530288662.897,-13.426175307211548,0.0,-2.8622500792579317,0.0
4530303662.8965,-13.425933574771864,0.0,-2.9083266688573537,0.0
4530318662.896,-13.416371280118252,0.0,-2.873714030923944,0.0
4530333662.8955,-13.428013357322502,0.0,-2.8977005755665948,0.0
4530348662.895,-13.41953186963526,0.0,-2.9373480053579066,0.0
4530363662.8945,-13.420385060577418,0.0,-2.9144212826221287,0.0
4530378662.894,-13.437550369804391,0.0,-2.894343760354197,0.0
4530393662.8935,-13.426865509289945,0.0,-2.947606130847116,0.0
4530408662.893,-13.418341388975106,0.0,-2.8323574374342178,0.0
4530423662.8925,-13.430821762731531,0.0,-2.9098522609538886,0.0
4530438662.892,-13.4265513997756,0.0,-2.919104453020662,0.0
4530453662.8915,-13.409202518925307,0.0,-2.9390464417251687,0.0
4530468662.891,-13.418994216792072,0.0,-2.9188696095543105,0.0
4530483662.8905,-13.419528791034095,0.0,-2.92014125368937,0.0
4530498662.89,-13.42167424752073,0.0,-2.9164960638718807,0.0
4530513662.8895,-13.430161984334713,0.0,-2.9396076245794602,0.0
4530528662.889,-13.431708242821106,0.0,-2.8961534105911544,0.0
4530543662.8885,-13.425478832703588,0.0,-2.896666763028031,0.0
4530558662.888,-13.426512167835934,0.0,-2.9281394240546375,0.0
4530573662.8875,-13.42678304584368,0.0,-2.9374949303064004,0.0
4530588662.887,-13.41632340436912,0.0,-2.984465945657109,0.0
4530603662.8865,-13.42319323908675,0.0,-2.916673277898942,0.0
4530618662.886,-13.420449146704295,0.0,-2.934440733892777,0.0
4530633662.8855,-13.432000496903116,0.0,-2.964459876743457,0.0
4530648662.885,-13.431540467617003,0.0,-2.89286886556349,0.0
4530663662.8845,-13.417889218601388,0.0,-2.9893280372343582,0.0
4530678662.884,-13.426870574363686,0.0,-2.9316098520751956,0.0
4530693662.8835,-13.433642140010706,0.0,-2.9827203838809146,0.0
4530708662.883,-13.422071696523215,0.0,-2.9769958635654423,0.0
4530723662.8825,-13.419108229082582,0.0,-3.053388702951264,0.0
4530738662.882,-13.426010641478756,0.0,-2.9512933223982576,0.0
4530753662.8815,-13.423276618529506,0.0,-2.9744403621777735,0.0
4530768662.881,-13.421660467999226,0.0,-2.997918524552117,0.0
4530783662.8805,-13.424438325881528,0.0,-3.0209241750997675,0.0
4530798662.88,-13.42197035029076,0.0,-2.974049261910693,0.0
4530813662.8795,-13.430735312062627,0.0,-3.0441450874012914,0.0
4530828662.879,-13.429402651232042,0.0,-3.0143497158403987,0.0
4530843662.8785,-13.433338770205904,0.0,-3.0699642664967324,0.0
4530858662.878,-13.418348533408981,0.0,-2.9725866583855147,0.0
4530873662.8775,-13.42299686608531,0.0,-3.048691090079378,0.0
4530888662.877,-13.420857711110518,0.0,-3.0782428095704377,0.0
4530903662.8765,-13.422758372623306,0.0,-2.9999041709937138,0.0
4530918662.876,-13.4281369535983,0.0,-3.088790512481182,0.0
4530933662.8755,-13.43293943646888,0.0,-3.064664895264205,0.0
4530948662.875,-13.4280137382334,0.0,-3.0093646562572616,0.0
4530963662.8745,-13.422745766029456,0.0,-3.0632440516542934,0.0
4530978662.874,-13.42334289948024,0.0,-3.0086904453026735,0.0
4530993662.8735,-13.424092743181665,0.0,-3.0815057100868897,0.0
4531008662.873,-13.424157826472374,0.0,-3.0934081729632354,0.0
4531023662.8725,-13.4291300088228,0.0,-3.010691356414896,0.0
4531038662.872,-13.427300377427185,0.0,-3.0850777829248566,0.0
4531053662.8715,-13.430966195864558,0.0,-3.07038358376754,0.0
4531068662.871,-13.432235112108216,0.0,-3.039486064804034,0.0
4531083662.8705,-13.428554141256937,0.0,-3.0794682941367713,0.0
4531098662.87,-13.421989907573671,0.0,-3.06835487079014,0.0
4531113662.8695,-13.423421342648691,0.0,-3.0544530569588706,0.0
4531128662.869,-13.4311421430292,0.0,-3.062812280128169,0.0
4531143662.8685,-13.432163516286202,0.0,-3.071593924642502,0.0
4531158662.868,-13.428628993792795,0.0,-3.170475740445263,0.0
4531173662.8675,-13.429162734769145,0.0,-3.069735904714437,0.0
4531188662.867,-13.431537633792622,0.0,-3.1155843716860137,0.0
4531203662.8665,-13.427110968251778,0.0,-3.116323666423702,0.0
4531218662.866,-13.42443793356409,0.0,-3.112723326734129,0.0
4531233662.8655,-13.428653369420342,0.0,-3.1113913967266935,0.0
4531248662.865,-13.420090962437527,0.0,-3.1424822412880635,0.0
4531263662.8645,-13.423528119498503,0.0,-3.127309944089122,0.0
4531278662.864,-13.42693999815247,0.0,-3.03526885300467,0.0
4531293662.8635,-13.431939572718248,0.0,-3.1025210190864363,0.0
4531308662.863,-13.434350988046454,0.0,-3.105802954315461,0.0
4531323662.8625,-13.427019245471868,0.0,-3.1049367803465295,0.0
4531338662.862,-13.430735581831746,0.0,-3.1801737446205576,0.0
4531353662.8615,-13.424111309845097,0.0,-3.1885818628453726,0.0
4531368662.861,-13.43780709433636,0.0,-3.1479605986763386,0.0
4531383662.8605,-13.41940016901689,0.0,-3.095212943172515,0.0
4531398662.86,-13.431008236474637,0.0,-3.1272838127680243,0.0
4531413662.8595,-13.432662855797293,0.0,-3.1535710428395225,0.0
4531428662.859,-13.422767693707678,0.0,-3.1701879980031116,0.0
4531443662.8585,-13.43346093628556,0.0,-3.102086435269085,0.0
4531458662.858,-13.43687311431279,0.0,-3.1739908611917604,0.0
4531473662.8575,-13.4272814353826,0.0,-3.1389669384274117,0.0
4531488662.857,-13.436198012131195,0.0,-3.178581261615452,0.0
4531503662.8565,-13.436117415317295,0.0,-3.1149347798743907,0.0
4531518662.856,-13.421579792529135,0.0,-3.147423843932389,0.0
4531533662.8555,-13.417823743484876,0.0,-3.1858733891723996,0.0
4531548662.855,-13.42787309881706,0.0,-3.1252716480825145,0.0
4531563662.8545,-13.430969965616388,0.0,-3.194734244792821,0.0
4531578662.854,-13.432586555095416,0.0,-3.174560166286214,0.0
4531593662.8535,-13.432394291739344,0.0,-3.202782604537321,0.0
4531608662.853,-13.435579722442563,0.0,-3.1699874312870886,0.0
4531623662.8525,-13.429250302085576,0.0,-3.1826364775307536,0.0
4531638662.852,-13.424479708693116,0.0,-3.210246010894991,0.0
4531653662.8515,-13.432817033089357,0.0,-3.2282033894587987,0.0
4531668662.851,-13.441829921346567,0.0,-3.2002463042862663,0.0
4531683662.8505,-13.432281684992965,0.0,-3.1153551648641145,0.0
4531698662.85,-13.437882523004847,0.0,-3.1096621992568223,0.0
4531713662.8495,-13.439897363091797,0.0,-3.252021109660247,0.0
4531728662.849,-13.426837206331275,0.0,-3.2199800068736244,0.0
4531743662.8485,-13.435238059932802,0.0,-3.2282123977884365,0.0
4531758662.848,-13.428453996714227,0.0,-3.2616264346245267,0.0
4531773662.8475,-13.43111739721229,0.0,-3.1567162787704315,0.0
4531788662.847,-13.428379420967818,0.0,-3.2556207544923543,0.0
4531803662.8465,-13.432498208619549,0.0,-3.2572600597285626,0.0
4531818662.846,-13.426492724326804,0.0,-3.1796978567630494,0.0
4531833662.8455,-13.429959503402543,0.0,-3.283929020682233,0.0
4531848662.845,-13.43043156660418,0.0,-3.236868593138377,0.0
4531863662.8445,-13.430597603553005,0.0,-3.2276549351808534,0.0
4531878662.844,-13.428143988542654,0.0,-3.2364977540313826,0.0
