Frequency,S11,S11-Q,S11-Phase,S11-Phase-Q
4527198663.0,-13.414808789448502,0.0,-2.397733104729925,0.0
4527213662.9995,-13.415993844844733,0.0,-2.4239147154280025,0.0
4527228662.999,-13.418469431286354,0.0,-2.4195718900399146,0.0
4527243662.9985,-13.412638070472546,0.0,-2.3998855764312266,0.0
4527258662.998,-13.412039231436612,0.0,-2.3660367852851105,0.0
4527273662.9975,-13.417274504356861,0.0,-2.3964882391567057,0.0
4527288662.997,-13.424571970880688,0.0,-2.3571875696582305,0.0
4527303662.9965,-13.409269474894312,0.0,-2.432002849440173,0.0
4527318662.996,-13.415449725828454,0.0,-2.4115348794882836,0.0
4527333662.9955,-13.424243015500556,0.0,-2.389099105654094,0.0
4527348662.995,-13.415047381678738,0.0,-2.372372849819183,0.0
4527363662.9945,-13.411537524365274,0.0,-2.432479068415859,0.0
4527378662.994,-13.412558647330721,0.0,-2.4588763595866037,0.0
4527393662.9935,-13.403208038893988,0.0,-2.406355430991035,0.0
4527408662.993,-13.416944516425374,0.0,-2.4151384060921477,0.0
4527423662.9925,-13.424335931472093,0.0,-2.442525759760712,0.0
4527438662.992,-13.42305695905215,0.0,-2.4529219188716023,0.0
4527453662.9915,-13.40561105369906,0.0,-2.4147823779852824,0.0
4527468662.991,-13.410878917326464,0.0,-2.4007156092815722,0.0
4527483662.9905,-13.417944165051026,0.0,-2.477821287456889,0.0
4527498662.99,-13.406808324883313,0.0,-2.43211607949166,0.0
4527513662.9895,-13.417725737799103,0.0,-2.4246718550723725,0.0
4527528662.989,-13.411300291109105,0.0,-2.435417484042898,0.0
4527543662.9885,-13.419399844797937,0.0,-2.356647208740029,0.0
4527558662.988,-13.421124451346806,0.0,-2.4507701749229063,0.0
4527573662.9875,-13.42313306192719,0.0,-2.4426293689931,0.0
4527588662.987,-13.415570801379191,0.0,-2.5174358550392792,0.0
4527603662.9865,-13.419410025933196,0.0,-2.4803203213250966,0.0
4527618662.986,-13.41164011398152,0.0,-2.488738929077946,0.0
4527633662.9855,-13.419942352265597,0.0,-2.4819581732592058,0.0
4527648662.985,-13.423014051930313,0.0,-2.418476610041166,0.0
4527663662.9845,-13.41424606089011,0.0,-2.5107020608421737,0.0
4527678662.984,-13.41598919345914,0.0,-2.4847732059729633,0.0
4527693662.9835,-13.421810029802595,0.0,-2.4239155070817793,0.0
4527708662.983,-13.424563085682092,0.0,-2.4528721250842884,0.0
4527723662.9825,-13.41876785210964,0.0,-2.50327174550337,0.0
4527738662.982,-13.410054628997447,0.0,-2.4930970175304967,0.0
4527753662.9815,-13.409789716165875,0.0,-2.5091975948972665,0.0
4527768662.981,-13.40825615154628,0.0,-2.4162284340590965,0.0
4527783662.9805,-13.415459765730407,0.0,-2.462541565416164,0.0
4527798662.98,-13.412802539052372,0.0,-2.4763150576872444,0.0
4527813662.9795,-13.41115054892948,0.0,-2.511419180140234,0.0
4527828662.979,-13.414863552201675,0.0,-2.4857642647099563,0.0
4527843662.9785,-13.418602937270965,0.0,-2.4817247155055084,0.0
4527858662.978,-13.413842908620033,0.0,-2.4747953769551243,0.0
4527873662.9775,-13.42302934557412,0.0,-2.477815130676366,0.0
4527888662.977,-13.42447175978358,0.0,-2.485173290015151,0.0
4527903662.9765,-13.41871415002992,0.0,-2.4936556824975717,0.0
4527918662.976,-13.407574468205679,0.0,-2.491304658011234,0.0
4527933662.9755,-13.4079207259518,0.0,-2.5064372111217548,0.0
4527948662.975,-13.414416674667759,0.0,-2.5097933413661204,0.0
4527963662.9745,-13.420304698838216,0.0,-2.4752840146742368,0.0
4527978662.974,-13.412411806735722,0.0,-2.526566041682541,0.0
4527993662.9735,-13.408907899136784,0.0,-2.5036665942099985,0.0
4528008662.973,-13.428586340234803,0.0,-2.551807849074489,0.0
4528023662.9725,-13.413429217046405,0.0,-2.568270704572833,0.0
4528038662.972,-13.416810818049086,0.0,-2.491972519871302,0.0
4528053662.9715,-13.415824362988287,0.0,-2.5662726033949674,0.0
4528068662.971,-13.425582684114746,0.0,-2.4823668041708298,0.0
4528083662.9705,-13.419059287294456,0.0,-2.504816501023891,0.0
4528098662.97,-13.411079787242745,0.0,-2.5012901383029518,0.0
4528113662.9695,-13.416205911130481,0.0,-2.5248361980038134,0.0
4528128662.969,-13.415853838216332,0.0,-2.563265426262556,0.0
4528143662.9685,-13.410228247396983,0.0,-2.519624319118049,0.0
4528158662.968,-13.427027085245957,0.0,-2.5099503178711964,0.0
4528173662.9675,-13.420756909697102,0.0,-2.5154490360878126,0.0
4528188662.967,-13.415093543634924,0.0,-2.550175071042455,0.0
4528203662.9665,-13.423193856074292,0.0,-2.500803078519789,0.0
4528218662.966,-13.425382532269289,0.0,-2.5630490781752937,0.0
4528233662.9655,-13.414556572246061,0.0,-2.568360902305597,0.0
4528248662.965,-13.422041114766197,0.0,-2.554650815588684,0.0
4528263662.9645,-13.417283125468654,0.0,-2.567697484242319,0.0
4528278662.964,-13.40676800837583,0.0,-2.5216254136268574,0.0
4528293662.9635,-13.404793744199324,0.0,-2.527877479338376,0.0
4528308662.963,-13.417923048452176,0.0,-2.5505598470279627,0.0
4528323662.9625,-13.422971736278209,0.0,-2.5085802062536997,0.0
4528338662.962,-13.419883694018559,0.0,-2.5527693385472268,0.0
4528353662.9615,-13.421360440854574,0.0,-2.5503717944562903,0.0
4528368662.961,-13.416474553324651,0.0,-2.552625590292694,0.0
4528383662.9605,-13.430330878918046,0.0,-2.583330426937156,0.0
4528398662.96,-13.414294025801672,0.0,-2.629816256665383,0.0
4528413662.9595,-13.41274895259601,0.0,-2.506886924540772,0.0
4528428662.959,-13.413213510906905,0.0,-2.6079745627353,0.0
4528443662.9585,-13.423473617955128,0.0,-2.564051394857893,0.0
4528458662.958,-13.41389505585222,0.0,-2.5788282828510445,0.0
4528473662.9575,-13.420374354868363,0.0,-2.6090300183705373,0.0
4528488662.957,-13.429202911678912,0.0,-2.5937781350470877,0.0
4528503662.9565,-13.41676757531845,0.0,-2.5350328704852156,0.0
4528518662.956,-13.410141446134423,0.0,-2.6806557553952652,0.0
4528533662.9555,-13.4127606309074,0.0,-2.6191689753916108,0.0
4528548662.955,-13.41495513699618,0.0,-2.600601970621464,0.0
4528563662.9545,-13.42184161191881,0.0,-2.595422818844374,0.0
4528578662.954,-13.413010849203546,0.0,-2.6324393513601967,0.0
4528593662.9535,-13.407972516024243,0.0,-2.603120226304777,0.0
4528608662.953,-13.427859099044179,0.0,-2.569524149970937,0.0
4528623662.9525,-13.418109711643142,0.0,-2.516732121217177,0.0
4528638662.952,-13.41901863192253,0.0,-2.6400877880354026,0.0
4528653662.9515,-13.42489551154635,0.0,-2.6183127970761584,0.0
4528668662.951,-13.415689740339209,0.0,-2.623527991093273,0.0
4528683662.9505,-13.417606655890362,0.0,-2.634947276604121,0.0
4528698662.95,-13.41497630320018,0.0,-2.6319920061440913,0.0
4528713662.9495,-13.425798839906967,0.0,-2.5827355333413307,0.0
4528728662.949,-13.41854806526996,0.0,-2.604502479369075,0.0
4528743662.9485,-13.425600775028768,0.0,-2.6501007015050555,0.0
4528758662.948,-13.420236375135637,0.0,-2.6029505805768665,0.0
4528773662.9475,-13.421292848494703,0.0,-2.593713040835073,0.0
4528788662.947,-13.414212515537955,0.0,-2.6120374620572266,0.0
4528803662.9465,-13.416313756060138,0.0,-2.691939747729132,0.0
4528818662.946,-13.421637357693179,0.0,-2.6190647952094745,0.0
4528833662.9455,-13.410169244552986,0.0,-2.641905119512488,0.0
4528848662.945,-13.422862482597171,0.0,-2.6053474716290443,0.0
4528863662.9445,-13.424103109661056,0.0,-2.629390499516731,0.0
4528878662.944,-13.42017749477521,0.0,-2.638674153063506,0.0
4528893662.9435,-13.429447977754307,0.0,-2.6100367051509514,0.0
4528908662.943,-13.416897894977623,0.0,-2.638593367643837,0.0
4528923662.9425,-13.41819672671485,0.0,-2.6735561969691632,0.0
4528938662.942,-13.42859928559447,0.0,-2.6589105871975667,0.0
4528953662.9415,-13.419354948939484,0.0,-2.6378543569773574,0.0
4528968662.941,-13.419796292693755,0.0,-2.5832587279239814,0.0
4528983662.9405,-13.419170303857415,0.0,-2.655265923983027,0.0
4528998662.94,-13.414972925528241,0.0,-2.638511872707235,0.0
4529013662.9395,-13.424125423841748,0.0,-2.6587894769599725,0.0
4529028662.939,-13.417137229035793,0.0,-2.671893358763287,0.0
4529043662.9385,-13.425491215881713,0.0,-2.6563623220027544,0.0
4529058662.938,-13.416186535477426,0.0,-2.6995205455068336,0.0
4529073662.9375,-13.419902062389513,0.0,-2.7132721291841064,0.0
4529088662.937,-13.42247560441238,0.0,-2.673337298601306,0.0
4529103662.9365,-13.419542484870517,0.0,-2.7130963365811405,0.0
4529118662.936,-13.426719733496604,0.0,-2.700703711507436,0.0
4529133662.9355,-13.420401051326486,0.0,-2.6581031524597405,0.0
4529148662.935,-13.424765870869926,0.0,-2.7255747505540135,0.0
4529163662.9345,-13.419156345208435,0.0,-2.6477319450325965,0.0
4529178662.934,-13.418969210557176,0.0,-2.6872127956497462,0.0
4529193662.9335,-13.420331794502005,0.0,-2.645576106874225,0.0
4529208662.933,-13.423703366489208,0.0,-2.7027993653044717,0.0
4529223662.9325,-13.414909055574569,0.0,-2.7091849891444166,0.0
4529238662.932,-13.420846630337921,0.0,-2.6671465288070655,0.0
4529253662.9315,-13.4227934835404,0.0,-2.744742091157094,0.0
4529268662.931,-13.416064550698009,0.0,-2.7048296103819744,0.0
4529283662.9305,-13.429787479453353,0.0,-2.7227154586198616,0.0
4529298662.93,-13.417337656730625,0.0,-2.707093627922927,0.0
4529313662.9295,-13.40919750377239,0.0,-2.8088370987308204,0.0
4529328662.929,-13.427851500648893,0.0,-2.688608072832987,0.0
4529343662.9285,-13.413094556110572,0.0,-2.7479548852233324,0.0
4529358662.928,-13.418903664266097,0.0,-2.643964570494682,0.0
4529373662.9275,-13.416991192541916,0.0,-2.732591387072345,0.0
4529388662.927,-13.415224356644508,0.0,-2.7444740282528066,0.0
4529403662.9265,-13.427659676524035,0.0,-2.8350634477502856,0.0
4529418662.926,-13.423805020689496,0.0,-2.684955893236937,0.0
4529433662.9255,-13.424701626346174,0.0,-2.780640542527987,0.0
4529448662.925,-13.420662027009874,0.0,-2.7353853999208737,0.0
4529463662.9245,-13.425430064325406,0.0,-2.718252474396116,0.0
4529478662.924,-13.419060401617728,0.0,-2.7341961076827745,0.0
4529493662.9235,-13.424663209163407,0.0,-2.774792217928032,0.0
4529508662.923,-13.420312330371761,0.0,-2.7319649151823833,0.0
4529523662.9225,-13.421737748026207,0.0,-2.7827638470640834,0.0
4529538662.922,-13.41747715262543,0.0,-2.7448734379867283,0.0
4529553662.9215,-13.422320992004419,0.0,-2.7638415207085703,0.0
4529568662.921,-13.417611386639338,0.0,-2.7402841068001695,0.0
4529583662.9205,-13.422923314975721,0.0,-2.768083988325746,0.0
4529598662.92,-13.418846517384946,0.0,-2.7222212731163555,0.0
4529613662.9195,-13.421090987222446,0.0,-2.7882606579162648,0.0
4529628662.919,-13.418938620244203,0.0,-2.778489360846242,0.0
4529643662.9185,-13.423256100699268,0.0,-2.8170488027741207,0.0
4529658662.918,-13.415487549455579,0.0,-2.7674348496760586,0.0
4529673662.9175,-13.431413889891843,0.0,-2.814214456849986,0.0
4529688662.917,-13.426329236771418,0.0,-2.806691663951461,0.0
4529703662.9165,-13.41481981532484,0.0,-2.7860851670230793,0.0
4529718662.916,-13.417160022602157,0.0,-2.7921925384806374,0.0
4529733662.9155,-13.42231629848477,0.0,-2.876606744302661,0.0
4529748662.915,-13.416738526979817,0.0,-2.80792285853108,0.0
4529763662.9145,-13.420813206072513,0.0,-2.8408458968571586,0.0
4529778662.914,-13.422142985261903,0.0,-2.8258704760900257,0.0
4529793662.9135,-13.40764148212691,0.0,-2.7753728609481647,0.0
4529808662.913,-13.41754055001829,0.0,-2.7499118343686804,0.0
4529823662.9125,-13.422822834419222,0.0,-2.8195058332825416,0.0
4529838662.912,-13.413445779732474,0.0,-2.8078711874575277,0.0
4529853662.9115,-13.425282299231917,0.0,-2.840080890018644,0.0
4529868662.911,-13.416270699896192,0.0,-2.820966209870783,0.0
4529883662.9105,-13.424542306067016,0.0,-2.8612042116524945,0.0
4529898662.91,-13.425428046565369,0.0,-2.8170916876612826,0.0
4529913662.9095,-13.417329484016527,0.0,-2.8561867788256974,0.0
4529928662.909,-13.418549595251989,0.0,-2.793149494071447,0.0
4529943662.9085,-13.426846291923436,0.0,-2.911564095333994,0.0
4529958662.908,-13.426461256318314,0.0,-2.884463507114338,0.0
4529973662.9075,-13.423084878971284,0.0,-2.8519268441305163,0.0
4529988662.907,-13.425905015921202,0.0,-2.8642321223883047,0.0
4530003662.9065,-13.427073070911344,0.0,-2.8052319739467935,0.0
4530018662.906,-13.41398912105139,0.0,-2.802992367279087,0.0
4530033662.9055,-13.415065209105926,0.0,-2.835399914495125,0.0
4530048662.905,-13.415504978679103,0.0,-2.90597792737911,0.0
4530063662.9045,-13.422032710739249,0.0,-2.9011510644574576,0.0
4530078662.904,-13.426528362682324,0.0,-2.890484407853548,0.0
4530093662.9035,-13.424829753816196,0.0,-2.8396534810665126,0.0
4530108662.903,-13.424498901190496,0.0,-2.8541829797260263,0.0
4530123662.9025,-13.424767716442199,0.0,-2.8244319888029374,0.0
4530138662.902,-13.418407306458807,0.0,-2.8829306465141946,0.0
4530153662.9015,-13.419150044489161,0.0,-2.8900796481525375,0.0
4530168662.901,-13.42199404957682,0.0,-2.881434734773496,0.0
4530183662.9005,-13.418803712183845,0.0,-2.8780731691530805,0.0
4530198662.9,-13.414230913045825,0.0,-2.8413413209488207,0.0
4530213662.8995,-13.423459850698094,0.0,-2.895292365879856,0.0
4530228662.899,-13.426942600046413,0.0,-2.859855072322786,0.0
4530243662.8985,-13.425165248256006,0.0,-2.9159074401163916,0.0
4530258662.898,-13.4177862790594,0.0,-2.8651228258916968,0.0
4530273662.8975,-13.425800599429486,0.0,-2.9290061483530545,0.0
4530288662.897,-13.429474144713831,0.0,-2.8615967895814154,0.0
4530303662.8965,-13.416471021682884,0.0,-2.9434923480275903,0.0
4530318662.896,-13.42172953044567,0.0,-2.905547528252482,0.0
4530333662.8955,-13.422522529944656,0.0,-3.0417864996938193,0.0
4530348662.895,-13.420054734167408,0.0,-2.983945344902394,0.0
4530363662.8945,-13.427765158102527,0.0,-2.8549901540020417,0.0
4530378662.894,-13.427256899622236,0.0,-2.928987110122333,0.0
4530393662.8935,-13.422472469582111,0.0,-2.9368625542229445,0.0
4530408662.893,-13.420026995084417,0.0,-2.915965913199384,0.0
4530423662.8925,-13.428110229139543,0.0,-2.973057713462986,0.0
4530438662.892,-13.427283085711803,0.0,-2.916727155740282,0.0
4530453662.8915,-13.420298458864535,0.0,-2.912375145728005,0.0
4530468662.891,-13.428923192826488,0.0,-2.9714300662531006,0.0
4530483662.8905,-13.419523477334721,0.0,-2.957796821964397,0.0
4530498662.89,-13.425913528086454,0.0,-2.9027830022256262,0.0
4530513662.8895,-13.420204277276369,0.0,-2.962995733600473,0.0
4530528662.889,-13.418885929454964,0.0,-2.986978455267452,0.0
4530543662.8885,-13.425136234058021,0.0,-2.9709380554160125,0.0
4530558662.888,-13.424706051570531,0.0,-2.97941624058059,0.0
4530573662.8875,-13.41972521444201,0.0,-3.0569993411851577,0.0
4530588662.887,-13.4261880958585,0.0,-3.0012839948877725,0.0
4530603662.8865,-13.420023200162326,0.0,-2.9866728034494483,0.0
4530618662.886,-13.423294706614971,0.0,-2.9872713324778988,0.0
4530633662.8855,-13.421278737409494,0.0,-2.95609736471592,0.0
4530648662.885,-13.421892889638954,0.0,-2.975933523761644,0.0
4530663662.8845,-13.42636707519583,0.0,-2.958083497459344,0.0
4530678662.884,-13.419509919318122,0.0,-3.0267393038952695,0.0
4530693662.8835,-13.425060891036111,0.0,-2.994635643196996,0.0
4530708662.883,-13.424768004765927,0.0,-3.0229347114513816,0.0
4530723662.8825,-13.430276887202968,0.0,-2.9319613980975654,0.0
4530738662.882,-13.425910859197517,0.0,-3.0333797572771353,0.0
4530753662.8815,-13.427412546364529,0.0,-3.0027138801789306,0.0
4530768662.881,-13.422144348686745,0.0,-3.006004780147491,0.0
4530783662.8805,-13.424088212076557,0.0,-2.9911916955992432,0.0
4530798662.88,-13.42284370095308,0.0,-3.012471007407283,0.0
4530813662.8795,-13.430048780679984,0.0,-2.9882231298504807,0.0
4530828662.879,-13.418002734482714,0.0,-2.9593843093571386,0.0
4530843662.8785,-13.429676930837218,0.0,-3.000739918854556,0.0
4530858662.878,-13.424343601275337,0.0,-3.041158545418099,0.0
4530873662.8775,-13.429342058208233,0.0,-2.989217114200833,0.0
4530888662.877,-13.4324547234469,0.0,-3.056012300846523,0.0
4530903662.8765,-13.427709965646386,0.0,-3.070479434719107,0.0
4530918662.876,-13.428493510922044,0.0,-2.986336136798899,0.0
4530933662.8755,-13.4304146056735,0.0,-3.0425007650933513,0.0
4530948662.875,-13.430705500270097,0.0,-3.0867426021748776,0.0
4530963662.8745,-13.431434408610762,0.0,-3.0897767314974165,0.0
4530978662.874,-13.428434967082827,0.0,-3.01993758611551,0.0
4530993662.8735,-13.440252347057735,0.0,-3.0728519581196654,0.0
4531008662.873,-13.416524212844703,0.0,-3.0627379112742683,0.0
4531023662.8725,-13.427190143908707,0.0,-3.0311808958989435,0.0
4531038662.872,-13.426449257638156,0.0,-3.077367611665363,0.0
4531053662.8715,-13.415127148911417,0.0,-3.0510592461121484,0.0
4531068662.871,-13.427468168203214,0.0,-3.136177826796936,0.0
4531083662.8705,-13.432974203177375,0.0,-3.0832479328806177,0.0
4531098662.87,-13.437765175354672,0.0,-3.0620280350148525,0.0
4531113662.8695,-13.424881421823871,0.0,-3.0466063191879886,0.0
4531128662.869,-13.427158259553703,0.0,-3.0889678810801673,0.0
4531143662.8685,-13.425213250476183,0.0,-3.114521798846453,0.0
4531158662.868,-13.4242813109166,0.0,-3.053457392232121,0.0
4531173662.8675,-13.429780481024716,0.0,-3.1128720672169714,0.0
4531188662.867,-13.427033208237756,0.0,-3.0936131182130335,0.0
4531203662.8665,-13.423410893180023,0.0,-3.1345681656374476,0.0
4531218662.866,-13.42679933948163,0.0,-3.03637207419286,0.0
4531233662.8655,-13.430647754040944,0.0,-3.0693346312446956,0.0
4531248662.865,-13.426881537982528,0.0,-3.131058232490024,0.0
4531263662.8645,-13.43135063681843,0.0,-3.08340591654951,0.0
4531278662.864,-13.422842994199446,0.0,-3.106451302249591,0.0
4531293662.8635,-13.425669457967954,0.0,-3.096321893396883,0.0
4531308662.863,-13.420195350613877,0.0,-3.162068972822198,0.0
4531323662.8625,-13.426345744321424,0.0,-3.181835609425295,0.0
4531338662.862,-13.426154672848998,0.0,-3.1540551272971635,0.0
4531353662.8615,-13.434923111822757,0.0,-3.0890920606139263,0.0
4531368662.861,-13.433862860567787,0.0,-3.1155565652034,0.0
4531383662.8605,-13.435070895670522,0.0,-3.1683766266636426,0.0
4531398662.86,-13.426254486561454,0.0,-3.17441779189453,0.0
4531413662.8595,-13.428626641155955,0.0,-3.1164299528430064,0.0
4531428662.859,-13.432600845872873,0.0,-3.147549305088312,0.0
4531443662.8585,-13.417261230044131,0.0,-3.1318030088838698,0.0
4531458662.858,-13.435534419716493,0.0,-3.1652064497429473,0.0
4531473662.8575,-13.42493198725812,0.0,-3.1333690103550764,0.0
4531488662.857,-13.428965770588926,0.0,-3.1013860348601905,0.0
4531503662.8565,-13.422798360609212,0.0,-3.1187906899727302,0.0
4531518662.856,-13.430256534857904,0.0,-3.1281033086516326,0.0
4531533662.8555,-13.432577967435634,0.0,-3.1468234437274134,0.0
4531548662.855,-13.436654931773429,0.0,-3.156764629147198,0.0
4531563662.8545,-13.433446967015165,0.0,-3.13363737112069,0.0
4531578662.854,-13.427778707415234,0.0,-3.1928132656063677,0.0
4531593662.8535,-13.42406605042082,0.0,-3.204588171850882,0.0
4531608662.853,-13.424209582158992,0.0,-3.1258725763461914,0.0
4531623662.8525,-13.433551043573376,0.0,-3.170973377387265,0.0
4531638662.852,-13.43119684397098,0.0,-3.264092291090652,0.0
4531653662.8515,-13.428514704641064,0.0,-3.221731772067637,0.0
4531668662.851,-13.432971801792245,0.0,-3.2651466466628225,0.0
4531683662.8505,-13.43085103791405,0.0,-3.2171922209400496,0.0
4531698662.85,-13.429029437702276,0.0,-3.196862540950052,0.0
4531713662.8495,-13.420563431552353,0.0,-3.2158342084074074,0.0
4531728662.849,-13.425567683315657,0.0,-3.2331633439201437,0.0
4531743662.8485,-13.434153877122837,0.0,-3.231831630657704,0.0
4531758662.848,-13.429383456369202,0.0,-3.1651726052403752,0.0
4531773662.8475,-13.432736476141617,0.0,-3.1890520543374334,0.0
4531788662.847,-13.423880873302863,0.0,-3.255697868800658,0.0
4531803662.8465,-13.425270677964402,0.0,-3.287018705884262,0.0
4531818662.846,-13.426018858124348,0.0,-3.243288719085076,0.0
4531833662.8455,-13.426092508638401,0.0,-3.2207889347728416,0.0
4531848662.845,-13.428315176599,0.0,-3.257325672363908,0.0
4531863662.8445,-13.428689847473699,0.0,-3.149861021378124,0.0
4531878662.844,-13.4222136396378,0.0,-3.3262715640032225,0.0
