Frequency,S11,S11-Q,S11-Phase,S11-Phase-Q
4527198663.0,-13.412746344146756,0.0,-2.380813176697373,0.0
4527213662.9995,-13.417452739993678,0.0,-2.424154517274433,0.0
4527228662.999,-13.42254257380195,0.0,-2.3949271735229503,0.0
4527243662.9985,-13.4154713978491,0.0,-2.431025279029305,0.0
4527258662.998,-13.41743775592388,0.0,-2.4153213104296234,0.0
4527273662.9975,-13.414196763660843,0.0,-2.337191806268177,0.0
4527288662.997,-13.419440287403983,0.0,-2.3722358818491176,0.0
4527303662.9965,-13.429334735051924,0.0,-2.337491164496483,0.0
4527318662.996,-13.418654070104106,0.0,-2.431055642283261,0.0
4527333662.9955,-13.418881747641754,0.0,-2.395408393672716,0.0
4527348662.995,-13.411334939758014,0.0,-2.4011871806922347,0.0
4527363662.9945,-13.414238808695472,0.0,-2.3889702553337715,0.0
4527378662.994,-13.410013750226533,0.0,-2.481794997969339,0.0
4527393662.9935,-13.41407149731612,0.0,-2.4137102713334047,0.0
4527408662.993,-13.409438342317017,0.0,-2.463428684789165,0.0
4527423662.9925,-13.419728312276753,0.0,-2.4485491103388766,0.0
4527438662.992,-13.4169939818564,0.0,-2.416143541001653,0.0
4527453662.9915,-13.419225037267426,0.0,-2.381240170810508,0.0
4527468662.991,-13.418836523453507,0.0,-2.381887148955716,0.0
4527483662.9905,-13.417214998921633,0.0,-2.434287860475705,0.0
4527498662.99,-13.403851564737261,0.0,-2.476568516921252,0.0
4527513662.9895,-13.414132770451008,0.0,-2.4712302617013284,0.0
4527528662.989,-13.415319419034095,0.0,-2.45135672309656,0.0
4527543662.9885,-13.413685329031146,0.0,-2.375805660702059,0.0
4527558662.988,-13.415826776342264,0.0,-2.461682497016392,0.0
4527573662.9875,-13.410801095339881,0.0,-2.4358292838327587,0.0
4527588662.987,-13.419562319271863,0.0,-2.492739811383846,0.0
4527603662.9865,-13.422321915445872,0.0,-2.460541892686309,0.0
4527618662.986,-13.428959974184165,0.0,-2.5256298272267905,0.0
4527633662.9855,-13.411936593454353,0.0,-2.503650283569381,0.0
4527648662.985,-13.427516867120968,0.0,-2.4426858003411915,0.0
4527663662.9845,-13.411529775494476,0.0,-2.5028212142443267,0.0
4527678662.984,-13.418645475443604,0.0,-2.4467848391346343,0.0
4527693662.9835,-13.406008289401283,0.0,-2.456261683810971,0.0
4527708662.983,-13.418679638789946,0.0,-2.4775465294776806,0.0
4527723662.9825,-13.420789247253103,0.0,-2.47329083037576,0.0
4527738662.982,-13.410712416716494,0.0,-2.4943786092922107,0.0
4527753662.9815,-13.41361958454219,0.0,-2.49830079118282,0.0
4527768662.981,-13.412048256444436,0.0,-2.491825695716738,0.0
4527783662.9805,-13.420270528139284,0.0,-2.42454303777624,0.0
4527798662.98,-13.413972917041905,0.0,-2.482238713776959,0.0
4527813662.9795,-13.426006372276156,0.0,-2.534507977402442,0.0
4527828662.979,-13.41795822269926,0.0,-2.511707984925858,0.0
4527843662.9785,-13.415640372951609,0.0,-2.462079426390093,0.0
4527858662.978,-13.41925319591682,0.0,-2.46938553567695,0.0
4527873662.9775,-13.41529708021927,0.0,-2.4781749399432327,0.0
4527888662.977,-13.423623631143426,0.0,-2.4988381026979796,0.0
4527903662.9765,-13.424015320097373,0.0,-2.5161857252889304,0.0
4527918662.976,-13.419333695888376,0.0,-2.496330533122755,0.0
4527933662.9755,-13.412557413738517,0.0,-2.4981082204565808,0.0
4527948662.975,-13.41100623123891,0.0,-2.5209022645890227,0.0
4527963662.9745,-13.413968751170113,0.0,-2.4809980448663294,0.0
4527978662.974,-13.419981224501283,0.0,-2.515489570572598,0.0
4527993662.9735,-13.416515270293292,0.0,-2.505483699879622,0.0
4528008662.973,-13.410290535104366,0.0,-2.544278466764555,0.0
4528023662.9725,-13.423611841798223,0.0,-2.483792012391187,0.0
4528038662.972,-13.424889651268385,0.0,-2.507495736136447,0.0
4528053662.9715,-13.42737596608331,0.0,-2.515607485294217,0.0
4528068662.971,-13.405189777437787,0.0,-2.5769077762386323,0.0
4528083662.9705,-13.411932415132636,0.0,-2.529054568183557,0.0
4528098662.97,-13.422700665537533,0.0,-2.5436623363691937,0.0
4528113662.9695,-13.414463320685883,0.0,-2.622105820900111,0.0
4528128662.969,-13.422151463999551,0.0,-2.504632816988349,0.0
4528143662.9685,-13.418290513464315,0.0,-2.578421901065959,0.0
4528158662.968,-13.414593709927242,0.0,-2.5247620148874743,0.0
4528173662.9675,-13.420543833859682,0.0,-2.5140625179325706,0.0
4528188662.967,-13.426599780384747,0.0,-2.5226298736588624,0.0
4528203662.9665,-13.416069707329854,0.0,-2.5855886917857616,0.0
4528218662.966,-13.415604710337634,0.0,-2.4885627538107453,0.0
4528233662.9655,-13.42642189504333,0.0,-2.481352709476549,0.0
4528248662.965,-13.42557395923654,0.0,-2.5455352251930714,0.0
4528263662.9645,-13.416998290148811,0.0,-2.57037162170254,0.0
4528278662.964,-13.41918199391867,0.0,-2.610777485246944,0.0
4528293662.9635,-13.416876045814998,0.0,-2.614595811791312,0.0
4528308662.963,-13.426406720947938,0.0,-2.575729187635541,0.0
4528323662.9625,-13.422889800731879,0.0,-2.561637594301392,0.0
4528338662.962,-13.418993269360946,0.0,-2.603872358440606,0.0
4528353662.9615,-13.424024008130822,0.0,-2.5499481495657728,0.0
4528368662.961,-13.419111394656536,0.0,-2.596664513448262,0.0
4528383662.9605,-13.424083527118388,0.0,-2.5398642012533457,0.0
4528398662.96,-13.418546575221228,0.0,-2.5083577074879355,0.0
4528413662.9595,-13.41607964271117,0.0,-2.6452113615580375,0.0
4528428662.959,-13.41925178783751,0.0,-2.5858683638716986,0.0
4528443662.9585,-13.419902711701013,0.0,-2.576275099158592,0.0
4528458662.958,-13.425516554001664,0.0,-2.5091446093754812,0.0
4528473662.9575,-13.419851698668424,0.0,-2.6178549755420586,0.0
4528488662.957,-13.425384531784486,0.0,-2.5399375709084135,0.0
4528503662.9565,-13.417896364732524,0.0,-2.526636647272756,0.0
4528518662.956,-13.427190757756012,0.0,-2.588223825151738,0.0
4528533662.9555,-13.414750396753963,0.0,-2.5980314762045045,0.0
4528548662.955,-13.419211613058408,0.0,-2.556107884199981,0.0
4528563662.9545,-13.413450555153009,0.0,-2.6467247892104777,0.0
4528578662.954,-13.418245522676402,0.0,-2.5776485962558686,0.0
4528593662.9535,-13.414338653107079,0.0,-2.6624700412238873,0.0
4528608662.953,-13.413023222599005,0.0,-2.598583367992234,0.0
4528623662.9525,-13.414583692556242,0.0,-2.6174772763116305,0.0
4528638662.952,-13.420171695471947,0.0,-2.672991613872718,0.0
4528653662.9515,-13.42058023189466,0.0,-2.6359405236118,0.0
4528668662.951,-13.413700546242097,0.0,-2.651310855758227,0.0
4528683662.9505,-13.4209708412417,0.0,-2.6669953814794063,0.0
4528698662.95,-13.418175293970425,0.0,-2.601896229791211,0.0
4528713662.9495,-13.42642725803014,0.0,-2.618888009228951,0.0
4528728662.949,-13.417029987395763,0.0,-2.6819392035558964,0.0
4528743662.9485,-13.424457672528515,0.0,-2.6288425833544653,0.0
4528758662.948,-13.422494922106177,0.0,-2.6465919376177967,0.0
4528773662.9475,-13.422921621355918,0.0,-2.5943760042725947,0.0
4528788662.947,-13.425216734834095,0.0,-2.687055859299077,0.0
4528803662.9465,-13.421256840976417,0.0,-2.6354767965779984,0.0
4528818662.946,-13.412756848374414,0.0,-2.6329837998567283,0.0
4528833662.9455,-13.426496683494932,0.0,-2.5801958840589436,0.0
4528848662.945,-13.422405678793726,0.0,-2.590508812871988,0.0
4528863662.9445,-13.41711155421073,0.0,-2.627226289065957,0.0
4528878662.944,-13.417676262936155,0.0,-2.646446724684829,0.0
4528893662.9435,-13.417342893703692,0.0,-2.6872689364359137,0.0
4528908662.943,-13.417236123221493,0.0,-2.6614509689776176,0.0
4528923662.9425,-13.422163133876841,0.0,-2.6638716020251767,0.0
4528938662.942,-13.433049407057595,0.0,-2.5941892076520987,0.0
4528953662.9415,-13.417744773105486,0.0,-2.6626278113834214,0.0
4528968662.941,-13.409361122329715,0.0,-2.7362812365666644,0.0
4528983662.9405,-13.419559323326549,0.0,-2.6790106258448727,0.0
4528998662.94,-13.413258476588796,0.0,-2.6877617141974466,0.0
4529013662.9395,-13.427734516103808,0.0,-2.702070901311899,0.0
4529028662.939,-13.425586304304623,0.0,-2.676079266791034,0.0
4529043662.9385,-13.42648298884636,0.0,-2.658217643141355,0.0
4529058662.938,-13.421160766971061,0.0,-2.661855368247641,0.0
4529073662.9375,-13.417552282597537,0.0,-2.685952808099695,0.0
4529088662.937,-13.416629922874606,0.0,-2.653310839595386,0.0
4529103662.9365,-13.418465297224527,0.0,-2.637819038869849,0.0
4529118662.936,-13.419741057116958,0.0,-2.727127338473891,0.0
4529133662.9355,-13.420652819965893,0.0,-2.6979718662164434,0.0
4529148662.935,-13.418952773087975,0.0,-2.682415934406947,0.0
4529163662.9345,-13.419170282567896,0.0,-2.712119161363663,0.0
4529178662.934,-13.418478512241883,0.0,-2.727440062224663,0.0
4529193662.9335,-13.426473464230831,0.0,-2.7290510979759626,0.0
4529208662.933,-13.424205259332382,0.0,-2.6750667102583354,0.0
4529223662.9325,-13.426718943259516,0.0,-2.702799518823774,0.0
4529238662.932,-13.42394698579122,0.0,-2.6594183953390202,0.0
4529253662.9315,-13.42572111465181,0.0,-2.7285723130423905,0.0
4529268662.931,-13.424198951407337,0.0,-2.7599423985857308,0.0
4529283662.9305,-13.419728078602322,0.0,-2.7969662796452606,0.0
4529298662.93,-13.428310466616779,0.0,-2.652895564760125,0.0
4529313662.9295,-13.416427835508893,0.0,-2.6874527198388005,0.0
4529328662.929,-13.418580204799914,0.0,-2.725167378314946,0.0
4529343662.9285,-13.421986506676038,0.0,-2.7619907981703338,0.0
4529358662.928,-13.415805853699158,0.0,-2.71615934260042,0.0
4529373662.9275,-13.410263286400369,0.0,-2.78358719168987,0.0
4529388662.927,-13.426989216970656,0.0,-2.7366846483589007,0.0
4529403662.9265,-13.42883786232709,0.0,-2.7222353340043814,0.0
4529418662.926,-13.4146438201909,0.0,-2.763681050016574,0.0
4529433662.9255,-13.424554860437517,0.0,-2.7779023494032216,0.0
4529448662.925,-13.423801328296928,0.0,-2.7519973504470525,0.0
4529463662.9245,-13.417393216542926,0.0,-2.7724406393436216,0.0
4529478662.924,-13.420760966731278,0.0,-2.759881132502347,0.0
4529493662.9235,-13.421475232318107,0.0,-2.778952363426203,0.0
4529508662.923,-13.419290110123523,0.0,-2.7745604493449085,0.0
4529523662.9225,-13.42211566537787,0.0,-2.7533966513473542,0.0
4529538662.922,-13.422197120130617,0.0,-2.7763163832120883,0.0
4529553662.9215,-13.425074740252692,0.0,-2.7871155428535164,0.0
4529568662.921,-13.409982558922524,0.0,-2.7666361656248384,0.0
4529583662.9205,-13.418557592064186,0.0,-2.783936152422697,0.0
4529598662.92,-13.429879132565079,0.0,-2.738592654264436,0.0
4529613662.9195,-13.410522453471472,0.0,-2.8331424994126477,0.0
4529628662.919,-13.420836664977067,0.0,-2.7508340446475943,0.0
4529643662.9185,-13.426773611111745,0.0,-2.818567650041607,0.0
4529658662.918,-13.414011222971364,0.0,-2.797629019728345,0.0
4529673662.9175,-13.421594693643462,0.0,-2.8042222936211547,0.0
4529688662.917,-13.42820486900947,0.0,-2.7597309208023075,0.0
4529703662.9165,-13.418004542566198,0.0,-2.8212328619674856,0.0
4529718662.916,-13.419574927596011,0.0,-2.7749552922762373,0.0
4529733662.9155,-13.412124920132168,0.0,-2.825610827625223,0.0
4529748662.915,-13.410730510849527,0.0,-2.8050533830729334,0.0
4529763662.9145,-13.419858486767717,0.0,-2.7681293534114717,0.0
4529778662.914,-13.421715334137012,0.0,-2.8166809555288737,0.0
4529793662.9135,-13.418776426099882,0.0,-2.780961184477387,0.0
4529808662.913,-13.425046346960759,0.0,-2.7787265816978515,0.0
4529823662.9125,-13.4205872981628,0.0,-2.8359324524620573,0.0
4529838662.912,-13.427238793862067,0.0,-2.840760990059313,0.0
4529853662.9115,-13.421798009324082,0.0,-2.79621814599699,0.0
4529868662.911,-13.4149009856621,0.0,-2.8079929961833368,0.0
4529883662.9105,-13.419059931735248,0.0,-2.832265067547057,0.0
4529898662.91,-13.416958591693191,0.0,-2.815414186494775,0.0
4529913662.9095,-13.428209902681687,0.0,-2.7541878740357935,0.0
4529928662.909,-13.425184512551674,0.0,-2.8027343319643045,0.0
4529943662.9085,-13.424231711582577,0.0,-2.7707589888891055,0.0
4529958662.908,-13.422106712747851,0.0,-2.850412573031806,0.0
4529973662.9075,-13.427456755879742,0.0,-2.808005949074467,0.0
4529988662.907,-13.426732860620099,0.0,-2.902174080866043,0.0
4530003662.9065,-13.418205894731445,0.0,-2.923167702282356,0.0
4530018662.906,-13.423231229010849,0.0,-2.8581593101464304,0.0
4530033662.9055,-13.428007998296884,0.0,-2.8113074577575534,0.0
4530048662.905,-13.425585159573885,0.0,-2.8754731299808105,0.0
4530063662.9045,-13.416561026789173,0.0,-2.857097500958415,0.0
4530078662.904,-13.428371392733904,0.0,-2.818730664339801,0.0
4530093662.9035,-13.427266712875268,0.0,-2.8815789902759086,0.0
4530108662.903,-13.419276055196729,0.0,-2.8716252843484416,0.0
4530123662.9025,-13.425377092724702,0.0,-2.9215519756466324,0.0
4530138662.902,-13.427802600738065,0.0,-2.8453810743017898,0.0
4530153662.9015,-13.42485472397302,0.0,-2.909079503166686,0.0
4530168662.901,-13.424087113710893,0.0,-2.8704157021865813,0.0
4530183662.9005,-13.423788687895623,0.0,-2.94643127266997,0.0
4530198662.9,-13.419365543507967,0.0,-2.863727423831837,0.0
4530213662.8995,-13.419732439462614,0.0,-2.8713113555099787,0.0
4530228662.899,-13.42737672181431,0.0,-2.953440661831689,0.0
4530243662.8985,-13.423617416258109,0.0,-2.911374357439553,0.0
4530258662.898,-13.427729644342694,0.0,-2.897737765467006,0.0
4530273662.8975,-13.426271189792239,0.0,-2.8780400651099183,0.0
4530288662.897,-13.42142038372177,0.0,-2.928002409303095,0.0
4530303662.8965,-13.426534158559987,0.0,-2.900192112896447,0.0
4530318662.896,-13.431347426675746,0.0,-2.9310695729616967,0.0
4530333662.8955,-13.425280023853347,0.0,-2.8632166969647375,0.0
4530348662.895,-13.416734278247034,0.0,-2.9295880657006292,0.0
4530363662.8945,-13.41559513582691,0.0,-2.9095518484775305,0.0
4530378662.894,-13.421375571553572,0.0,-2.9336537348111396,0.0
4530393662.8935,-13.421655859939577,0.0,-2.9484167524203495,0.0
4530408662.893,-13.42046437336239,0.0,-2.913010800490168,0.0
4530423662.8925,-13.424836717219774,0.0,-2.9551872790397855,0.0
4530438662.892,-13.426871186212498,0.0,-2.938835527939325,0.0
4530453662.8915,-13.429547145171966,0.0,-2.9262651677553726,0.0
4530468662.891,-13.427202578257692,0.0,-2.913812217328606,0.0
4530483662.8905,-13.434506984942317,0.0,-2.91553681094521,0.0
4530498662.89,-13.424975966967125,0.0,-2.941629834008553,0.0
4530513662.8895,-13.42403052919764,0.0,-2.918906226050842,0.0
4530528662.889,-13.422197740892832,0.0,-2.942592557196695,0.0
4530543662.8885,-13.426228600198067,0.0,-2.9508312973490503,0.0
4530558662.888,-13.417869250932117,0.0,-2.9741623354601616,0.0
4530573662.8875,-13.41945875305921,0.0,-2.963840392767985,0.0
4530588662.887,-13.42722865810349,0.0,-3.0766092937275227,0.0
4530603662.8865,-13.421010731520678,0.0,-2.973554217741603,0.0
4530618662.886,-13.428297774840988,0.0,-3.0157183367687885,0.0
4530633662.8855,-13.42826070970805,0.0,-2.998653938051203,0.0
4530648662.885,-13.42636439406775,0.0,-2.9860002182114815,0.0
4530663662.8845,-13.427424462459093,0.0,-2.9946749495362885,0.0
4530678662.884,-13.43582096309893,0.0,-2.9561524735847677,0.0
4530693662.8835,-13.42011375542575,0.0,-2.9597875581226,0.0
4530708662.883,-13.433667900595358,0.0,-2.999912794746985,0.0
4530723662.8825,-13.435917253732068,0.0,-2.9660653951839233,0.0
4530738662.882,-13.42215285135273,0.0,-2.970324384893558,0.0
4530753662.8815,-13.422653464425231,0.0,-2.9726637419455026,0.0
4530768662.881,-13.424566702048086,0.0,-3.061289132229412,0.0
4530783662.8805,-13.425845465146814,0.0,-2.9511441749554352,0.0
4530798662.88,-13.418815714815214,0.0,-3.05866879618515,0.0
4530813662.8795,-13.427563942977612,0.0,-3.035698150255715,0.0
4530828662.879,-13.431404894622872,0.0,-3.0565563249597965,0.0
4530843662.8785,-13.435827741286362,0.0,-2.972718819696516,0.0
4530858662.878,-13.430345591524537,0.0,-3.060520417023871,0.0
4530873662.8775,-13.430901406049935,0.0,-3.01125143447081,0.0
4530888662.877,-13.427293327093409,0.0,-3.0427285405219653,0.0
4530903662.8765,-13.426297384444027,0.0,-3.042117345446048,0.0
4530918662.876,-13.426822472888052,0.0,-3.068694279584079,0.0
4530933662.8755,-13.429421200372776,0.0,-2.9606528912914145,0.0
4530948662.875,-13.434561979598811,0.0,-3.047363884275297,0.0
4530963662.8745,-13.427674141364,0.0,-3.078502658801134,0.0
4530978662.874,-13.429874397561202,0.0,-3.0613710854885197,0.0
4530993662.8735,-13.42623583941169,0.0,-3.019566416750946,0.0
4531008662.873,-13.425846337361232,0.0,-3.0934482125100193,0.0
4531023662.8725,-13.424214253751753,0.0,-3.0702616594922394,0.0
4531038662.872,-13.422799901690421,0.0,-3.088151943609677,0.0
4531053662.8715,-13.421612531832777,0.0,-3.066926915989547,0.0
4531068662.871,-13.43909089409373,0.0,-3.098793727641208,0.0
4531083662.8705,-13.42516641717223,0.0,-3.0908175802612434,0.0
4531098662.87,-13.429220266562789,0.0,-3.0443678880247034,0.0
4531113662.8695,-13.42786813814712,0.0,-3.0880638426348286,0.0
4531128662.869,-13.434832182638285,0.0,-3.1257200515060366,0.0
4531143662.8685,-13.430002836569274,0.0,-3.150268175839485,0.0
4531158662.868,-13.428329864542821,0.0,-3.088349223699877,0.0
4531173662.8675,-13.419984627511726,0.0,-3.111222193868499,0.0
4531188662.867,-13.422583672192168,0.0,-3.0635580748222053,0.0
4531203662.8665,-13.431644817661601,0.0,-3.068017795487396,0.0
4531218662.866,-13.427454137119925,0.0,-3.0915074283715587,0.0
4531233662.8655,-13.415990173537946,0.0,-3.054241501081736,0.0
4531248662.865,-13.423258138551205,0.0,-3.0906660582535452,0.0
4531263662.8645,-13.420013865935083,0.0,-3.1076106672022203,0.0
4531278662.864,-13.422241153083078,0.0,-3.136175676920797,0.0
4531293662.8635,-13.433363459394666,0.0,-3.118091915041105,0.0
4531308662.863,-13.42251625763308,0.0,-3.1214270640735595,0.0
4531323662.8625,-13.4267853087587,0.0,-3.1242047212645288,0.0
4531338662.862,-13.428762639837569,0.0,-3.1326517308795854,0.0
4531353662.8615,-13.419655447497817,0.0,-3.152504733160706,0.0
4531368662.861,-13.421439800086237,0.0,-3.1329778910335975,0.0
4531383662.8605,-13.436610993594137,0.0,-3.173976852986195,0.0
4531398662.86,-13.428952792540246,0.0,-3.15666024000761,0.0
4531413662.8595,-13.427046759566705,0.0,-3.2056120267940225,0.0
4531428662.859,-13.424412409697242,0.0,-3.1661657908585927,0.0
4531443662.8585,-13.424830524427744,0.0,-3.122862663464217,0.0
4531458662.858,-13.430979876957206,0.0,-3.1934545894648334,0.0
4531473662.8575,-13.425173435342824,0.0,-3.1406012146586306,0.0
4531488662.857,-13.422773151126613,0.0,-3.1980132847263256,0.0
4531503662.8565,-13.427607544161893,0.0,-3.1829114146629798,0.0
4531518662.856,-13.426479476589355,0.0,-3.173508288131513,0.0
4531533662.8555,-13.425353141165813,0.0,-3.182455861119245,0.0
4531548662.855,-13.427969052199728,0.0,-3.1711491084216785,0.0
4531563662.8545,-13.425758526508307,0.0,-3.210620132765234,0.0
4531578662.854,-13.424138740684883,0.0,-3.1790151548791634,0.0
4531593662.8535,-13.429185794237883,0.0,-3.1414068535963886,0.0
4531608662.853,-13.436398862515205,0.0,-3.183738802933711,0.0
4531623662.8525,-13.420923735806875,0.0,-3.2503442755783,0.0
4531638662.852,-13.434723009870941,0.0,-3.2181499628839836,0.0
4531653662.8515,-13.428980750450943,0.0,-3.2557810709358113,0.0
4531668662.851,-13.431229285933817,0.0,-3.1904319204683524,0.0
4531683662.8505,-13.42763789154035,0.0,-3.26623617966279,0.0
4531698662.85,-13.433761896025082,0.0,-3.222770188952831,0.0
4531713662.8495,-13.431490243532807,0.0,-3.1541931341613787,0.0
4531728662.849,-13.432332110952252,0.0,-3.2254790744214534,0.0
4531743662.8485,-13.427138511145687,0.0,-3.263792550239845,0.0
4531758662.848,-13.424024597856326,0.0,-3.252921799482883,0.0
4531773662.8475,-13.42610963036821,0.0,-3.189407739333331,0.0
4531788662.847,-13.432448068110682,0.0,-3.1904953245639622,0.0
4531803662.8465,-13.429009397688427,0.0,-3.210590659595149,0.0
4531818662.846,-13.438829555846466,0.0,-3.29373636713975,0.0
4531833662.8455,-13.438590925049672,0.0,-3.2455539852266866,0.0
4531848662.845,-13.424990183165457,0.0,-3.2746184243699488,0.0
4531863662.8445,-13.425909745191934,0.0,-3.2598161963737837,0.0
4531878662.844,-13.431148422095296,0.0,-3.2654636373995505,0.0
