Frequency,S11,S11-Q,S11-Phase,S11-Phase-Q
4527198663.0,-13.401659691709753,0.0,-2.8345151181892336,0.0
4527213662.9995,-13.414289044819995,0.0,-2.8821081915945848,0.0
4527228662.999,-13.401015225010527,0.0,-2.8763218131582393,0.0
4527243662.9985,-13.413273124865398,0.0,-2.8741839612481397,0.0
4527258662.998,-13.40386771303561,0.0,-2.850160611026727,0.0
4527273662.9975,-13.396432505769234,0.0,-2.8564403798118305,0.0
4527288662.997,-13.410443147398329,0.0,-2.814481673266989,0.0
4527303662.9965,-13.40892812800224,0.0,-2.853273778123146,0.0
4527318662.996,-13.4112074667766,0.0,-2.8167137235685296,0.0
4527333662.9955,-13.406016859113857,0.0,-2.8657356098913267,0.0
4527348662.995,-13.404492498028313,0.0,-2.8314912305134565,0.0
4527363662.9945,-13.408120010253628,0.0,-2.7925951898825816,0.0
4527378662.994,-13.409011563081389,0.0,-2.9196095811558007,0.0
4527393662.9935,-13.408671857096353,0.0,-2.846818518384398,0.0
4527408662.993,-13.410943438603717,0.0,-2.878864224118635,0.0
4527423662.9925,-13.402336190967691,0.0,-2.8928168296750516,0.0
4527438662.992,-13.413175437594788,0.0,-2.9584222705456433,0.0
4527453662.9915,-13.40239013511609,0.0,-2.894281397981758,0.0
4527468662.991,-13.408730986628035,0.0,-2.869833579012099,0.0
4527483662.9905,-13.410124121618134,0.0,-2.842596271726508,0.0
4527498662.99,-13.409640297238056,0.0,-2.9145391927144835,0.0
4527513662.9895,-13.406651818582684,0.0,-2.868740581790377,0.0
4527528662.989,-13.410223024950927,0.0,-2.870303792107011,0.0
4527543662.9885,-13.411958217003031,0.0,-2.9178221525530303,0.0
4527558662.988,-13.405660681627111,0.0,-2.9319270410729867,0.0
4527573662.9875,-13.411538504873198,0.0,-2.907071919089261,0.0
4527588662.987,-13.40398188619973,0.0,-2.906891602501315,0.0
4527603662.9865,-13.419928707904614,0.0,-2.947182358437079,0.0
4527618662.986,-13.414554372290642,0.0,-2.9776233620972588,0.0
4527633662.9855,-13.415475323230194,0.0,-2.8716374774414026,0.0
4527648662.985,-13.418282705925852,0.0,-2.9147707226953505,0.0
4527663662.9845,-13.415534930802462,0.0,-2.903289946555006,0.0
4527678662.984,-13.415552511998925,0.0,-2.876781871405794,0.0
4527693662.9835,-13.404431035406507,0.0,-2.9269906963160945,0.0
4527708662.983,-13.404815813119244,0.0,-2.843030916279627,0.0
4527723662.9825,-13.408415487801129,0.0,-2.924054973123186,0.0
4527738662.982,-13.409169646809842,0.0,-2.9624493240435856,0.0
4527753662.9815,-13.407244248935362,0.0,-2.8719659857591346,0.0
4527768662.981,-13.41523130127076,0.0,-2.922547589651501,0.0
4527783662.9805,-13.412001330972371,0.0,-2.9164625640153043,0.0
4527798662.98,-13.401452796089048,0.0,-2.9166578288774523,0.0
4527813662.9795,-13.415467253926302,0.0,-2.8839871108773862,0.0
4527828662.979,-13.411786941931446,0.0,-2.886749993358397,0.0
4527843662.9785,-13.415830167065167,0.0,-2.929046628398981,0.0
4527858662.978,-13.407156811317577,0.0,-2.9092570909677016,0.0
4527873662.9775,-13.415238409939565,0.0,-2.8870315173662577,0.0
4527888662.977,-13.410338967505558,0.0,-2.950313038361184,0.0
4527903662.9765,-13.41145876182965,0.0,-2.941284336905536,0.0
4527918662.976,-13.418340064637116,0.0,-2.9823901333473297,0.0
4527933662.9755,-13.418802330958295,0.0,-2.973418231387168,0.0
4527948662.975,-13.415865706093502,0.0,-2.940583688073803,0.0
4527963662.9745,-13.401022663812057,0.0,-2.9636991392320122,0.0
4527978662.974,-13.413393419869061,0.0,-2.948925071182642,0.0
4527993662.9735,-13.408453245667731,0.0,-2.991075677458765,0.0
4528008662.973,-13.412187321714493,0.0,-3.002094244703351,0.0
4528023662.9725,-13.40323858320691,0.0,-2.962280197058463,0.0
4528038662.972,-13.406947968659964,0.0,-2.9805522191157108,0.0
4528053662.9715,-13.418116204378915,0.0,-3.0424983085985007,0.0
4528068662.971,-13.403957403574525,0.0,-2.969920394924942,0.0
4528083662.9705,-13.40729490968721,0.0,-2.9571767089921925,0.0
4528098662.97,-13.411720427142537,0.0,-2.9827959357237255,0.0
4528113662.9695,-13.404246251601199,0.0,-3.0217490112513445,0.0
4528128662.969,-13.401625060681422,0.0,-3.023442984435044,0.0
4528143662.9685,-13.40576896685115,0.0,-3.0048954647284845,0.0
4528158662.968,-13.412155865982546,0.0,-2.990834843472483,0.0
4528173662.9675,-13.40962073749436,0.0,-2.983209720992798,0.0
4528188662.967,-13.409664081852217,0.0,-2.978395496461656,0.0
4528203662.9665,-13.412784523416924,0.0,-3.038370221007482,0.0
4528218662.966,-13.411275457476368,0.0,-3.024837880945282,0.0
4528233662.9655,-13.416797871756668,0.0,-3.0052639934676133,0.0
4528248662.965,-13.398344070178421,0.0,-3.009824568577134,0.0
4528263662.9645,-13.410210776850848,0.0,-2.9761589714142156,0.0
4528278662.964,-13.41057608221497,0.0,-3.029390272283239,0.0
4528293662.9635,-13.413227521290462,0.0,-3.0577158143384686,0.0
4528308662.963,-13.412589462769972,0.0,-3.0059084369016453,0.0
4528323662.9625,-13.410617399789249,0.0,-3.0110266235167904,0.0
4528338662.962,-13.413507057577077,0.0,-3.019167110977315,0.0
4528353662.9615,-13.41218733808903,0.0,-3.010464851844402,0.0
4528368662.961,-13.407471603837834,0.0,-3.0215163652211587,0.0
4528383662.9605,-13.406343773514012,0.0,-3.0044377983674573,0.0
4528398662.96,-13.40911337665778,0.0,-3.0025891665276756,0.0
4528413662.9595,-13.41081062925397,0.0,-2.9669059484589697,0.0
4528428662.959,-13.422438168374061,0.0,-3.0119551839325513,0.0
4528443662.9585,-13.421372499962432,0.0,-3.0292320773906933,0.0
4528458662.958,-13.41853549842317,0.0,-3.039425490729733,0.0
4528473662.9575,-13.41319242216095,0.0,-3.02246555393619,0.0
4528488662.957,-13.400793825115315,0.0,-3.093341096558719,0.0
4528503662.9565,-13.409438348982778,0.0,-3.026182416816641,0.0
4528518662.956,-13.402139696756539,0.0,-3.0724577952305276,0.0
4528533662.9555,-13.395076152556467,0.0,-3.0747415583780415,0.0
4528548662.955,-13.41451527488008,0.0,-3.050680593227105,0.0
4528563662.9545,-13.410466270444205,0.0,-3.0862663796438445,0.0
4528578662.954,-13.412671155033953,0.0,-2.9761642554412346,0.0
4528593662.9535,-13.429066482238007,0.0,-3.0530379511010315,0.0
4528608662.953,-13.408650230825154,0.0,-3.0634544100520316,0.0
4528623662.9525,-13.407827987376441,0.0,-3.0441086566799713,0.0
4528638662.952,-13.415462936394507,0.0,-3.0543321317312455,0.0
4528653662.9515,-13.410815929371969,0.0,-3.1263865945247753,0.0
4528668662.951,-13.4122137086462,0.0,-3.023304818447577,0.0
4528683662.9505,-13.42229577212084,0.0,-3.051744294315591,0.0
4528698662.95,-13.41485181864921,0.0,-2.9800236661748336,0.0
4528713662.9495,-13.41784823966239,0.0,-3.0605031067357493,0.0
4528728662.949,-13.411554149259343,0.0,-3.0747866329891815,0.0
4528743662.9485,-13.417890988832855,0.0,-3.02120903726847,0.0
4528758662.948,-13.411912512126724,0.0,-3.0878947359672453,0.0
4528773662.9475,-13.41087096612676,0.0,-3.094144321707614,0.0
4528788662.947,-13.410019771045384,0.0,-3.0593869865068566,0.0
4528803662.9465,-13.411954509636262,0.0,-3.0607554475226073,0.0
4528818662.946,-13.408197545184674,0.0,-3.0873966730853772,0.0
4528833662.9455,-13.41212688716848,0.0,-3.1200809558741103,0.0
4528848662.945,-13.411109731841936,0.0,-3.0889315275646116,0.0
4528863662.9445,-13.414068584989762,0.0,-3.1146303898059293,0.0
4528878662.944,-13.407075031830116,0.0,-3.118376268806605,0.0
4528893662.9435,-13.413101020626623,0.0,-3.130404433745525,0.0
4528908662.943,-13.41152521060031,0.0,-3.136289503377709,0.0
4528923662.9425,-13.414926899763449,0.0,-3.036222405504571,0.0
4528938662.942,-13.414947284675467,0.0,-3.0984754116883835,0.0
4528953662.9415,-13.417658216295107,0.0,-3.1096339280692655,0.0
4528968662.941,-13.418070695453642,0.0,-3.132305486432075,0.0
4528983662.9405,-13.409392915149844,0.0,-3.140971213674339,0.0
4528998662.94,-13.416263974221419,0.0,-3.097379556099258,0.0
4529013662.9395,-13.411092012156193,0.0,-3.0792546525969264,0.0
4529028662.939,-13.4164088758343,0.0,-3.1477132736633235,0.0
4529043662.9385,-13.409481417162992,0.0,-3.2037456936976,0.0
4529058662.938,-13.412083347556695,0.0,-3.124065466843145,0.0
4529073662.9375,-13.414941618158736,0.0,-3.10476926301066,0.0
4529088662.937,-13.412401839551327,0.0,-3.1116168084955986,0.0
4529103662.9365,-13.41204887640998,0.0,-3.133676223801375,0.0
4529118662.936,-13.415121888192596,0.0,-3.1222654737026416,0.0
4529133662.9355,-13.41133923672588,0.0,-3.156382274147415,0.0
4529148662.935,-13.41660380031795,0.0,-3.1594252992509153,0.0
4529163662.9345,-13.415478421690219,0.0,-3.2310122478113024,0.0
4529178662.934,-13.412122748639518,0.0,-3.1835938106070394,0.0
4529193662.9335,-13.417786351208562,0.0,-3.150376375437982,0.0
4529208662.933,-13.406957778000265,0.0,-3.150405641552801,0.0
4529223662.9325,-13.40437470486091,0.0,-3.110295161741778,0.0
4529238662.932,-13.413213615189113,0.0,-3.153277170004333,0.0
4529253662.9315,-13.422444717787915,0.0,-3.1831130962216703,0.0
4529268662.931,-13.414143842421655,0.0,-3.1737523144130524,0.0
4529283662.9305,-13.409816054167063,0.0,-3.2329099231241165,0.0
4529298662.93,-13.41313442985004,0.0,-3.2148637552849255,0.0
4529313662.9295,-13.414275312318704,0.0,-3.1840369573168443,0.0
4529328662.929,-13.41003130720088,0.0,-3.136438563817262,0.0
4529343662.9285,-13.40987458213493,0.0,-3.162330508624012,0.0
4529358662.928,-13.412674066129266,0.0,-3.201520438142468,0.0
4529373662.9275,-13.409383293550977,0.0,-3.183279440468694,0.0
4529388662.927,-13.40849354782938,0.0,-3.2081421956089593,0.0
4529403662.9265,-13.411997894498748,0.0,-3.146593912087236,0.0
4529418662.926,-13.411635074258077,0.0,-3.1974765137821,0.0
4529433662.9255,-13.40804373024882,0.0,-3.237745202655738,0.0
4529448662.925,-13.41352082270911,0.0,-3.2046108064814116,0.0
4529463662.9245,-13.419195575737074,0.0,-3.1841128076848686,0.0
4529478662.924,-13.419636372513743,0.0,-3.2372016720443395,0.0
4529493662.9235,-13.404594279720259,0.0,-3.199090605319479,0.0
4529508662.923,-13.413250773900796,0.0,-3.1826992317371836,0.0
4529523662.9225,-13.418028127860106,0.0,-3.2049752549883515,0.0
4529538662.922,-13.417441659839913,0.0,-3.2013874035117484,0.0
4529553662.9215,-13.407972661918933,0.0,-3.1821080705382365,0.0
4529568662.921,-13.412211179202473,0.0,-3.236098015220895,0.0
4529583662.9205,-13.41812122508105,0.0,-3.2066558342206934,0.0
4529598662.92,-13.411396289411307,0.0,-3.2686294356095793,0.0
4529613662.9195,-13.419332056841176,0.0,-3.264046416435557,0.0
4529628662.919,-13.422976155148538,0.0,-3.1855764781694242,0.0
4529643662.9185,-13.41545836446912,0.0,-3.2639740960864665,0.0
4529658662.918,-13.41795582625889,0.0,-3.2547009235608337,0.0
4529673662.9175,-13.41866034626457,0.0,-3.221530581301955,0.0
4529688662.917,-13.418304871245613,0.0,-3.271115003352701,0.0
4529703662.9165,-13.422746804563332,0.0,-3.273204313006012,0.0
4529718662.916,-13.41781891271201,0.0,-3.265593076014346,0.0
4529733662.9155,-13.404720511684395,0.0,-3.253664901972351,0.0
4529748662.915,-13.420250269307136,0.0,-3.3481134701431805,0.0
4529763662.9145,-13.421623655038314,0.0,-3.2697001498008382,0.0
4529778662.914,-13.416397769613527,0.0,-3.271355523062848,0.0
4529793662.9135,-13.404815066227924,0.0,-3.3049361777403186,0.0
4529808662.913,-13.41738046926305,0.0,-3.29404628291771,0.0
4529823662.9125,-13.418945720314602,0.0,-3.3074637373959037,0.0
4529838662.912,-13.425422635780338,0.0,-3.2906590713318566,0.0
4529853662.9115,-13.41090237994351,0.0,-3.311897638296893,0.0
4529868662.911,-13.405802814595326,0.0,-3.3403254270123335,0.0
4529883662.9105,-13.416671562288386,0.0,-3.2955654270164927,0.0
4529898662.91,-13.408536767519351,0.0,-3.254485447280732,0.0
4529913662.9095,-13.415298198186303,0.0,-3.2907238812637103,0.0
4529928662.909,-13.416694513882796,0.0,-3.2734259390862266,0.0
4529943662.9085,-13.416244076260362,0.0,-3.2904667055214927,0.0
4529958662.908,-13.418942334182496,0.0,-3.312417437908979,0.0
4529973662.9075,-13.420067834042417,0.0,-3.2890719225973557,0.0
4529988662.907,-13.417085744500266,0.0,-3.2979777436130244,0.0
4530003662.9065,-13.414058635466796,0.0,-3.3649488389769804,0.0
4530018662.906,-13.409403787513261,0.0,-3.2985467446690624,0.0
4530033662.9055,-13.417773748401672,0.0,-3.3304479525324524,0.0
4530048662.905,-13.417407259033943,0.0,-3.3467117368053567,0.0
4530063662.9045,-13.412630760955885,0.0,-3.4266941124892756,0.0
4530078662.904,-13.42196112446555,0.0,-3.333312099810674,0.0
4530093662.9035,-13.406452516999954,0.0,-3.2771663911255158,0.0
4530108662.903,-13.420231077787989,0.0,-3.3399511604621632,0.0
4530123662.9025,-13.422581577583362,0.0,-3.3157426901994174,0.0
4530138662.902,-13.410183263570048,0.0,-3.3373814522182252,0.0
4530153662.9015,-13.414944494202533,0.0,-3.3363305558947767,0.0
4530168662.901,-13.420096363158402,0.0,-3.257734852740327,0.0
4530183662.9005,-13.409760045391117,0.0,-3.402246269692431,0.0
4530198662.9,-13.414379207042073,0.0,-3.296456833898897,0.0
4530213662.8995,-13.419898341603522,0.0,-3.3452557610844993,0.0
4530228662.899,-13.423842101915147,0.0,-3.2952826013425036,0.0
4530243662.8985,-13.421078043699424,0.0,-3.35595340933041,0.0
4530258662.898,-13.417714845386188,0.0,-3.341702018395946,0.0
4530273662.8975,-13.409663976172263,0.0,-3.392240756438402,0.0
4530288662.897,-13.418632606343643,0.0,-3.3544918683070044,0.0
4530303662.8965,-13.415611942334959,0.0,-3.327202694861008,0.0
4530318662.896,-13.421968168379458,0.0,-3.4290692343573923,0.0
4530333662.8955,-13.419968325052004,0.0,-3.317143889584503,0.0
4530348662.895,-13.418066997233925,0.0,-3.3546304967858935,0.0
4530363662.8945,-13.422607616621228,0.0,-3.3847108883889643,0.0
4530378662.894,-13.419781602636364,0.0,-3.380278450552298,0.0
4530393662.8935,-13.421106611210124,0.0,-3.403603476289328,0.0
4530408662.893,-13.422381966061492,0.0,-3.3161505461994447,0.0
4530423662.8925,-13.410923848427467,0.0,-3.4489179532553718,0.0
4530438662.892,-13.420057463203616,0.0,-3.4046448426617806,0.0
4530453662.8915,-13.420013638017181,0.0,-3.3981556165587845,0.0
4530468662.891,-13.419957523452089,0.0,-3.440602160766908,0.0
4530483662.8905,-13.419256198869158,0.0,-3.4217972336543157,0.0
4530498662.89,-13.423340755424572,0.0,-3.4367864213611563,0.0
4530513662.8895,-13.425146784301585,0.0,-3.4336059848275435,0.0
4530528662.889,-13.419985813003041,0.0,-3.458023097307426,0.0
4530543662.8885,-13.4201544624801,0.0,-3.4298259426924447,0.0
4530558662.888,-13.421323990544616,0.0,-3.4550539476930253,0.0
4530573662.8875,-13.417740067039421,0.0,-3.3826539737893873,0.0
4530588662.887,-13.412168918383522,0.0,-3.4104778394862953,0.0
4530603662.8865,-13.421907265915955,0.0,-3.4466896183967957,0.0
4530618662.886,-13.420216665373527,0.0,-3.467000122380979,0.0
4530633662.8855,-13.414021552094201,0.0,-3.491275006928152,0.0
4530648662.885,-13.42323156655551,0.0,-3.508687049558475,0.0
4530663662.8845,-13.415502608443383,0.0,-3.4346909147178333,0.0
4530678662.884,-13.413255916909051,0.0,-3.4968708168866205,0.0
4530693662.8835,-13.418174699420835,0.0,-3.406568092021886,0.0
4530708662.883,-13.424447409280067,0.0,-3.4141065251321328,0.0
4530723662.8825,-13.412673138580196,0.0,-3.535936449379262,0.0
4530738662.882,-13.42154460829507,0.0,-3.4139371600255743,0.0
4530753662.8815,-13.420023405640215,0.0,-3.4576081696908787,0.0
4530768662.881,-13.420424567925345,0.0,-3.4843827989156937,0.0
4530783662.8805,-13.420235491262844,0.0,-3.4744498339494747,0.0
4530798662.88,-13.412792844196721,0.0,-3.4963957934004064,0.0
4530813662.8795,-13.411037457503776,0.0,-3.5000543814615495,0.0
4530828662.879,-13.422654913067234,0.0,-3.472648510335858,0.0
4530843662.8785,-13.412386206464282,0.0,-3.5183537370049343,0.0
4530858662.878,-13.426177584208094,0.0,-3.5750288434649646,0.0
4530873662.8775,-13.405807607007283,0.0,-3.5176332715977576,0.0
4530888662.877,-13.422295758793044,0.0,-3.5020052481734916,0.0
4530903662.8765,-13.419758343815618,0.0,-3.5179811818320106,0.0
4530918662.876,-13.419086523879676,0.0,-3.521840635945003,0.0
4530933662.8755,-13.429794330454106,0.0,-3.5082423781557392,0.0
4530948662.875,-13.41618672531714,0.0,-3.532478794765156,0.0
4530963662.8745,-13.41999336791442,0.0,-3.5014679618928244,0.0
4530978662.874,-13.426411440335173,0.0,-3.5390497318187415,0.0
4530993662.8735,-13.420397643183017,0.0,-3.5278466120313148,0.0
4531008662.873,-13.415437810154135,0.0,-3.5259324345870864,0.0
4531023662.8725,-13.42438589025484,0.0,-3.610332559609924,0.0
4531038662.872,-13.429818836641799,0.0,-3.51172953260174,0.0
4531053662.8715,-13.425724707271309,0.0,-3.5147907256309963,0.0
4531068662.871,-13.422371492421876,0.0,-3.518769901604115,0.0
4531083662.8705,-13.42634116139073,0.0,-3.5832240300390663,0.0
4531098662.87,-13.419924892005092,0.0,-3.621395530217661,0.0
4531113662.8695,-13.419338106935921,0.0,-3.582669900361464,0.0
4531128662.869,-13.41361971227135,0.0,-3.510656275448577,0.0
4531143662.8685,-13.425246653728065,0.0,-3.5847499158963863,0.0
4531158662.868,-13.419489754111282,0.0,-3.5949151248307722,0.0
4531173662.8675,-13.42487688010793,0.0,-3.5371222748330395,0.0
4531188662.867,-13.431406166074051,0.0,-3.5849804871460154,0.0
4531203662.8665,-13.430937724164938,0.0,-3.5841790390569117,0.0
4531218662.866,-13.419749997875495,0.0,-3.584009062802319,0.0
4531233662.8655,-13.413816029410754,0.0,-3.585349901666786,0.0
4531248662.865,-13.4216103923054,0.0,-3.630322524805927,0.0
4531263662.8645,-13.42136046787504,0.0,-3.6089318659668987,0.0
4531278662.864,-13.427721950271126,0.0,-3.6223541214319424,0.0
4531293662.8635,-13.419093398428313,0.0,-3.6158586470324607,0.0
4531308662.863,-13.432585101084902,0.0,-3.6139865964285414,0.0
4531323662.8625,-13.41381531813935,0.0,-3.5999989982904816,0.0
4531338662.862,-13.414199688534612,0.0,-3.550029456853896,0.0
4531353662.8615,-13.411673307186238,0.0,-3.6469087252773837,0.0
4531368662.861,-13.406333912376105,0.0,-3.633893846150648,0.0
4531383662.8605,-13.428987079966019,0.0,-3.6171110040654537,0.0
4531398662.86,-13.426403388293615,0.0,-3.651885510822562,0.0
4531413662.8595,-13.413196147482475,0.0,-3.659052159278019,0.0
4531428662.859,-13.414829194685824,0.0,-3.684948503684353,0.0
4531443662.8585,-13.416942780920095,0.0,-3.58606882001004,0.0
4531458662.858,-13.414656136517706,0.0,-3.6646313182660846,0.0
4531473662.8575,-13.422053748433818,0.0,-3.6627426434007444,0.0
4531488662.857,-13.42246409611831,0.0,-3.699770107133987,0.0
4531503662.8565,-13.416053146594253,0.0,-3.6753148624416525,0.0
4531518662.856,-13.426310221887048,0.0,-3.644377272471138,0.0
4531533662.8555,-13.424182368690502,0.0,-3.6007590503023956,0.0
4531548662.855,-13.429591783384577,0.0,-3.6630296970828926,0.0
4531563662.8545,-13.426667986423377,0.0,-3.734728612565467,0.0
4531578662.854,-13.419864077087944,0.0,-3.6850172834926007,0.0
4531593662.8535,-13.426091648760295,0.0,-3.7023466692051117,0.0
4531608662.853,-13.42851569143879,0.0,-3.6847924325518044,0.0
4531623662.8525,-13.416088508850654,0.0,-3.6419566937071295,0.0
4531638662.852,-13.421684873563514,0.0,-3.605931613811723,0.0
4531653662.8515,-13.42169030262484,0.0,-3.7095138416717512,0.0
4531668662.851,-13.417751327308958,0.0,-3.7085058637094477,0.0
4531683662.8505,-13.430244691467593,0.0,-3.693184536343173,0.0
4531698662.85,-13.420815153716084,0.0,-3.759233791554824,0.0
4531713662.8495,-13.421729428272059,0.0,-3.7467463922483106,0.0
4531728662.849,-13.422738538583676,0.0,-3.6778747919621866,0.0
4531743662.8485,-13.427244358457793,0.0,-3.72661787317672,0.0
4531758662.848,-13.421561374646256,0.0,-3.727368022578765,0.0
4531773662.8475,-13.42601496271769,0.0,-3.7294622648923212,0.0
4531788662.847,-13.430941080368981,0.0,-3.7882462895156435,0.0
4531803662.8465,-13.430618805288985,0.0,-3.7291157337846896,0.0
4531818662.846,-13.419819196753025,0.0,-3.7901956077847925,0.0
4531833662.8455,-13.421080054524086,0.0,-3.7316972330471665,0.0
4531848662.845,-13.430904474418943,0.0,-3.7595286503664034,0.0
4531863662.8445,-13.418226014622434,0.0,-3.8160386715669183,0.0
