Frequency,S11,S11-Q,S11-Phase,S11-Phase-Q
4527198663.0,-13.430809707949361,0.0,-2.4811763286238824,0.0
4527213662.9995,-13.436402461055545,0.0,-2.5407671113415606,0.0
4527228662.999,-13.420691808677379,0.0,-2.5388334954646266,0.0
4527243662.9985,-13.425618001560597,0.0,-2.54645061423,0.0
4527258662.998,-13.424495212636657,0.0,-2.58105172951075,0.0
4527273662.9975,-13.425586071350846,0.0,-2.5467556071024386,0.0
4527288662.997,-13.427219149256048,0.0,-2.4662479556594725,0.0
4527303662.9965,-13.426337668930195,0.0,-2.5455815603373906,0.0
4527318662.996,-13.427566204419177,0.0,-2.503421609437178,0.0
4527333662.9955,-13.42169603389523,0.0,-2.5576880844288876,0.0
4527348662.995,-13.428810929234658,0.0,-2.5246295635024403,0.0
4527363662.9945,-13.425533634175826,0.0,-2.607322470219289,0.0
4527378662.994,-13.428645843516593,0.0,-2.522828047670152,0.0
4527393662.9935,-13.42659628454969,0.0,-2.5893922672109992,0.0
4527408662.993,-13.425610032469312,0.0,-2.5477053943042156,0.0
4527423662.9925,-13.427037565353029,0.0,-2.5716791989675625,0.0
4527438662.992,-13.422064156007998,0.0,-2.5309812401850844,0.0
4527453662.9915,-13.4290762111252,0.0,-2.533521338764753,0.0
4527468662.991,-13.423468899019635,0.0,-2.5730242527064875,0.0
4527483662.9905,-13.431728956244006,0.0,-2.5181893803889097,0.0
4527498662.99,-13.42846235820309,0.0,-2.555374635353804,0.0
4527513662.9895,-13.42678940300723,0.0,-2.63696867564535,0.0
4527528662.989,-13.438629262538074,0.0,-2.5910664256424876,0.0
4527543662.9885,-13.423443730952,0.0,-2.634538338098534,0.0
4527558662.988,-13.4229107186706,0.0,-2.5723986347114662,0.0
4527573662.9875,-13.430158009802595,0.0,-2.5524177588362367,0.0
4527588662.987,-13.424450243418452,0.0,-2.5551141549518213,0.0
4527603662.9865,-13.428118963248965,0.0,-2.5708851046621017,0.0
4527618662.986,-13.43040781448871,0.0,-2.5859728345195125,0.0
4527633662.9855,-13.428267062074063,0.0,-2.5994587541421303,0.0
4527648662.985,-13.430109132862569,0.0,-2.644147307079072,0.0
4527663662.9845,-13.42898380607858,0.0,-2.5655644032996423,0.0
4527678662.984,-13.422917667749612,0.0,-2.6192533854793028,0.0
4527693662.9835,-13.428407576867267,0.0,-2.608637754988051,0.0
4527708662.983,-13.415050621841138,0.0,-2.6060662273268664,0.0
4527723662.9825,-13.425250283284647,0.0,-2.5992344292904135,0.0
4527738662.982,-13.425367274917413,0.0,-2.572399713876385,0.0
4527753662.9815,-13.430665214359038,0.0,-2.5354489259646296,0.0
4527768662.981,-13.428029151850726,0.0,-2.632073690204197,0.0
4527783662.9805,-13.415238570015344,0.0,-2.6280322269935725,0.0
4527798662.98,-13.426389426763304,0.0,-2.5690929141418977,0.0
4527813662.9795,-13.420782493458942,0.0,-2.6810141608155487,0.0
4527828662.979,-13.428252587937026,0.0,-2.6159692708264526,0.0
4527843662.9785,-13.420821246377974,0.0,-2.6557311326728916,0.0
4527858662.978,-13.427069762188035,0.0,-2.652978694745857,0.0
4527873662.9775,-13.430925940296344,0.0,-2.5804978157196787,0.0
4527888662.977,-13.433373559679305,0.0,-2.6469307152490673,0.0
4527903662.9765,-13.422529655980746,0.0,-2.697801108727363,0.0
4527918662.976,-13.434847980219287,0.0,-2.700271841161494,0.0
4527933662.9755,-13.435693770082942,0.0,-2.620906910897076,0.0
4527948662.975,-13.433039517735105,0.0,-2.635489066407268,0.0
4527963662.9745,-13.425161877256066,0.0,-2.62174018008167,0.0
4527978662.974,-13.431583581665672,0.0,-2.6380118803446675,0.0
4527993662.9735,-13.435559064082241,0.0,-2.644011485761907,0.0
4528008662.973,-13.43586607204635,0.0,-2.6562598941702023,0.0
4528023662.9725,-13.422961475297617,0.0,-2.669694724353946,0.0
4528038662.972,-13.428048280421795,0.0,-2.7077457699743404,0.0
4528053662.9715,-13.424427442207117,0.0,-2.657214329526288,0.0
4528068662.971,-13.4199578459506,0.0,-2.67118352518785,0.0
4528083662.9705,-13.4271794099953,0.0,-2.6816930265871264,0.0
4528098662.97,-13.42736128110652,0.0,-2.60473978040989,0.0
4528113662.9695,-13.42596569783559,0.0,-2.689458335727502,0.0
4528128662.969,-13.429984234085389,0.0,-2.6943817181210292,0.0
4528143662.9685,-13.438890520976823,0.0,-2.676334330561274,0.0
4528158662.968,-13.436944659618304,0.0,-2.676630904664422,0.0
4528173662.9675,-13.427441921898227,0.0,-2.716867550476934,0.0
4528188662.967,-13.418364016288136,0.0,-2.7094748899032193,0.0
4528203662.9665,-13.422101326507665,0.0,-2.6582918116830947,0.0
4528218662.966,-13.426723021587838,0.0,-2.6464936817187055,0.0
4528233662.9655,-13.438381918462554,0.0,-2.640332388170137,0.0
4528248662.965,-13.427077010594164,0.0,-2.6644376745684295,0.0
4528263662.9645,-13.430026293714858,0.0,-2.679280638827534,0.0
4528278662.964,-13.434500656679592,0.0,-2.665526212435873,0.0
4528293662.9635,-13.428322186801367,0.0,-2.671254190395089,0.0
4528308662.963,-13.431784986450966,0.0,-2.6277491721023134,0.0
4528323662.9625,-13.422266065187936,0.0,-2.7357846395999843,0.0
4528338662.962,-13.428151701812403,0.0,-2.7155507227468783,0.0
4528353662.9615,-13.43156206679195,0.0,-2.7169185050391236,0.0
4528368662.961,-13.427257318281008,0.0,-2.6670426366868263,0.0
4528383662.9605,-13.43204323359801,0.0,-2.673071789662317,0.0
4528398662.96,-13.423951663610527,0.0,-2.7494828079609746,0.0
4528413662.9595,-13.418820916974607,0.0,-2.7055312085507994,0.0
4528428662.959,-13.426133849033207,0.0,-2.7411585794027187,0.0
4528443662.9585,-13.421453007181812,0.0,-2.7267826708638907,0.0
4528458662.958,-13.434696422498968,0.0,-2.7764586616271454,0.0
4528473662.9575,-13.422441599519123,0.0,-2.726687085812076,0.0
4528488662.957,-13.431666956789055,0.0,-2.7465575883950644,0.0
4528503662.9565,-13.435418744343512,0.0,-2.710538219846935,0.0
4528518662.956,-13.421574810985767,0.0,-2.7751244576505822,0.0
4528533662.9555,-13.431013244620342,0.0,-2.7262779250231537,0.0
4528548662.955,-13.427267982116097,0.0,-2.734785300770504,0.0
4528563662.9545,-13.434311673478437,0.0,-2.6736311391373193,0.0
4528578662.954,-13.428603356954667,0.0,-2.733985885065205,0.0
4528593662.9535,-13.417711394551322,0.0,-2.7207682528446946,0.0
4528608662.953,-13.434817773029593,0.0,-2.7209868669155237,0.0
4528623662.9525,-13.425254098619043,0.0,-2.7493222987282278,0.0
4528638662.952,-13.426368739995155,0.0,-2.7607541414380714,0.0
4528653662.9515,-13.432156772610128,0.0,-2.722859549641773,0.0
4528668662.951,-13.420971874208139,0.0,-2.7916130241726336,0.0
4528683662.9505,-13.421785557000907,0.0,-2.760276912286929,0.0
4528698662.95,-13.43660032754598,0.0,-2.814411067934378,0.0
4528713662.9495,-13.430794407871375,0.0,-2.8018395179904605,0.0
4528728662.949,-13.426884275294704,0.0,-2.761511294885949,0.0
4528743662.9485,-13.429695052449116,0.0,-2.779298495369337,0.0
4528758662.948,-13.42781042867413,0.0,-2.705649306165242,0.0
4528773662.9475,-13.419831283561896,0.0,-2.7861736630262,0.0
4528788662.947,-13.429461882965821,0.0,-2.83540057379796,0.0
4528803662.9465,-13.423760641375246,0.0,-2.7587753220730358,0.0
4528818662.946,-13.429423312620674,0.0,-2.7535555440636914,0.0
4528833662.9455,-13.424670378755444,0.0,-2.7977888149660304,0.0
4528848662.945,-13.43590723944895,0.0,-2.780704440826242,0.0
4528863662.9445,-13.42959063366216,0.0,-2.85836146662968,0.0
4528878662.944,-13.431050410063339,0.0,-2.748492928630257,0.0
4528893662.9435,-13.426549280621705,0.0,-2.7953870804843213,0.0
4528908662.943,-13.438121099939933,0.0,-2.8032048330738575,0.0
4528923662.9425,-13.42950313169354,0.0,-2.92159324121275,0.0
4528938662.942,-13.420222351511404,0.0,-2.8653556965392197,0.0
4528953662.9415,-13.433579746802792,0.0,-2.831477178267376,0.0
4528968662.941,-13.433559169923765,0.0,-2.879350872414629,0.0
4528983662.9405,-13.43830380606527,0.0,-2.7734656765538106,0.0
4528998662.94,-13.43275048770548,0.0,-2.7480416123028166,0.0
4529013662.9395,-13.435556754797686,0.0,-2.856860081598131,0.0
4529028662.939,-13.434075833166595,0.0,-2.7794662850229273,0.0
4529043662.9385,-13.427870392778408,0.0,-2.8512234030758563,0.0
4529058662.938,-13.4269321211466,0.0,-2.7928285911959105,0.0
4529073662.9375,-13.430719365205599,0.0,-2.8649758217379957,0.0
4529088662.937,-13.435231421020413,0.0,-2.8108973738678866,0.0
4529103662.9365,-13.427017620662745,0.0,-2.902595550604021,0.0
4529118662.936,-13.4288016004116,0.0,-2.7963256171091357,0.0
4529133662.9355,-13.428351403776258,0.0,-2.838586874253823,0.0
4529148662.935,-13.43317564875309,0.0,-2.910095651956881,0.0
4529163662.9345,-13.435709357238885,0.0,-2.847075927770323,0.0
4529178662.934,-13.431854565747408,0.0,-2.869274590043433,0.0
4529193662.9335,-13.423441774921317,0.0,-2.8635970497915224,0.0
4529208662.933,-13.421652129828658,0.0,-2.8923093633097774,0.0
4529223662.9325,-13.43569912743191,0.0,-2.848613449163096,0.0
4529238662.932,-13.433023228315797,0.0,-2.8888361132148828,0.0
4529253662.9315,-13.433103067134596,0.0,-2.8623766870589296,0.0
4529268662.931,-13.43363307651914,0.0,-2.9124521521066775,0.0
4529283662.9305,-13.435809809128846,0.0,-2.824422457841264,0.0
4529298662.93,-13.43587741487716,0.0,-2.8348302780898558,0.0
4529313662.9295,-13.430749105893593,0.0,-2.9304542442129917,0.0
4529328662.929,-13.427083666722995,0.0,-2.866077692123566,0.0
4529343662.9285,-13.431632094113295,0.0,-2.9253931994301863,0.0
4529358662.928,-13.432453221048082,0.0,-2.8950545686526348,0.0
4529373662.9275,-13.436294000813094,0.0,-2.894869706138037,0.0
4529388662.927,-13.426570260453454,0.0,-2.9404171600708913,0.0
4529403662.9265,-13.427359783147043,0.0,-2.930680974716675,0.0
4529418662.926,-13.437130296163179,0.0,-2.938335337807401,0.0
4529433662.9255,-13.432647585133102,0.0,-2.8807211852829626,0.0
4529448662.925,-13.437199578755,0.0,-2.9247172911970254,0.0
4529463662.9245,-13.435850953911444,0.0,-2.937183202164119,0.0
4529478662.924,-13.431724561497857,0.0,-2.920169526357476,0.0
4529493662.9235,-13.439167460440204,0.0,-2.860917485742743,0.0
4529508662.923,-13.43499555374818,0.0,-2.911771277477575,0.0
4529523662.9225,-13.43006674774179,0.0,-2.8450400647686944,0.0
4529538662.922,-13.43736067893158,0.0,-2.9046832067209722,0.0
4529553662.9215,-13.431180348514935,0.0,-2.8816995193454504,0.0
4529568662.921,-13.431611561047767,0.0,-2.865622649595625,0.0
4529583662.9205,-13.43399801419067,0.0,-2.958437694750996,0.0
4529598662.92,-13.426758366686437,0.0,-2.9374939891833187,0.0
4529613662.9195,-13.439597121890117,0.0,-3.00213981568949,0.0
4529628662.919,-13.429031179043196,0.0,-2.966266977206602,0.0
4529643662.9185,-13.433223844445877,0.0,-3.016494185940816,0.0
4529658662.918,-13.425660816290307,0.0,-2.986419568813637,0.0
4529673662.9175,-13.43896947972942,0.0,-2.9278267621321095,0.0
4529688662.917,-13.43357626815508,0.0,-2.9954714008128356,0.0
4529703662.9165,-13.429203737958314,0.0,-2.9569173128295607,0.0
4529718662.916,-13.430087953959891,0.0,-2.970408330899603,0.0
4529733662.9155,-13.428820765051963,0.0,-2.9393811058127755,0.0
4529748662.915,-13.43596123125125,0.0,-3.013068510115799,0.0
4529763662.9145,-13.42800163140806,0.0,-2.9934351111413386,0.0
4529778662.914,-13.442601180068031,0.0,-2.9877088753258123,0.0
4529793662.9135,-13.42659416861177,0.0,-3.0180806823738155,0.0
4529808662.913,-13.428912204216248,0.0,-2.9135515374828733,0.0
4529823662.9125,-13.44282850949487,0.0,-2.9680482417590643,0.0
4529838662.912,-13.430808667158349,0.0,-2.984818926325135,0.0
4529853662.9115,-13.42671174482917,0.0,-2.9745341511789354,0.0
4529868662.911,-13.438499468632907,0.0,-3.007829613985832,0.0
4529883662.9105,-13.43573334362266,0.0,-3.009202650769755,0.0
4529898662.91,-13.425936151122206,0.0,-2.9867803925603855,0.0
4529913662.9095,-13.434196571545577,0.0,-2.966979750414545,0.0
4529928662.909,-13.426419188499235,0.0,-3.0511134570512137,0.0
4529943662.9085,-13.434499652252281,0.0,-2.9855510166368675,0.0
4529958662.908,-13.43777999234103,0.0,-3.028295313551452,0.0
4529973662.9075,-13.434024153508322,0.0,-2.992382892720997,0.0
4529988662.907,-13.42980569640854,0.0,-2.999858247097268,0.0
4530003662.9065,-13.429609582906698,0.0,-3.043862287846078,0.0
4530018662.906,-13.431030530151347,0.0,-3.0147228520699163,0.0
4530033662.9055,-13.43112844765134,0.0,-3.031186865704169,0.0
4530048662.905,-13.437004569920381,0.0,-3.0800542942447233,0.0
4530063662.9045,-13.435000622196796,0.0,-2.9950247568288146,0.0
4530078662.904,-13.43598644051427,0.0,-3.0329271766936143,0.0
4530093662.9035,-13.427012610043388,0.0,-3.073280596817658,0.0
4530108662.903,-13.431218346301328,0.0,-3.0724101484469952,0.0
4530123662.9025,-13.42935535345234,0.0,-3.0236549320926063,0.0
4530138662.902,-13.43083407447888,0.0,-3.109187415270392,0.0
4530153662.9015,-13.435926487005164,0.0,-3.0521961307148433,0.0
4530168662.901,-13.437919119047185,0.0,-3.03713737915887,0.0
4530183662.9005,-13.432508415333874,0.0,-3.087530118832742,0.0
4530198662.9,-13.42636611165105,0.0,-3.0633201021646617,0.0
4530213662.8995,-13.432593935245327,0.0,-3.1101193499018187,0.0
4530228662.899,-13.434058173383654,0.0,-3.0710958529461347,0.0
4530243662.8985,-13.441371385957016,0.0,-3.0776875153745067,0.0
4530258662.898,-13.431068133068164,0.0,-3.054600867415456,0.0
4530273662.8975,-13.439694065832064,0.0,-3.057518681723731,0.0
4530288662.897,-13.429796511878083,0.0,-3.0596374924292875,0.0
4530303662.8965,-13.440464637655092,0.0,-3.075654828779811,0.0
4530318662.896,-13.426573370922636,0.0,-3.1154576868821113,0.0
4530333662.8955,-13.431992997809965,0.0,-3.037928767186045,0.0
4530348662.895,-13.441238685092586,0.0,-3.129932603335898,0.0
4530363662.8945,-13.442590906322936,0.0,-3.1240668836117935,0.0
4530378662.894,-13.430425246119622,0.0,-3.101887366997517,0.0
4530393662.8935,-13.431117577600602,0.0,-3.0248609525797616,0.0
4530408662.893,-13.434429024650454,0.0,-2.9996746535698837,0.0
4530423662.8925,-13.435550569463729,0.0,-3.1389836716224035,0.0
4530438662.892,-13.427438795199002,0.0,-3.139283135764845,0.0
4530453662.8915,-13.431623524569773,0.0,-3.0980694774176487,0.0
4530468662.891,-13.43674764371426,0.0,-3.138489693324604,0.0
4530483662.8905,-13.434901703212903,0.0,-3.1272693526495785,0.0
4530498662.89,-13.435817138557676,0.0,-3.143744213643562,0.0
4530513662.8895,-13.431860998156854,0.0,-3.1382625044140955,0.0
4530528662.889,-13.425443982435109,0.0,-3.1189332612031553,0.0
4530543662.8885,-13.436814059488562,0.0,-3.1049442245505774,0.0
4530558662.888,-13.444433240644123,0.0,-3.10868824902809,0.0
4530573662.8875,-13.431006079163922,0.0,-3.1266202975002195,0.0
4530588662.887,-13.433297934228952,0.0,-3.1930679217403397,0.0
4530603662.8865,-13.43481293517275,0.0,-3.1501580852510718,0.0
4530618662.886,-13.44672869359231,0.0,-3.175556873945887,0.0
4530633662.8855,-13.43588844324257,0.0,-3.127909928560804,0.0
4530648662.885,-13.442613873083026,0.0,-3.197156409851786,0.0
4530663662.8845,-13.44414668302367,0.0,-3.1289604972400644,0.0
4530678662.884,-13.444634294721174,0.0,-3.164996951566306,0.0
4530693662.8835,-13.437228132010897,0.0,-3.2151720699258757,0.0
4530708662.883,-13.438826540344316,0.0,-3.1875733431494533,0.0
4530723662.8825,-13.4324349972904,0.0,-3.2089099296879673,0.0
4530738662.882,-13.433254451081762,0.0,-3.1639586295108098,0.0
4530753662.8815,-13.422102276740448,0.0,-3.213885684941978,0.0
4530768662.881,-13.43899130513481,0.0,-3.193736542458833,0.0
4530783662.8805,-13.432390362874823,0.0,-3.1611081710046736,0.0
4530798662.88,-13.434539815628224,0.0,-3.224622388404527,0.0
4530813662.8795,-13.439860526276082,0.0,-3.2196192932108127,0.0
4530828662.879,-13.436488390596672,0.0,-3.180158834019734,0.0
4530843662.8785,-13.450177194653028,0.0,-3.181883054504308,0.0
4530858662.878,-13.444104483465226,0.0,-3.2495723719590366,0.0
4530873662.8775,-13.442387284899693,0.0,-3.1996207871625884,0.0
4530888662.877,-13.44558676181245,0.0,-3.214473328158762,0.0
4530903662.8765,-13.444724098731742,0.0,-3.2602937118628095,0.0
4530918662.876,-13.430170594523663,0.0,-3.2861146703886934,0.0
4530933662.8755,-13.427033461342958,0.0,-3.1803459168087254,0.0
4530948662.875,-13.423076147795403,0.0,-3.2814354106253933,0.0
4530963662.8745,-13.436336371861415,0.0,-3.2612255080505737,0.0
4530978662.874,-13.438907485333822,0.0,-3.252409955269415,0.0
4530993662.8735,-13.430568110596417,0.0,-3.240326476955576,0.0
4531008662.873,-13.443260339805308,0.0,-3.2760169213259065,0.0
4531023662.8725,-13.435489996237122,0.0,-3.253836802453166,0.0
4531038662.872,-13.42768193383038,0.0,-3.2528180852474446,0.0
4531053662.8715,-13.429103769119479,0.0,-3.335050176750085,0.0
4531068662.871,-13.442441773112462,0.0,-3.254674498406021,0.0
4531083662.8705,-13.434543002952775,0.0,-3.2630343427422037,0.0
4531098662.87,-13.440933992274836,0.0,-3.2582954417129946,0.0
4531113662.8695,-13.443917040201864,0.0,-3.2322669687507335,0.0
4531128662.869,-13.436606893858237,0.0,-3.3054349980202193,0.0
4531143662.8685,-13.4386271300462,0.0,-3.295244744768061,0.0
4531158662.868,-13.426962123336985,0.0,-3.364716249645935,0.0
4531173662.8675,-13.439805089421991,0.0,-3.3041444047661144,0.0
4531188662.867,-13.431856569524488,0.0,-3.258817093144952,0.0
4531203662.8665,-13.438206518531505,0.0,-3.3150040608758538,0.0
4531218662.866,-13.429633357671683,0.0,-3.3045421923663643,0.0
4531233662.8655,-13.449646310930044,0.0,-3.306776109335025,0.0
4531248662.865,-13.441717526546954,0.0,-3.3472567497191084,0.0
4531263662.8645,-13.42990105204871,0.0,-3.2785470553901606,0.0
4531278662.864,-13.432953058198706,0.0,-3.3313955514651323,0.0
4531293662.8635,-13.428798855440105,0.0,-3.3659894480498744,0.0
4531308662.863,-13.437289105856658,0.0,-3.2988605346009896,0.0
4531323662.8625,-13.44299535572578,0.0,-3.3372677634505745,0.0
4531338662.862,-13.446158373597841,0.0,-3.319764814341924,0.0
4531353662.8615,-13.446832844947721,0.0,-3.275096232018497,0.0
4531368662.861,-13.452163820245167,0.0,-3.3362734035859183,0.0
4531383662.8605,-13.433447213733462,0.0,-3.3340405194974494,0.0
4531398662.86,-13.449263993934256,0.0,-3.3433189246095907,0.0
4531413662.8595,-13.439024484663332,0.0,-3.3566535532617237,0.0
4531428662.859,-13.440827424736586,0.0,-3.385667599157918,0.0
4531443662.8585,-13.447814705027819,0.0,-3.3299597854608503,0.0
4531458662.858,-13.442516097944647,0.0,-3.3140068549747292,0.0
4531473662.8575,-13.443362997382449,0.0,-3.345728134199229,0.0
4531488662.857,-13.437234883188065,0.0,-3.3595245148080415,0.0
4531503662.8565,-13.433590055352578,0.0,-3.3758833164666195,0.0
4531518662.856,-13.430756227813458,0.0,-3.3862439335664867,0.0
4531533662.8555,-13.436767939243001,0.0,-3.4286261366361566,0.0
4531548662.855,-13.437032009182492,0.0,-3.431523495012387,0.0
4531563662.8545,-13.43448147069019,0.0,-3.43363931157048,0.0
4531578662.854,-13.43918788617103,0.0,-3.4482738526768095,0.0
4531593662.8535,-13.44377658169104,0.0,-3.415357987521092,0.0
4531608662.853,-13.432606402661927,0.0,-3.388879886702633,0.0
4531623662.8525,-13.442243898364268,0.0,-3.414822389678545,0.0
4531638662.852,-13.449884239362573,0.0,-3.358633160033586,0.0
4531653662.8515,-13.440371309015154,0.0,-3.4109531896187404,0.0
4531668662.851,-13.437008239412538,0.0,-3.393495702157237,0.0
4531683662.8505,-13.443622535608009,0.0,-3.408307675444056,0.0
4531698662.85,-13.43937180284925,0.0,-3.4326100998908022,0.0
4531713662.8495,-13.434340491902487,0.0,-3.4614581690426545,0.0
4531728662.849,-13.43735275946475,0.0,-3.4228333825973993,0.0
4531743662.8485,-13.440961993611442,0.0,-3.432939534689344,0.0
4531758662.848,-13.439048024011637,0.0,-3.427807176632839,0.0
4531773662.8475,-13.446050302592703,0.0,-3.458533883170252,0.0
4531788662.847,-13.442180630479898,0.0,-3.566571058985648,0.0
4531803662.8465,-13.436595434821568,0.0,-3.4636398105728503,0.0
4531818662.846,-13.44572000720073,0.0,-3.4906207742140487,0.0
4531833662.8455,-13.431898653468778,0.0,-3.4388791119946305,0.0
4531848662.845,-13.443937373224726,0.0,-3.5375261565309186,0.0
4531863662.8445,-13.44582179192285,0.0,-3.4389535408497403,0.0
4531878662.844,-13.442655407026795,0.0,-3.4448743231430874,0.0
