Frequency,S11,S11-Q,S11-Phase,S11-Phase-Q
4527198663.0,-13.429728071937358,0.0,-2.7253676105110607,0.0
4527213662.9995,-13.428801142456441,0.0,-2.701812818468832,0.0
4527228662.999,-13.429791919820333,0.0,-2.7065656306435257,0.0
4527243662.9985,-13.439268533466835,0.0,-2.721079097095442,0.0
4527258662.998,-13.435361147051664,0.0,-2.711321156208717,0.0
4527273662.9975,-13.437747023452397,0.0,-2.7241104500122115,0.0
4527288662.997,-13.433344328742066,0.0,-2.768221117254621,0.0
4527303662.9965,-13.424838979891087,0.0,-2.7598222649900115,0.0
4527318662.996,-13.419950604951794,0.0,-2.7499782714740384,0.0
4527333662.9955,-13.429521858882689,0.0,-2.7620901312760813,0.0
4527348662.995,-13.426009331058985,0.0,-2.736417835764912,0.0
4527363662.9945,-13.430333697555415,0.0,-2.721029138148315,0.0
4527378662.994,-13.42467223803403,0.0,-2.7337279191953967,0.0
4527393662.9935,-13.435588300046854,0.0,-2.750266119977757,0.0
4527408662.993,-13.433579505399644,0.0,-2.7775419281527696,0.0
4527423662.9925,-13.431314263882408,0.0,-2.747258370014527,0.0
4527438662.992,-13.427369134737363,0.0,-2.7610798940381827,0.0
4527453662.9915,-13.429292001291941,0.0,-2.779020945557892,0.0
4527468662.991,-13.428265875915674,0.0,-2.738828199046326,0.0
4527483662.9905,-13.427933606113111,0.0,-2.772433036237336,0.0
4527498662.99,-13.425908625493435,0.0,-2.7304413659139866,0.0
4527513662.9895,-13.439020624049354,0.0,-2.8128744059679884,0.0
4527528662.989,-13.435725782320358,0.0,-2.774582368417254,0.0
4527543662.9885,-13.433688418790892,0.0,-2.7934126459968063,0.0
4527558662.988,-13.425951836035123,0.0,-2.7570052991934664,0.0
4527573662.9875,-13.42294842587817,0.0,-2.8155687883273774,0.0
4527588662.987,-13.429232530861153,0.0,-2.807129120189704,0.0
4527603662.9865,-13.439145058969302,0.0,-2.8238394132386335,0.0
4527618662.986,-13.434460698994453,0.0,-2.7633311540053205,0.0
4527633662.9855,-13.432333001139725,0.0,-2.834804799484159,0.0
4527648662.985,-13.447470315632504,0.0,-2.805393630031156,0.0
4527663662.9845,-13.44550044197068,0.0,-2.800238034262792,0.0
4527678662.984,-13.427586980447003,0.0,-2.8345781937792762,0.0
4527693662.9835,-13.439207589146772,0.0,-2.776915734144701,0.0
4527708662.983,-13.433935091593256,0.0,-2.8610823136873695,0.0
4527723662.9825,-13.433433050912972,0.0,-2.88135806509433,0.0
4527738662.982,-13.433148847907487,0.0,-2.811389980487608,0.0
4527753662.9815,-13.429471312550143,0.0,-2.83494838219401,0.0
4527768662.981,-13.437492009371256,0.0,-2.74980946692758,0.0
4527783662.9805,-13.435521582062684,0.0,-2.8027409712120805,0.0
4527798662.98,-13.434624497599168,0.0,-2.916928443540255,0.0
4527813662.9795,-13.428725199634941,0.0,-2.8397260090216245,0.0
4527828662.979,-13.43704505511204,0.0,-2.8560003249574137,0.0
4527843662.9785,-13.422433379875729,0.0,-2.8138479553309574,0.0
4527858662.978,-13.425407033543532,0.0,-2.8291122152871093,0.0
4527873662.9775,-13.425845644761544,0.0,-2.8925657408561527,0.0
4527888662.977,-13.435026475303868,0.0,-2.8285882075908986,0.0
4527903662.9765,-13.436251881865607,0.0,-2.8566085838751802,0.0
4527918662.976,-13.433011651120733,0.0,-2.7990338273184867,0.0
4527933662.9755,-13.432064475648328,0.0,-2.8745174046993998,0.0
4527948662.975,-13.429216218741137,0.0,-2.8565653818999546,0.0
4527963662.9745,-13.429149558465891,0.0,-2.925806575215665,0.0
4527978662.974,-13.431386363809438,0.0,-2.8202007728675187,0.0
4527993662.9735,-13.42733207781097,0.0,-2.898607673869897,0.0
4528008662.973,-13.431382944498196,0.0,-2.8456960301396785,0.0
4528023662.9725,-13.4371579041397,0.0,-2.893492299757886,0.0
4528038662.972,-13.441888482327393,0.0,-2.8460672675565584,0.0
4528053662.9715,-13.435516872998525,0.0,-2.868076259088031,0.0
4528068662.971,-13.427782935313932,0.0,-2.926907168320962,0.0
4528083662.9705,-13.431603704186868,0.0,-2.8719104622523792,0.0
4528098662.97,-13.428592478900434,0.0,-2.89227450179593,0.0
4528113662.9695,-13.43132669237336,0.0,-2.8775559495128884,0.0
4528128662.969,-13.432347289296551,0.0,-2.917501905567584,0.0
4528143662.9685,-13.437630272215515,0.0,-2.985465670321124,0.0
4528158662.968,-13.44223114918259,0.0,-2.8675407653291334,0.0
4528173662.9675,-13.43915643977326,0.0,-2.8963002009080783,0.0
4528188662.967,-13.42896484440474,0.0,-2.8589975620628985,0.0
4528203662.9665,-13.436386578436908,0.0,-2.8873805605481535,0.0
4528218662.966,-13.429430217265503,0.0,-2.92340758915923,0.0
4528233662.9655,-13.433279820092691,0.0,-2.9284096287921884,0.0
4528248662.965,-13.432141004263336,0.0,-2.950275942497492,0.0
4528263662.9645,-13.429113777613079,0.0,-2.869032384869554,0.0
4528278662.964,-13.435896043797431,0.0,-2.9533661407023146,0.0
4528293662.9635,-13.43432607811771,0.0,-2.9756331975135613,0.0
4528308662.963,-13.43617614605532,0.0,-2.8944590292813803,0.0
4528323662.9625,-13.432703279741155,0.0,-2.95161112863136,0.0
4528338662.962,-13.438676431124394,0.0,-2.9584790218618813,0.0
4528353662.9615,-13.430446957343317,0.0,-2.989089419558393,0.0
4528368662.961,-13.429219983582055,0.0,-2.976999191367827,0.0
4528383662.9605,-13.435800020798425,0.0,-2.9220028296732723,0.0
4528398662.96,-13.43765365506683,0.0,-2.990049233940186,0.0
4528413662.9595,-13.42902228070658,0.0,-2.9237991417597753,0.0
4528428662.959,-13.439780507911937,0.0,-2.9312322723794133,0.0
4528443662.9585,-13.432921041933671,0.0,-2.9894359316087664,0.0
4528458662.958,-13.437954689215788,0.0,-2.9669025204868773,0.0
4528473662.9575,-13.429786831492782,0.0,-3.005929168546377,0.0
4528488662.957,-13.428313726623024,0.0,-3.008896325415179,0.0
4528503662.9565,-13.435099783224125,0.0,-2.9815166579040273,0.0
4528518662.956,-13.435325587261033,0.0,-2.9648333730058134,0.0
4528533662.9555,-13.439881113744237,0.0,-2.961616827133284,0.0
4528548662.955,-13.438487674144346,0.0,-2.9299495348463793,0.0
4528563662.9545,-13.4429262938447,0.0,-2.954735216516964,0.0
4528578662.954,-13.432661753777735,0.0,-2.964482908836971,0.0
4528593662.9535,-13.43866268014281,0.0,-3.0027896800522824,0.0
4528608662.953,-13.436276442315831,0.0,-2.977767619770736,0.0
4528623662.9525,-13.426985248078317,0.0,-3.00941766888238,0.0
4528638662.952,-13.422614111935054,0.0,-2.997039902604122,0.0
4528653662.9515,-13.431115382671198,0.0,-2.9930567998698714,0.0
4528668662.951,-13.442859891776315,0.0,-2.9963067984196052,0.0
4528683662.9505,-13.440168675750632,0.0,-2.9692678256778042,0.0
4528698662.95,-13.452650824426339,0.0,-3.0303756565558175,0.0
4528713662.9495,-13.427775089003442,0.0,-2.9869327050698185,0.0
4528728662.949,-13.440594835859216,0.0,-3.0070002333710746,0.0
4528743662.9485,-13.429478481137592,0.0,-3.008714194773805,0.0
4528758662.948,-13.433239134567518,0.0,-3.0662544316381557,0.0
4528773662.9475,-13.431865316563753,0.0,-3.0763851235553408,0.0
4528788662.947,-13.443909938833517,0.0,-3.0222183077589806,0.0
4528803662.9465,-13.437873131864361,0.0,-3.033599350932363,0.0
4528818662.946,-13.440884456814725,0.0,-2.998782591097698,0.0
4528833662.9455,-13.442531210004917,0.0,-3.0048391464052324,0.0
4528848662.945,-13.447214424615039,0.0,-3.0694274503336314,0.0
4528863662.9445,-13.435937144255464,0.0,-3.0633287940038874,0.0
4528878662.944,-13.428782943397968,0.0,-3.076973122986114,0.0
4528893662.9435,-13.438071629161463,0.0,-3.0083487491057035,0.0
4528908662.943,-13.429447339784687,0.0,-3.063271865098048,0.0
4528923662.9425,-13.439467102280426,0.0,-3.0596619648282677,0.0
4528938662.942,-13.435215965525458,0.0,-3.091169672817925,0.0
4528953662.9415,-13.435783780152297,0.0,-3.0728329933108265,0.0
4528968662.941,-13.436723149172389,0.0,-3.0540814194789028,0.0
4528983662.9405,-13.43649053860897,0.0,-3.131308742356421,0.0
4528998662.94,-13.440074835523326,0.0,-3.0926770274664683,0.0
4529013662.9395,-13.441067899236511,0.0,-3.1396827324405696,0.0
4529028662.939,-13.438144362657479,0.0,-3.0978764065440747,0.0
4529043662.9385,-13.429815447876173,0.0,-3.079307659015312,0.0
4529058662.938,-13.445265729467643,0.0,-3.0877682908670776,0.0
4529073662.9375,-13.43866815675577,0.0,-3.1187115341669625,0.0
4529088662.937,-13.44879097964572,0.0,-3.0993530828497873,0.0
4529103662.9365,-13.437376434168227,0.0,-3.118003500827333,0.0
4529118662.936,-13.438873012098199,0.0,-3.1010646801561665,0.0
4529133662.9355,-13.435484135391508,0.0,-3.171109329170166,0.0
4529148662.935,-13.44216406380552,0.0,-3.1774572315150373,0.0
4529163662.9345,-13.435324169020115,0.0,-3.1130518538931353,0.0
4529178662.934,-13.437454509310019,0.0,-3.0960863618628034,0.0
4529193662.9335,-13.45201557798072,0.0,-3.175985777976549,0.0
4529208662.933,-13.443547632023423,0.0,-3.0651114588793864,0.0
4529223662.9325,-13.43389508186483,0.0,-3.0843865383919846,0.0
4529238662.932,-13.443740162625025,0.0,-3.1249133015872115,0.0
4529253662.9315,-13.439378834946398,0.0,-3.163838342882079,0.0
4529268662.931,-13.435528515346839,0.0,-3.1307200429266944,0.0
4529283662.9305,-13.433360596386903,0.0,-3.2146656602567867,0.0
4529298662.93,-13.449895327043153,0.0,-3.131084984604195,0.0
4529313662.9295,-13.44241420267151,0.0,-3.1308482539932445,0.0
4529328662.929,-13.442037929256186,0.0,-3.1465554495698904,0.0
4529343662.9285,-13.446989422404608,0.0,-3.1660862452613148,0.0
4529358662.928,-13.451107860271922,0.0,-3.1612936470958317,0.0
4529373662.9275,-13.442899464975604,0.0,-3.1747165206336434,0.0
4529388662.927,-13.437736044696331,0.0,-3.1825896238934326,0.0
4529403662.9265,-13.43431975361569,0.0,-3.2368475446095704,0.0
4529418662.926,-13.43885970287338,0.0,-3.2018421656509872,0.0
4529433662.9255,-13.441244966025778,0.0,-3.1731038731920425,0.0
4529448662.925,-13.441618710087148,0.0,-3.220159972745191,0.0
4529463662.9245,-13.440019351536094,0.0,-3.2705962344735373,0.0
4529478662.924,-13.437683855032855,0.0,-3.2044948676310554,0.0
4529493662.9235,-13.451146063152864,0.0,-3.2006272431119607,0.0
4529508662.923,-13.440718141337795,0.0,-3.2545920915358173,0.0
4529523662.9225,-13.437720468724168,0.0,-3.250206703806582,0.0
4529538662.922,-13.432338159675092,0.0,-3.236346613161322,0.0
4529553662.9215,-13.441008467850263,0.0,-3.223598424842138,0.0
4529568662.921,-13.447026378146692,0.0,-3.2014458829448036,0.0
4529583662.9205,-13.441785061957265,0.0,-3.2124867565390978,0.0
4529598662.92,-13.455464179987164,0.0,-3.2068800630589434,0.0
4529613662.9195,-13.45098134677919,0.0,-3.236032992698813,0.0
4529628662.919,-13.445465786001122,0.0,-3.230076533344806,0.0
4529643662.9185,-13.440994431879002,0.0,-3.34247281469533,0.0
4529658662.918,-13.444824946496015,0.0,-3.301913648852689,0.0
4529673662.9175,-13.437376532779307,0.0,-3.2629423132783906,0.0
4529688662.917,-13.44177629550991,0.0,-3.20964553099008,0.0
4529703662.9165,-13.44003815432256,0.0,-3.2261154472356326,0.0
4529718662.916,-13.446606749094546,0.0,-3.288018654183085,0.0
4529733662.9155,-13.454238753508909,0.0,-3.307209401662484,0.0
4529748662.915,-13.45514555254802,0.0,-3.2937822046255967,0.0
4529763662.9145,-13.449629266447918,0.0,-3.2910553085888514,0.0
4529778662.914,-13.447862402348854,0.0,-3.3143168048191485,0.0
4529793662.9135,-13.434159078549783,0.0,-3.298896610650661,0.0
4529808662.913,-13.445964574108032,0.0,-3.2799395390327497,0.0
4529823662.9125,-13.445298673201915,0.0,-3.294302290356579,0.0
4529838662.912,-13.44601094621628,0.0,-3.2970552856246114,0.0
4529853662.9115,-13.43697085013912,0.0,-3.2926584882308267,0.0
4529868662.911,-13.447101663800144,0.0,-3.3183472973166706,0.0
4529883662.9105,-13.44980245868912,0.0,-3.329786846825367,0.0
4529898662.91,-13.448036674541031,0.0,-3.344080363444775,0.0
4529913662.9095,-13.441215516754797,0.0,-3.3602360693025854,0.0
4529928662.909,-13.437482693613322,0.0,-3.331377755630669,0.0
4529943662.9085,-13.444850107358189,0.0,-3.3142984429893407,0.0
4529958662.908,-13.451668147299197,0.0,-3.358103801255884,0.0
4529973662.9075,-13.444312167133868,0.0,-3.283636825199248,0.0
4529988662.907,-13.45326324185157,0.0,-3.279652117192549,0.0
4530003662.9065,-13.44979805754595,0.0,-3.3586273904261357,0.0
4530018662.906,-13.44243537027656,0.0,-3.370692914398688,0.0
4530033662.9055,-13.441545352217837,0.0,-3.366733016985984,0.0
4530048662.905,-13.447910380276006,0.0,-3.3149731415460306,0.0
4530063662.9045,-13.442853341626513,0.0,-3.4353485779971464,0.0
4530078662.904,-13.447626849744687,0.0,-3.3864229402690857,0.0
4530093662.9035,-13.43884261999552,0.0,-3.2817184310189877,0.0
4530108662.903,-13.450482225300185,0.0,-3.3694094595152024,0.0
4530123662.9025,-13.450353510965803,0.0,-3.389859258140752,0.0
4530138662.902,-13.453415532560818,0.0,-3.3980183488784137,0.0
4530153662.9015,-13.444395115368872,0.0,-3.396193119065483,0.0
4530168662.901,-13.444667902217635,0.0,-3.3887339840846677,0.0
4530183662.9005,-13.435829992832529,0.0,-3.4126876258204257,0.0
4530198662.9,-13.440319859237748,0.0,-3.397620910468926,0.0
4530213662.8995,-13.442322599304148,0.0,-3.429544092994988,0.0
4530228662.899,-13.443742453638972,0.0,-3.4275073770959747,0.0
4530243662.8985,-13.446268402926446,0.0,-3.4629383968647023,0.0
4530258662.898,-13.445667667382647,0.0,-3.3639960175511066,0.0
4530273662.8975,-13.452205581732535,0.0,-3.4568035263583203,0.0
4530288662.897,-13.443650812912246,0.0,-3.490670589977021,0.0
4530303662.8965,-13.43716431190255,0.0,-3.444570368572408,0.0
4530318662.896,-13.44501450656626,0.0,-3.4360941947662056,0.0
4530333662.8955,-13.44754776528466,0.0,-3.4747082909688563,0.0
4530348662.895,-13.446001165426583,0.0,-3.458889458750254,0.0
4530363662.8945,-13.447386804287545,0.0,-3.4155246050141357,0.0
4530378662.894,-13.454501410422694,0.0,-3.4659607738409957,0.0
4530393662.8935,-13.458328848782259,0.0,-3.437456953015022,0.0
4530408662.893,-13.45227342510934,0.0,-3.5045090177160567,0.0
4530423662.8925,-13.456817772934727,0.0,-3.501619631993067,0.0
4530438662.892,-13.448390532405316,0.0,-3.4903849165718204,0.0
4530453662.8915,-13.446157771384563,0.0,-3.596398668309547,0.0
4530468662.891,-13.457367056396677,0.0,-3.461112378315332,0.0
4530483662.8905,-13.456232816156689,0.0,-3.521583073298519,0.0
4530498662.89,-13.462175638542549,0.0,-3.5275877788810237,0.0
4530513662.8895,-13.456919527750326,0.0,-3.535417196325115,0.0
4530528662.889,-13.467445666396126,0.0,-3.563845142980006,0.0
4530543662.8885,-13.454175575814327,0.0,-3.5262277509107176,0.0
4530558662.888,-13.446776603167939,0.0,-3.6456855711961964,0.0
4530573662.8875,-13.448590860495484,0.0,-3.547517172449149,0.0
4530588662.887,-13.460691016879803,0.0,-3.5305173564244132,0.0
4530603662.8865,-13.456634304343995,0.0,-3.497671226984381,0.0
4530618662.886,-13.451282892921748,0.0,-3.595785104708292,0.0
4530633662.8855,-13.448466630930334,0.0,-3.575464820980376,0.0
4530648662.885,-13.457784978969446,0.0,-3.5793086612571057,0.0
4530663662.8845,-13.450077747590335,0.0,-3.536055360012723,0.0
4530678662.884,-13.451222831575107,0.0,-3.519832134643805,0.0
4530693662.8835,-13.445808966041904,0.0,-3.5350622115403643,0.0
4530708662.883,-13.44946715344844,0.0,-3.585883192797798,0.0
4530723662.8825,-13.44897566846736,0.0,-3.6715238807651067,0.0
4530738662.882,-13.4524570298193,0.0,-3.5582450778772294,0.0
4530753662.8815,-13.455943489621143,0.0,-3.58805409349283,0.0
4530768662.881,-13.455914092289989,0.0,-3.6163842072958787,0.0
4530783662.8805,-13.453768939238673,0.0,-3.5812841904463877,0.0
4530798662.88,-13.45082197015471,0.0,-3.597543246441863,0.0
4530813662.8795,-13.454469829058052,0.0,-3.641799245788596,0.0
4530828662.879,-13.45060680620439,0.0,-3.631510914232061,0.0
4530843662.8785,-13.46103308159195,0.0,-3.6718979256832385,0.0
4530858662.878,-13.449642121710765,0.0,-3.633960471174924,0.0
4530873662.8775,-13.442112297803519,0.0,-3.615303648144429,0.0
4530888662.877,-13.459507337682728,0.0,-3.6268896213214497,0.0
4530903662.8765,-13.459171522681004,0.0,-3.641164218453089,0.0
4530918662.876,-13.451030210179503,0.0,-3.6631949285192147,0.0
4530933662.8755,-13.450771591301727,0.0,-3.6418741026831034,0.0
4530948662.875,-13.449566162548379,0.0,-3.7101800685461988,0.0
4530963662.8745,-13.457826373316985,0.0,-3.741391974186387,0.0
4530978662.874,-13.45534757568198,0.0,-3.6715656647364874,0.0
4530993662.8735,-13.452448855864471,0.0,-3.670767930108124,0.0
4531008662.873,-13.461560298642983,0.0,-3.7193385331905167,0.0
4531023662.8725,-13.459783960635423,0.0,-3.6626885064950865,0.0
4531038662.872,-13.458545734150416,0.0,-3.6971996042417907,0.0
4531053662.8715,-13.45221924696789,0.0,-3.681205159247285,0.0
4531068662.871,-13.448711917087772,0.0,-3.6803835803140807,0.0
4531083662.8705,-13.449571710214784,0.0,-3.6926676577717084,0.0
4531098662.87,-13.452529837594877,0.0,-3.7354417406365132,0.0
4531113662.8695,-13.445257309787008,0.0,-3.737204871589284,0.0
4531128662.869,-13.454509602209958,0.0,-3.762668045657284,0.0
4531143662.8685,-13.454381381524696,0.0,-3.776530208638863,0.0
4531158662.868,-13.462953259404415,0.0,-3.817843641167165,0.0
4531173662.8675,-13.457445228636518,0.0,-3.7438003017917625,0.0
4531188662.867,-13.46372124895893,0.0,-3.72169070137293,0.0
4531203662.8665,-13.45333407856302,0.0,-3.793835591667277,0.0
4531218662.866,-13.459098017801827,0.0,-3.766789086486358,0.0
4531233662.8655,-13.4503516468269,0.0,-3.77483393117105,0.0
4531248662.865,-13.460316451372174,0.0,-3.834270838013977,0.0
4531263662.8645,-13.455230578199606,0.0,-3.7588994030615015,0.0
4531278662.864,-13.457247395334281,0.0,-3.7956016214748343,0.0
4531293662.8635,-13.464815432826782,0.0,-3.7738989099653275,0.0
4531308662.863,-13.4578475062243,0.0,-3.754220047547719,0.0
4531323662.8625,-13.47397750641544,0.0,-3.7642392834831484,0.0
4531338662.862,-13.469056251804574,0.0,-3.851776308780826,0.0
4531353662.8615,-13.453859656630048,0.0,-3.818383234409619,0.0
4531368662.861,-13.454153679354926,0.0,-3.8429223773542383,0.0
4531383662.8605,-13.456132288780498,0.0,-3.795714271670726,0.0
4531398662.86,-13.471464760760457,0.0,-3.79086324011316,0.0
4531413662.8595,-13.467656661004687,0.0,-3.8302427758143693,0.0
4531428662.859,-13.458716579406875,0.0,-3.8746046534832423,0.0
4531443662.8585,-13.454008690873449,0.0,-3.83130506211454,0.0
4531458662.858,-13.465981455275685,0.0,-3.896483400818068,0.0
4531473662.8575,-13.458204450227417,0.0,-3.8655610953273536,0.0
4531488662.857,-13.458355888352987,0.0,-3.7946821152058305,0.0
4531503662.8565,-13.45916625217155,0.0,-3.8551196095143667,0.0
4531518662.856,-13.457127834439198,0.0,-3.906475998868927,0.0
4531533662.8555,-13.474344812764375,0.0,-3.896861105667914,0.0
4531548662.855,-13.46644975572611,0.0,-3.8966352912878066,0.0
4531563662.8545,-13.473347576676089,0.0,-3.93652030999052,0.0
4531578662.854,-13.46214349112212,0.0,-3.941321138347857,0.0
4531593662.8535,-13.463322525420953,0.0,-3.917468961358095,0.0
4531608662.853,-13.462377291559747,0.0,-3.8953629427872074,0.0
4531623662.8525,-13.459242736915805,0.0,-3.981331366470651,0.0
4531638662.852,-13.457077501905971,0.0,-3.9417852195513725,0.0
4531653662.8515,-13.47115477365372,0.0,-3.895078926506377,0.0
4531668662.851,-13.462651199810798,0.0,-3.9042093093035937,0.0
4531683662.8505,-13.472275809901681,0.0,-3.9348662449217997,0.0
4531698662.85,-13.475466940100274,0.0,-3.9802558820707543,0.0
4531713662.8495,-13.462308407476836,0.0,-3.9704920378819186,0.0
4531728662.849,-13.464053894976853,0.0,-3.9618206683078108,0.0
4531743662.8485,-13.465171689670175,0.0,-3.957445822485625,0.0
4531758662.848,-13.463822915787347,0.0,-3.9981034266468143,0.0
4531773662.8475,-13.45903867436478,0.0,-3.9540743899964945,0.0
4531788662.847,-13.468790279891117,0.0,-3.9826257105419036,0.0
4531803662.8465,-13.47088369486714,0.0,-4.035479593734024,0.0
4531818662.846,-13.469613221764579,0.0,-4.010081429374417,0.0
4531833662.8455,-13.47111608930481,0.0,-4.026338236201656,0.0
4531848662.845,-13.463754560082979,0.0,-3.9980305622173677,0.0
4531863662.8445,-13.464225962816503,0.0,-4.001471991313144,0.0
4531878662.844,-13.462275630335483,0.0,-4.00897577837245,0.0
