Frequency,S11,S11-Q,S11-Phase,S11-Phase-Q
4527198663.0,-13.424531093711103,0.0,-2.5416188858414475,0.0
4527213662.9995,-13.435381659002864,0.0,-2.5191282140725284,0.0
4527228662.999,-13.415028109099163,0.0,-2.535276021909074,0.0
4527243662.9985,-13.433970899315613,0.0,-2.5255330053072984,0.0
4527258662.998,-13.423641148508462,0.0,-2.5286119713001876,0.0
4527273662.9975,-13.430031812785812,0.0,-2.522559149170525,0.0
4527288662.997,-13.418544966820612,0.0,-2.5060931902662404,0.0
4527303662.9965,-13.422259701504064,0.0,-2.5143090985430376,0.0
4527318662.996,-13.428083575983203,0.0,-2.5359208596751297,0.0
4527333662.9955,-13.427000549839175,0.0,-2.5337826068001186,0.0
4527348662.995,-13.437834366867394,0.0,-2.5453519267642215,0.0
4527363662.9945,-13.421489887953708,0.0,-2.5477310731601595,0.0
4527378662.994,-13.431720723472072,0.0,-2.500192645884224,0.0
4527393662.9935,-13.43078635544487,0.0,-2.5628172435343473,0.0
4527408662.993,-13.429228725145038,0.0,-2.5634730012245615,0.0
4527423662.9925,-13.428279192602004,0.0,-2.547782218946622,0.0
4527438662.992,-13.424425634904809,0.0,-2.5358306055732416,0.0
4527453662.9915,-13.431165489824405,0.0,-2.5521988284985184,0.0
4527468662.991,-13.434749094910574,0.0,-2.5411545489791734,0.0
4527483662.9905,-13.420114849399269,0.0,-2.6165755673660556,0.0
4527498662.99,-13.439168503965764,0.0,-2.6085810759409456,0.0
4527513662.9895,-13.42694635399379,0.0,-2.5333428254234267,0.0
4527528662.989,-13.425308220093912,0.0,-2.543649921066425,0.0
4527543662.9885,-13.430452370514347,0.0,-2.587352348400686,0.0
4527558662.988,-13.432866054409809,0.0,-2.5922839467594767,0.0
4527573662.9875,-13.43567662266588,0.0,-2.573703202601209,0.0
4527588662.987,-13.432141864952179,0.0,-2.587748922408448,0.0
4527603662.9865,-13.42952636205628,0.0,-2.5597240032886215,0.0
4527618662.986,-13.427051511537256,0.0,-2.552387943024973,0.0
4527633662.9855,-13.421422992709955,0.0,-2.569453369309626,0.0
4527648662.985,-13.42407406138345,0.0,-2.576646773999947,0.0
4527663662.9845,-13.417451136079318,0.0,-2.550763768018533,0.0
4527678662.984,-13.433004024745452,0.0,-2.550428649649019,0.0
4527693662.9835,-13.430149034798015,0.0,-2.6113025674720736,0.0
4527708662.983,-13.433681806811963,0.0,-2.601467367439637,0.0
4527723662.9825,-13.421761943860853,0.0,-2.6355651337873667,0.0
4527738662.982,-13.433100143305381,0.0,-2.5820994652826754,0.0
4527753662.9815,-13.41615777644559,0.0,-2.6132934800929437,0.0
4527768662.981,-13.418578432701967,0.0,-2.6226048710755903,0.0
4527783662.9805,-13.426632249570577,0.0,-2.611488411435202,0.0
4527798662.98,-13.427207513202251,0.0,-2.6140218380643594,0.0
4527813662.9795,-13.426588516887124,0.0,-2.6297035475893686,0.0
4527828662.979,-13.425476714349987,0.0,-2.62190386091262,0.0
4527843662.9785,-13.439631040049933,0.0,-2.588233479462006,0.0
4527858662.978,-13.42331545790895,0.0,-2.6262386603305377,0.0
4527873662.9775,-13.42942457788525,0.0,-2.5829323145551557,0.0
4527888662.977,-13.41859213554214,0.0,-2.6342888762596046,0.0
4527903662.9765,-13.42879919969812,0.0,-2.6426950801197906,0.0
4527918662.976,-13.429957858577776,0.0,-2.62209176774691,0.0
4527933662.9755,-13.426356359138554,0.0,-2.598082924194156,0.0
4527948662.975,-13.428069443990774,0.0,-2.576265986372613,0.0
4527963662.9745,-13.430497850822182,0.0,-2.6422045966133436,0.0
4527978662.974,-13.42921342207746,0.0,-2.5760814208423963,0.0
4527993662.9735,-13.425649688705931,0.0,-2.6314362513850527,0.0
4528008662.973,-13.42045788015368,0.0,-2.6722014255717466,0.0
4528023662.9725,-13.427040228508872,0.0,-2.650045670496609,0.0
4528038662.972,-13.422860776070518,0.0,-2.6677616776128206,0.0
4528053662.9715,-13.415446330827326,0.0,-2.59830245742249,0.0
4528068662.971,-13.426653358200063,0.0,-2.6712876196148865,0.0
4528083662.9705,-13.431318816703474,0.0,-2.686226237360997,0.0
4528098662.97,-13.419504628225031,0.0,-2.6704262208870313,0.0
4528113662.9695,-13.427110121562855,0.0,-2.6582675206354556,0.0
4528128662.969,-13.428154098475371,0.0,-2.660587581338945,0.0
4528143662.9685,-13.43219150642235,0.0,-2.644282603269281,0.0
4528158662.968,-13.423805704514834,0.0,-2.678297713273102,0.0
4528173662.9675,-13.42263110025253,0.0,-2.7347695595147377,0.0
4528188662.967,-13.425098266394887,0.0,-2.7034177865816056,0.0
4528203662.9665,-13.421726829228273,0.0,-2.6352640420129587,0.0
4528218662.966,-13.42701914937626,0.0,-2.7122211671661254,0.0
4528233662.9655,-13.433635166382157,0.0,-2.7379425667726074,0.0
4528248662.965,-13.425492860042516,0.0,-2.663977094752658,0.0
4528263662.9645,-13.427320411804125,0.0,-2.6853854134241018,0.0
4528278662.964,-13.428644606334109,0.0,-2.7493814372324414,0.0
4528293662.9635,-13.424225881374888,0.0,-2.64350969099912,0.0
4528308662.963,-13.426838902092115,0.0,-2.608430492557327,0.0
4528323662.9625,-13.422770822077423,0.0,-2.675449075183604,0.0
4528338662.962,-13.425207236073085,0.0,-2.66056585634292,0.0
4528353662.9615,-13.43016874875125,0.0,-2.722691650210023,0.0
4528368662.961,-13.432961305832844,0.0,-2.6726872688614534,0.0
4528383662.9605,-13.42476130900678,0.0,-2.704315861503074,0.0
4528398662.96,-13.431638305072504,0.0,-2.73792387455074,0.0
4528413662.9595,-13.420742989259864,0.0,-2.7060166435878767,0.0
4528428662.959,-13.42661229608053,0.0,-2.722306340325836,0.0
4528443662.9585,-13.43072490439906,0.0,-2.732987524992669,0.0
4528458662.958,-13.43033563044105,0.0,-2.7085837096378143,0.0
4528473662.9575,-13.435026126615202,0.0,-2.7104227708089796,0.0
4528488662.957,-13.416421271809645,0.0,-2.6941057303928644,0.0
4528503662.9565,-13.420577685518841,0.0,-2.753987035768781,0.0
4528518662.956,-13.424695596182197,0.0,-2.7025194620768036,0.0
4528533662.9555,-13.422731071994516,0.0,-2.6919186369817774,0.0
4528548662.955,-13.43637024053982,0.0,-2.6865534829372155,0.0
4528563662.9545,-13.432280634731322,0.0,-2.7668054242446614,0.0
4528578662.954,-13.418550250517319,0.0,-2.7178288971002913,0.0
4528593662.9535,-13.427964942076379,0.0,-2.7324518493174352,0.0
4528608662.953,-13.425960346848058,0.0,-2.7714384302722124,0.0
4528623662.9525,-13.432845106191358,0.0,-2.741576462804699,0.0
4528638662.952,-13.426117824583375,0.0,-2.7548873364085313,0.0
4528653662.9515,-13.431542733822749,0.0,-2.7170087724022665,0.0
4528668662.951,-13.43708631385524,0.0,-2.720410206705724,0.0
4528683662.9505,-13.42408654597387,0.0,-2.7491007848591136,0.0
4528698662.95,-13.433176127449835,0.0,-2.754328234450653,0.0
4528713662.9495,-13.431810485724203,0.0,-2.743936686836857,0.0
4528728662.949,-13.428780513891764,0.0,-2.7391698037992542,0.0
4528743662.9485,-13.436779716298082,0.0,-2.7216041036769507,0.0
4528758662.948,-13.43545380784111,0.0,-2.799459859145728,0.0
4528773662.9475,-13.41966323222458,0.0,-2.7854173344138924,0.0
4528788662.947,-13.428753455569627,0.0,-2.7500866548243685,0.0
4528803662.9465,-13.420315137340552,0.0,-2.7947265849255927,0.0
4528818662.946,-13.432610532304475,0.0,-2.8639669928659752,0.0
4528833662.9455,-13.439066340668198,0.0,-2.8246244101916766,0.0
4528848662.945,-13.42832767738113,0.0,-2.8300453683096003,0.0
4528863662.9445,-13.430813373215411,0.0,-2.7300414986030357,0.0
4528878662.944,-13.416748717066582,0.0,-2.7833775790336666,0.0
4528893662.9435,-13.429437259885656,0.0,-2.763288418535654,0.0
4528908662.943,-13.432597824008505,0.0,-2.7762854654638502,0.0
4528923662.9425,-13.437802579080651,0.0,-2.809823469418785,0.0
4528938662.942,-13.425850582480244,0.0,-2.788105594509012,0.0
4528953662.9415,-13.438834242043999,0.0,-2.7953359830950006,0.0
4528968662.941,-13.43141872933426,0.0,-2.8484738110121506,0.0
4528983662.9405,-13.429280365266603,0.0,-2.7736483091150186,0.0
4528998662.94,-13.420261542741901,0.0,-2.8032736076431917,0.0
4529013662.9395,-13.437073874165144,0.0,-2.795696104504002,0.0
4529028662.939,-13.434249906865336,0.0,-2.816288816057024,0.0
4529043662.9385,-13.432590071307455,0.0,-2.779579996855255,0.0
4529058662.938,-13.428596151968733,0.0,-2.7899329764880485,0.0
4529073662.9375,-13.426520743074825,0.0,-2.795076124884708,0.0
4529088662.937,-13.438604191793644,0.0,-2.8241456976304127,0.0
4529103662.9365,-13.42557207473696,0.0,-2.8396742373545316,0.0
4529118662.936,-13.425504835588155,0.0,-2.8027559506051616,0.0
4529133662.9355,-13.43388914555617,0.0,-2.802861787220282,0.0
4529148662.935,-13.432901345100973,0.0,-2.807483288766442,0.0
4529163662.9345,-13.442167884873374,0.0,-2.8973775398307704,0.0
4529178662.934,-13.428325589035826,0.0,-2.8401386792449284,0.0
4529193662.9335,-13.42997565270499,0.0,-2.8552208338863614,0.0
4529208662.933,-13.424925000584096,0.0,-2.840866741723337,0.0
4529223662.9325,-13.429829510493235,0.0,-2.8062716437329174,0.0
4529238662.932,-13.433250965778642,0.0,-2.8725129468988966,0.0
4529253662.9315,-13.42562917446298,0.0,-2.9209982231080263,0.0
4529268662.931,-13.435747641460454,0.0,-2.804596384626486,0.0
4529283662.9305,-13.433424402582801,0.0,-2.852730057729259,0.0
4529298662.93,-13.429526665500989,0.0,-2.8817533792061885,0.0
4529313662.9295,-13.430157912766594,0.0,-2.9290603900119785,0.0
4529328662.929,-13.428568592514996,0.0,-2.977532954676942,0.0
4529343662.9285,-13.43037137580209,0.0,-2.850417738185938,0.0
4529358662.928,-13.436574853475612,0.0,-2.85465138564958,0.0
4529373662.9275,-13.425582334242037,0.0,-2.8812472191265983,0.0
4529388662.927,-13.4265499765539,0.0,-2.8802462713187755,0.0
4529403662.9265,-13.434380697574769,0.0,-2.850723460490115,0.0
4529418662.926,-13.429064539360976,0.0,-2.8540762391560954,0.0
4529433662.9255,-13.428184960663812,0.0,-2.8605523122063294,0.0
4529448662.925,-13.437155889784044,0.0,-2.8820966127755003,0.0
4529463662.9245,-13.435979414747429,0.0,-2.883927782482089,0.0
4529478662.924,-13.441389656653598,0.0,-2.9145930834723854,0.0
4529493662.9235,-13.420714606768104,0.0,-2.9209050925513127,0.0
4529508662.923,-13.435747837904039,0.0,-2.8875232081998656,0.0
4529523662.9225,-13.429108585867663,0.0,-2.895901684396358,0.0
4529538662.922,-13.43445965059044,0.0,-2.868163401517021,0.0
4529553662.9215,-13.436433604267394,0.0,-2.947362320360548,0.0
4529568662.921,-13.435307097473359,0.0,-2.9409684181215683,0.0
4529583662.9205,-13.425843056582947,0.0,-2.9402592935958,0.0
4529598662.92,-13.439837797821232,0.0,-2.866763119615672,0.0
4529613662.9195,-13.424943289341158,0.0,-2.956673460510371,0.0
4529628662.919,-13.44209828377635,0.0,-2.950045293758498,0.0
4529643662.9185,-13.434672536138732,0.0,-2.9139875118994674,0.0
4529658662.918,-13.435429154973821,0.0,-2.9353917519002866,0.0
4529673662.9175,-13.435455741535687,0.0,-2.9330067611251316,0.0
4529688662.917,-13.434381968639075,0.0,-2.891239380840553,0.0
4529703662.9165,-13.435433445435407,0.0,-2.985324867019759,0.0
4529718662.916,-13.43589446843586,0.0,-2.9007284789626477,0.0
4529733662.9155,-13.42983921285593,0.0,-2.997055366052214,0.0
4529748662.915,-13.427748680981836,0.0,-2.9689845988105312,0.0
4529763662.9145,-13.437125738937006,0.0,-2.8972107292026563,0.0
4529778662.914,-13.433476319855192,0.0,-2.9538603276277478,0.0
4529793662.9135,-13.429621625741728,0.0,-2.969135182838941,0.0
4529808662.913,-13.439486676610755,0.0,-2.9165564287036894,0.0
4529823662.9125,-13.428617056540809,0.0,-2.9806544362186544,0.0
4529838662.912,-13.437414804398513,0.0,-3.028118631751736,0.0
4529853662.9115,-13.434842542686383,0.0,-2.9924640458226044,0.0
4529868662.911,-13.432109943584047,0.0,-2.983733435761596,0.0
4529883662.9105,-13.434036572749545,0.0,-2.989943890100416,0.0
4529898662.91,-13.431319572334864,0.0,-2.987325856028275,0.0
4529913662.9095,-13.433174904100124,0.0,-3.0280101272638644,0.0
4529928662.909,-13.439931208476512,0.0,-3.003050334536463,0.0
4529943662.9085,-13.438209821424987,0.0,-3.07357474993842,0.0
4529958662.908,-13.43611659376034,0.0,-2.97340641673248,0.0
4529973662.9075,-13.43392948302898,0.0,-3.023638447781825,0.0
4529988662.907,-13.425268885692995,0.0,-3.0636444610300235,0.0
4530003662.9065,-13.420968682999527,0.0,-2.980173366687532,0.0
4530018662.906,-13.439258014237655,0.0,-3.029706767662298,0.0
4530033662.9055,-13.428567265241833,0.0,-2.9934328307440423,0.0
4530048662.905,-13.441821892287333,0.0,-2.9983378020631535,0.0
4530063662.9045,-13.440705334573092,0.0,-2.973896331612092,0.0
4530078662.904,-13.441652695003581,0.0,-3.0436056708378794,0.0
4530093662.9035,-13.440821880158245,0.0,-3.02857708189153,0.0
4530108662.903,-13.42579165320121,0.0,-2.992316523827693,0.0
4530123662.9025,-13.435433054351593,0.0,-3.069875845576571,0.0
4530138662.902,-13.436645988763985,0.0,-3.034655771728598,0.0
4530153662.9015,-13.437051491474783,0.0,-2.9802354856193554,0.0
4530168662.901,-13.432935391064941,0.0,-2.9972088599373037,0.0
4530183662.9005,-13.433281507047582,0.0,-3.0572121672087564,0.0
4530198662.9,-13.438704160968602,0.0,-2.9893650729213572,0.0
4530213662.8995,-13.4340555081702,0.0,-3.037404140774844,0.0
4530228662.899,-13.430718411947451,0.0,-3.0880483295938697,0.0
4530243662.8985,-13.431095611367844,0.0,-3.034914683415728,0.0
4530258662.898,-13.43233680003031,0.0,-3.0505223285467014,0.0
4530273662.8975,-13.437893228712731,0.0,-3.064166145203181,0.0
4530288662.897,-13.430583290571988,0.0,-3.0983117735084784,0.0
4530303662.8965,-13.44230957231255,0.0,-3.0526642922173597,0.0
4530318662.896,-13.423855155230504,0.0,-3.0725279678563346,0.0
4530333662.8955,-13.432469404626472,0.0,-3.122069800008542,0.0
4530348662.895,-13.44046930208375,0.0,-3.0257813954549446,0.0
4530363662.8945,-13.435858274272348,0.0,-3.103598309310167,0.0
4530378662.894,-13.442577371837846,0.0,-3.0976502035855127,0.0
4530393662.8935,-13.445551358538502,0.0,-3.080398160697589,0.0
4530408662.893,-13.437366545394756,0.0,-3.123621864603696,0.0
4530423662.8925,-13.437662269896904,0.0,-3.0979540158561396,0.0
4530438662.892,-13.444127739803598,0.0,-3.1112955253281536,0.0
4530453662.8915,-13.430339226284007,0.0,-3.130274508580234,0.0
4530468662.891,-13.434088808949575,0.0,-3.1334750771679336,0.0
4530483662.8905,-13.43081878224358,0.0,-3.059632076849371,0.0
4530498662.89,-13.44497023653393,0.0,-3.142351837870118,0.0
4530513662.8895,-13.4303702513172,0.0,-3.0953515334751027,0.0
4530528662.889,-13.442570241203759,0.0,-3.090172262381331,0.0
4530543662.8885,-13.434666178183583,0.0,-3.1447422475194484,0.0
4530558662.888,-13.433727041600928,0.0,-3.1523112488004745,0.0
4530573662.8875,-13.427350969508474,0.0,-3.1259922701590606,0.0
4530588662.887,-13.437775775853464,0.0,-3.1161247730287944,0.0
4530603662.8865,-13.434687959102988,0.0,-3.135705961692164,0.0
4530618662.886,-13.434063790127183,0.0,-3.1697320085850076,0.0
4530633662.8855,-13.430452262061184,0.0,-3.142562185652188,0.0
4530648662.885,-13.437319938585006,0.0,-3.151852725008385,0.0
4530663662.8845,-13.442657687164996,0.0,-3.11950168043066,0.0
4530678662.884,-13.438279493822783,0.0,-3.1355729038388143,0.0
4530693662.8835,-13.436090370405553,0.0,-3.182104200912971,0.0
4530708662.883,-13.432056166415009,0.0,-3.1595957566880486,0.0
4530723662.8825,-13.430130504354661,0.0,-3.1747063008724465,0.0
4530738662.882,-13.442912890567843,0.0,-3.1420014574402795,0.0
4530753662.8815,-13.436762429547393,0.0,-3.143631323438712,0.0
4530768662.881,-13.43521696279906,0.0,-3.234785792713212,0.0
4530783662.8805,-13.433426796233615,0.0,-3.200439257339128,0.0
4530798662.88,-13.429300906086644,0.0,-3.1680871163781035,0.0
4530813662.8795,-13.438615284356693,0.0,-3.1928814151083835,0.0
4530828662.879,-13.4458169789921,0.0,-3.135026772854169,0.0
4530843662.8785,-13.445128816298569,0.0,-3.2344228732531546,0.0
4530858662.878,-13.446992712815051,0.0,-3.212026554820109,0.0
4530873662.8775,-13.438341227567161,0.0,-3.2337906779942456,0.0
4530888662.877,-13.433478314562361,0.0,-3.223260021158013,0.0
4530903662.8765,-13.443352271947134,0.0,-3.1814193527652086,0.0
4530918662.876,-13.43314592569656,0.0,-3.158560811845539,0.0
4530933662.8755,-13.44472690860666,0.0,-3.2755268076203663,0.0
4530948662.875,-13.429955171176292,0.0,-3.1862822863041425,0.0
4530963662.8745,-13.430664927232534,0.0,-3.2458033258126857,0.0
4530978662.874,-13.436479259138839,0.0,-3.1860869795227753,0.0
4530993662.8735,-13.434441563371742,0.0,-3.2872351525037566,0.0
4531008662.873,-13.44814492830751,0.0,-3.263358233513853,0.0
4531023662.8725,-13.43812437320716,0.0,-3.1728885710621024,0.0
4531038662.872,-13.43641449973239,0.0,-3.1926753137112054,0.0
4531053662.8715,-13.43406772393221,0.0,-3.2303212717912437,0.0
4531068662.871,-13.439622463451308,0.0,-3.1650598926625464,0.0
4531083662.8705,-13.440712451903993,0.0,-3.200966237563291,0.0
4531098662.87,-13.44541307614713,0.0,-3.2322799078393065,0.0
4531113662.8695,-13.444048070178544,0.0,-3.3076054193325115,0.0
4531128662.869,-13.43792287437285,0.0,-3.271762645573504,0.0
4531143662.8685,-13.43668128316487,0.0,-3.2197622082202324,0.0
4531158662.868,-13.449329063872321,0.0,-3.2886961611169743,0.0
4531173662.8675,-13.437785595760094,0.0,-3.257378250278257,0.0
4531188662.867,-13.431861881382916,0.0,-3.3659465412072747,0.0
4531203662.8665,-13.438491796469147,0.0,-3.268417774661324,0.0
4531218662.866,-13.440296884243653,0.0,-3.319103454131578,0.0
4531233662.8655,-13.431146749191807,0.0,-3.2173513147988206,0.0
4531248662.865,-13.449425086749399,0.0,-3.242344863261653,0.0
4531263662.8645,-13.4433580287648,0.0,-3.272140887957599,0.0
4531278662.864,-13.439067139777519,0.0,-3.2483568164644865,0.0
4531293662.8635,-13.437386146551436,0.0,-3.2836403917539188,0.0
4531308662.863,-13.433811024070238,0.0,-3.312120377925411,0.0
4531323662.8625,-13.439933047971111,0.0,-3.296248501185179,0.0
4531338662.862,-13.436672861242535,0.0,-3.314189281943866,0.0
4531353662.8615,-13.44348614451895,0.0,-3.3276177725552625,0.0
4531368662.861,-13.435415776305039,0.0,-3.287428684621848,0.0
4531383662.8605,-13.430263916080463,0.0,-3.3109432267468417,0.0
4531398662.86,-13.43488840939868,0.0,-3.299879303063699,0.0
4531413662.8595,-13.438142165666445,0.0,-3.3487824670372164,0.0
4531428662.859,-13.434857356653367,0.0,-3.3542061444410636,0.0
4531443662.8585,-13.431356470947112,0.0,-3.361737984187401,0.0
4531458662.858,-13.440403481806522,0.0,-3.3317667436012672,0.0
4531473662.8575,-13.435872103247295,0.0,-3.383490302970704,0.0
4531488662.857,-13.4405905392905,0.0,-3.3543020882253893,0.0
4531503662.8565,-13.433198553400299,0.0,-3.3775605109606364,0.0
4531518662.856,-13.451404689263057,0.0,-3.3938081981128834,0.0
4531533662.8555,-13.432868564000607,0.0,-3.3428386973889577,0.0
4531548662.855,-13.444968427992055,0.0,-3.3497926509521463,0.0
4531563662.8545,-13.441880868974545,0.0,-3.392484045395213,0.0
4531578662.854,-13.438186751191004,0.0,-3.363623039559491,0.0
4531593662.8535,-13.436086012029111,0.0,-3.416991140139763,0.0
4531608662.853,-13.43438877963062,0.0,-3.416037704443962,0.0
4531623662.8525,-13.437933486193337,0.0,-3.3900884559651705,0.0
4531638662.852,-13.437138013119705,0.0,-3.3794072131771746,0.0
4531653662.8515,-13.445643564836864,0.0,-3.4445857954842456,0.0
4531668662.851,-13.438536813386616,0.0,-3.399018619764262,0.0
4531683662.8505,-13.447595350168744,0.0,-3.387037122147348,0.0
4531698662.85,-13.445603133620542,0.0,-3.4152820368213535,0.0
4531713662.8495,-13.441860694468428,0.0,-3.3582955998514077,0.0
4531728662.849,-13.436016633446444,0.0,-3.410353461211267,0.0
4531743662.8485,-13.448217139407134,0.0,-3.461596598471967,0.0
4531758662.848,-13.44294823132788,0.0,-3.4242496172859735,0.0
4531773662.8475,-13.439835530099757,0.0,-3.38802868247139,0.0
4531788662.847,-13.430726407805487,0.0,-3.4212465812930914,0.0
4531803662.8465,-13.443856125241586,0.0,-3.4679990243310077,0.0
4531818662.846,-13.441511044019476,0.0,-3.4251392679349832,0.0
4531833662.8455,-13.44127481971612,0.0,-3.4237307918250597,0.0
4531848662.845,-13.440817814345738,0.0,-3.4237139180873863,0.0
4531863662.8445,-13.45271679265003,0.0,-3.4042403218666095,0.0
4531878662.844,-13.451986964822126,0.0,-3.4227890440772435,0.0
