Frequency,S11,S11-Q,S11-Phase,S11-Phase-Q
4527198663.0,-13.425937271603935,0.0,-2.3245083594026488,0.0
4527213662.9995,-13.425182191308082,0.0,-2.3589854083511765,0.0
4527228662.999,-13.421981276853167,0.0,-2.358057627925675,0.0
4527243662.9985,-13.423174367059719,0.0,-2.3936672643984918,0.0
4527258662.998,-13.424849125758861,0.0,-2.3993874543673495,0.0
4527273662.9975,-13.423962827861857,0.0,-2.4530359124519436,0.0
4527288662.997,-13.41949153023889,0.0,-2.4251856367723668,0.0
4527303662.9965,-13.41485735702581,0.0,-2.326374762363594,0.0
4527318662.996,-13.421328880058859,0.0,-2.4439465836691703,0.0
4527333662.9955,-13.423721905624852,0.0,-2.406415023752133,0.0
4527348662.995,-13.4271604954984,0.0,-2.421884197583785,0.0
4527363662.9945,-13.424070046767886,0.0,-2.4549257463425107,0.0
4527378662.994,-13.415983112988489,0.0,-2.4612376686280504,0.0
4527393662.9935,-13.415818676853476,0.0,-2.390235945349615,0.0
4527408662.993,-13.42200432034976,0.0,-2.3827688538064606,0.0
4527423662.9925,-13.421383882412734,0.0,-2.4498770814808815,0.0
4527438662.992,-13.428199297838399,0.0,-2.4071085066551188,0.0
4527453662.9915,-13.429836122181973,0.0,-2.4282100939852937,0.0
4527468662.991,-13.428921796752256,0.0,-2.377393878017611,0.0
4527483662.9905,-13.428054783757252,0.0,-2.479248125536324,0.0
4527498662.99,-13.417438647279896,0.0,-2.390416608789507,0.0
4527513662.9895,-13.422091680950956,0.0,-2.439798005530223,0.0
4527528662.989,-13.415380227757414,0.0,-2.3807459133535462,0.0
4527543662.9885,-13.419236457341317,0.0,-2.4325812601747088,0.0
4527558662.988,-13.42166428422825,0.0,-2.3273717382879444,0.0
4527573662.9875,-13.422717321451426,0.0,-2.4783876031307166,0.0
4527588662.987,-13.427169669106842,0.0,-2.455529645824323,0.0
4527603662.9865,-13.424796811026864,0.0,-2.413543299774783,0.0
4527618662.986,-13.430947574917871,0.0,-2.431030270378301,0.0
4527633662.9855,-13.41883350361086,0.0,-2.393164749111317,0.0
4527648662.985,-13.425591150295162,0.0,-2.471337148813628,0.0
4527663662.9845,-13.424651383858775,0.0,-2.445238600295026,0.0
4527678662.984,-13.423018407968634,0.0,-2.4482132058956516,0.0
4527693662.9835,-13.421145577131742,0.0,-2.4784344548417097,0.0
4527708662.983,-13.42651881258913,0.0,-2.4182223862761965,0.0
4527723662.9825,-13.415979912671553,0.0,-2.471166767149153,0.0
4527738662.982,-13.412192817191553,0.0,-2.4528487331476287,0.0
4527753662.9815,-13.420749709561006,0.0,-2.4706324097080583,0.0
4527768662.981,-13.423895844080869,0.0,-2.4801094328778555,0.0
4527783662.9805,-13.4199106466596,0.0,-2.4723020887347373,0.0
4527798662.98,-13.426438600954535,0.0,-2.437442412473572,0.0
4527813662.9795,-13.41965252117027,0.0,-2.5202740276747937,0.0
4527828662.979,-13.420124698274874,0.0,-2.4883700905863186,0.0
4527843662.9785,-13.422879260361377,0.0,-2.4579530004381,0.0
4527858662.978,-13.423337847574668,0.0,-2.489345302508009,0.0
4527873662.9775,-13.425222994414954,0.0,-2.522816129318782,0.0
4527888662.977,-13.424694189386399,0.0,-2.451914518263343,0.0
4527903662.9765,-13.428069486724903,0.0,-2.4726535707449506,0.0
4527918662.976,-13.423846302398827,0.0,-2.4096571465968655,0.0
4527933662.9755,-13.433541293329172,0.0,-2.5368996101794723,0.0
4527948662.975,-13.422373669250954,0.0,-2.5004532794290157,0.0
4527963662.9745,-13.429283430289672,0.0,-2.431807271458859,0.0
4527978662.974,-13.427131536458445,0.0,-2.4720670424007154,0.0
4527993662.9735,-13.42270964721757,0.0,-2.471941073128682,0.0
4528008662.973,-13.431085047835245,0.0,-2.500648677255807,0.0
4528023662.9725,-13.433990933510156,0.0,-2.503838818300568,0.0
4528038662.972,-13.418525310738447,0.0,-2.5262758108165695,0.0
4528053662.9715,-13.42385411426806,0.0,-2.499769613806513,0.0
4528068662.971,-13.412993082315921,0.0,-2.509588764152846,0.0
4528083662.9705,-13.422677372394165,0.0,-2.4761032677704793,0.0
4528098662.97,-13.424256805511279,0.0,-2.5244799782211373,0.0
4528113662.9695,-13.422247167981405,0.0,-2.506598197136408,0.0
4528128662.969,-13.419653008796125,0.0,-2.5071669429871295,0.0
4528143662.9685,-13.414877264259522,0.0,-2.521117966022013,0.0
4528158662.968,-13.419556270429894,0.0,-2.476713186255534,0.0
4528173662.9675,-13.413597631823764,0.0,-2.504819005039342,0.0
4528188662.967,-13.427747833399795,0.0,-2.5399414195063414,0.0
4528203662.9665,-13.422251815531446,0.0,-2.52257275117463,0.0
4528218662.966,-13.428429457066358,0.0,-2.5724727950755266,0.0
4528233662.9655,-13.423059614208084,0.0,-2.5718240487029096,0.0
4528248662.965,-13.425706705802119,0.0,-2.5379525637046796,0.0
4528263662.9645,-13.421187539143471,0.0,-2.5350655464581324,0.0
4528278662.964,-13.427867930286668,0.0,-2.501576075649344,0.0
4528293662.9635,-13.423169255339257,0.0,-2.5307635537097917,0.0
4528308662.963,-13.423610467451631,0.0,-2.593345739398074,0.0
4528323662.9625,-13.419115460240182,0.0,-2.546264054245648,0.0
4528338662.962,-13.41827971498095,0.0,-2.5895240766377077,0.0
4528353662.9615,-13.422185547891702,0.0,-2.4877442412203767,0.0
4528368662.961,-13.429853102466398,0.0,-2.5799117638427242,0.0
4528383662.9605,-13.417334035254228,0.0,-2.5430709962485674,0.0
4528398662.96,-13.4277468430596,0.0,-2.5846415222659602,0.0
4528413662.9595,-13.424349897053657,0.0,-2.5536993065553997,0.0
4528428662.959,-13.422842608758948,0.0,-2.591217561584244,0.0
4528443662.9585,-13.42396278589103,0.0,-2.602537951357245,0.0
4528458662.958,-13.424053465189088,0.0,-2.570233388066599,0.0
4528473662.9575,-13.420616192546762,0.0,-2.5220266124758823,0.0
4528488662.957,-13.427228138382336,0.0,-2.6155518957578487,0.0
4528503662.9565,-13.42604474207371,0.0,-2.5875273216365695,0.0
4528518662.956,-13.430773415708481,0.0,-2.6280693443764576,0.0
4528533662.9555,-13.430892012531729,0.0,-2.5892073956810266,0.0
4528548662.955,-13.432769718794935,0.0,-2.5760158151491,0.0
4528563662.9545,-13.420500006215788,0.0,-2.6040511230701577,0.0
4528578662.954,-13.426438917995009,0.0,-2.5629446146996027,0.0
4528593662.9535,-13.434896157858942,0.0,-2.568615616779177,0.0
4528608662.953,-13.423158244692022,0.0,-2.621048465925219,0.0
4528623662.9525,-13.42353851785099,0.0,-2.576195972573334,0.0
4528638662.952,-13.419074700224055,0.0,-2.5736961260561286,0.0
4528653662.9515,-13.421830557530443,0.0,-2.6045645950221186,0.0
4528668662.951,-13.429991700957778,0.0,-2.5616806139082993,0.0
4528683662.9505,-13.426180611935159,0.0,-2.6013512796807907,0.0
4528698662.95,-13.431085975538826,0.0,-2.596766101240603,0.0
4528713662.9495,-13.426615968024528,0.0,-2.6420517469820073,0.0
4528728662.949,-13.429376867720286,0.0,-2.6598799895155456,0.0
4528743662.9485,-13.430947321744295,0.0,-2.557839141737565,0.0
4528758662.948,-13.418807031514907,0.0,-2.6604724607698795,0.0
4528773662.9475,-13.430539172310901,0.0,-2.582241453627547,0.0
4528788662.947,-13.421225488655331,0.0,-2.572221350264795,0.0
4528803662.9465,-13.42846457631854,0.0,-2.655270649050446,0.0
4528818662.946,-13.427571884256098,0.0,-2.6041239810335237,0.0
4528833662.9455,-13.427979682702924,0.0,-2.5983722893309604,0.0
4528848662.945,-13.427426253605166,0.0,-2.6687543629833748,0.0
4528863662.9445,-13.423513193316513,0.0,-2.6053234748987317,0.0
4528878662.944,-13.429910586624638,0.0,-2.6205067076280493,0.0
4528893662.9435,-13.417210442581482,0.0,-2.6098343399319734,0.0
4528908662.943,-13.416601320788558,0.0,-2.6222457707701676,0.0
4528923662.9425,-13.42420500547377,0.0,-2.6350122891731993,0.0
4528938662.942,-13.42026773025539,0.0,-2.599342713437974,0.0
4528953662.9415,-13.424833861826784,0.0,-2.681634552189319,0.0
4528968662.941,-13.425375389197908,0.0,-2.6449144608602455,0.0
4528983662.9405,-13.430735730425482,0.0,-2.662614154530429,0.0
4528998662.94,-13.413378625899185,0.0,-2.6135156802539723,0.0
4529013662.9395,-13.424825139984577,0.0,-2.6896437320616102,0.0
4529028662.939,-13.424308769309405,0.0,-2.619294912241296,0.0
4529043662.9385,-13.42270097146841,0.0,-2.6117783267147043,0.0
4529058662.938,-13.422621764315414,0.0,-2.680269333042522,0.0
4529073662.9375,-13.427248133574688,0.0,-2.663010233545869,0.0
4529088662.937,-13.418156761577798,0.0,-2.718539942621957,0.0
4529103662.9365,-13.43593628382834,0.0,-2.6168642761774428,0.0
4529118662.936,-13.425170364432137,0.0,-2.684156368209916,0.0
4529133662.9355,-13.424708060905848,0.0,-2.603366057437183,0.0
4529148662.935,-13.425038331239831,0.0,-2.694853170009966,0.0
4529163662.9345,-13.428037302018797,0.0,-2.6813361250882357,0.0
4529178662.934,-13.429132169148888,0.0,-2.6836445181199964,0.0
4529193662.9335,-13.430065220102794,0.0,-2.6777438323035723,0.0
4529208662.933,-13.421930776058474,0.0,-2.766486022085221,0.0
4529223662.9325,-13.434285198190912,0.0,-2.7478325389288862,0.0
4529238662.932,-13.426121490486842,0.0,-2.6908298269961826,0.0
4529253662.9315,-13.432252637692985,0.0,-2.623041519229907,0.0
4529268662.931,-13.432919500427353,0.0,-2.732333607028241,0.0
4529283662.9305,-13.424010776375788,0.0,-2.664971453451683,0.0
4529298662.93,-13.430333195377077,0.0,-2.7111907286979604,0.0
4529313662.9295,-13.4285043871213,0.0,-2.70967303988968,0.0
4529328662.929,-13.414884494970563,0.0,-2.74370307590824,0.0
4529343662.9285,-13.42460324878543,0.0,-2.7653919814455126,0.0
4529358662.928,-13.423431579875453,0.0,-2.707941319317565,0.0
4529373662.9275,-13.425927381228284,0.0,-2.677962899690127,0.0
4529388662.927,-13.430167365837635,0.0,-2.7302407955000434,0.0
4529403662.9265,-13.42013731497238,0.0,-2.7124172076195663,0.0
4529418662.926,-13.430361025005688,0.0,-2.7189242401916096,0.0
4529433662.9255,-13.424446020518268,0.0,-2.733195401253613,0.0
4529448662.925,-13.421117129931012,0.0,-2.739340733836348,0.0
4529463662.9245,-13.421728214195587,0.0,-2.694136052222869,0.0
4529478662.924,-13.435147009085611,0.0,-2.6881752045260154,0.0
4529493662.9235,-13.42377251400298,0.0,-2.7239894167895358,0.0
4529508662.923,-13.426608670962363,0.0,-2.7362289111088396,0.0
4529523662.9225,-13.430181455920309,0.0,-2.6970699573923413,0.0
4529538662.922,-13.427712757843103,0.0,-2.7241078776915795,0.0
4529553662.9215,-13.435442948915854,0.0,-2.7392122665294614,0.0
4529568662.921,-13.41904276866692,0.0,-2.761332147409936,0.0
4529583662.9205,-13.427651002782673,0.0,-2.6896182793499803,0.0
4529598662.92,-13.427735842034853,0.0,-2.8274365187778376,0.0
4529613662.9195,-13.423896894976297,0.0,-2.691741148084477,0.0
4529628662.919,-13.420900973179009,0.0,-2.732747591160314,0.0
4529643662.9185,-13.428665699895316,0.0,-2.733776479304746,0.0
4529658662.918,-13.432563025982564,0.0,-2.750642082747024,0.0
4529673662.9175,-13.425855521709451,0.0,-2.7774934296924414,0.0
4529688662.917,-13.42329049836228,0.0,-2.7755187361515676,0.0
4529703662.9165,-13.421086474408131,0.0,-2.8015680697104464,0.0
4529718662.916,-13.426538478116159,0.0,-2.7513599080723212,0.0
4529733662.9155,-13.433811371634722,0.0,-2.7451660461354237,0.0
4529748662.915,-13.431590790705052,0.0,-2.7722428236244934,0.0
4529763662.9145,-13.42560540334744,0.0,-2.794190998076261,0.0
4529778662.914,-13.431203085421481,0.0,-2.773042691114163,0.0
4529793662.9135,-13.43384280746486,0.0,-2.719800965448191,0.0
4529808662.913,-13.429715052319615,0.0,-2.795232932903053,0.0
4529823662.9125,-13.435305468055434,0.0,-2.7419608076352135,0.0
4529838662.912,-13.419481011445393,0.0,-2.7848236344591166,0.0
4529853662.9115,-13.42398149315297,0.0,-2.7607759542144756,0.0
4529868662.911,-13.42117128124688,0.0,-2.762834488243331,0.0
4529883662.9105,-13.4213002770203,0.0,-2.8013823212938043,0.0
4529898662.91,-13.434615770482132,0.0,-2.833915426954054,0.0
4529913662.9095,-13.420534826762323,0.0,-2.8393086738857365,0.0
4529928662.909,-13.428542295317323,0.0,-2.8017731193437707,0.0
4529943662.9085,-13.43195374187655,0.0,-2.7887825864215645,0.0
4529958662.908,-13.4382645304877,0.0,-2.7670675380619127,0.0
4529973662.9075,-13.428693518429215,0.0,-2.7987028560131186,0.0
4529988662.907,-13.42994431198636,0.0,-2.8147157233622364,0.0
4530003662.9065,-13.431528734654009,0.0,-2.8432780623556924,0.0
4530018662.906,-13.431000364644216,0.0,-2.8277665932897227,0.0
4530033662.9055,-13.415642811282657,0.0,-2.841678216776339,0.0
4530048662.905,-13.429036949545491,0.0,-2.7989775047889056,0.0
4530063662.9045,-13.430122918877132,0.0,-2.8433467147645204,0.0
4530078662.904,-13.429967341611068,0.0,-2.865551635730244,0.0
4530093662.9035,-13.438755862584726,0.0,-2.8513410411314317,0.0
4530108662.903,-13.42608145376442,0.0,-2.826943628001679,0.0
4530123662.9025,-13.426759609739545,0.0,-2.8851434955434723,0.0
4530138662.902,-13.425702182863171,0.0,-2.8546818985764384,0.0
4530153662.9015,-13.429062565739144,0.0,-2.8431423930397535,0.0
4530168662.901,-13.421460480079725,0.0,-2.892169765422908,0.0
4530183662.9005,-13.428959540168863,0.0,-2.8542259156078336,0.0
4530198662.9,-13.428380197568966,0.0,-2.8925392712473754,0.0
4530213662.8995,-13.426255709625906,0.0,-2.8967981330866017,0.0
4530228662.899,-13.429027938875787,0.0,-2.902318654584201,0.0
4530243662.8985,-13.428837032313307,0.0,-2.8996318944892323,0.0
4530258662.898,-13.427888170087988,0.0,-2.8285114606125177,0.0
4530273662.8975,-13.419228267817648,0.0,-2.8289239838395375,0.0
4530288662.897,-13.432617018602905,0.0,-2.8164078288622116,0.0
4530303662.8965,-13.431499706840174,0.0,-2.8873617262132147,0.0
4530318662.896,-13.431738754971786,0.0,-2.8444427164787434,0.0
4530333662.8955,-13.426835728382645,0.0,-2.8887484001306762,0.0
4530348662.895,-13.425105563522642,0.0,-2.8716650261633503,0.0
4530363662.8945,-13.43183669806854,0.0,-2.8568780217941416,0.0
4530378662.894,-13.437811540249884,0.0,-2.942810119808777,0.0
4530393662.8935,-13.435406203196612,0.0,-2.9213835720912815,0.0
4530408662.893,-13.433915922542061,0.0,-2.941505922711311,0.0
4530423662.8925,-13.4271129674546,0.0,-2.9043947363540874,0.0
4530438662.892,-13.430033416122837,0.0,-2.9527085388500485,0.0
4530453662.8915,-13.434501526766498,0.0,-2.9084160643753285,0.0
4530468662.891,-13.436195024840405,0.0,-2.9470194647125814,0.0
4530483662.8905,-13.422466804964305,0.0,-2.920968066292349,0.0
4530498662.89,-13.426712407982432,0.0,-2.9816671708190006,0.0
4530513662.8895,-13.424316996456904,0.0,-2.8836311774798173,0.0
4530528662.889,-13.427915831549635,0.0,-2.908695548238859,0.0
4530543662.8885,-13.427589800857175,0.0,-2.958329876263899,0.0
4530558662.888,-13.427605770736516,0.0,-3.0075971683709963,0.0
4530573662.8875,-13.436131881031496,0.0,-2.9683829216568047,0.0
4530588662.887,-13.425504873715244,0.0,-2.886614865103599,0.0
4530603662.8865,-13.431248296350567,0.0,-2.9770263062796443,0.0
4530618662.886,-13.42934837507628,0.0,-2.9524255402282473,0.0
4530633662.8855,-13.426665433713886,0.0,-2.9616756517557645,0.0
4530648662.885,-13.427395798075846,0.0,-3.0163597824767727,0.0
4530663662.8845,-13.433425639411439,0.0,-2.923767695378022,0.0
4530678662.884,-13.43509974023667,0.0,-2.9378447853222522,0.0
4530693662.8835,-13.42552517301735,0.0,-2.949860009558957,0.0
4530708662.883,-13.435106607359275,0.0,-2.9171577119230387,0.0
4530723662.8825,-13.430251202785808,0.0,-2.94824874695277,0.0
4530738662.882,-13.431145661891698,0.0,-2.966104043641724,0.0
4530753662.8815,-13.423395376609983,0.0,-2.940498993197375,0.0
4530768662.881,-13.42894871367777,0.0,-3.0104798093962044,0.0
4530783662.8805,-13.429057716042703,0.0,-2.984981872829939,0.0
4530798662.88,-13.432077710411685,0.0,-2.941918014647237,0.0
4530813662.8795,-13.429833973991913,0.0,-2.986029461375795,0.0
4530828662.879,-13.430643043273934,0.0,-3.0782437591059906,0.0
4530843662.8785,-13.43476169117367,0.0,-2.976823682315502,0.0
4530858662.878,-13.435202151099649,0.0,-2.9599099954546704,0.0
4530873662.8775,-13.431501649088949,0.0,-2.9182169642361138,0.0
4530888662.877,-13.43732485726559,0.0,-3.074688899083293,0.0
4530903662.8765,-13.432172999575515,0.0,-3.050266436127032,0.0
4530918662.876,-13.430533067831998,0.0,-3.042192797118464,0.0
4530933662.8755,-13.429618351646406,0.0,-2.9846831081358403,0.0
4530948662.875,-13.42751006344546,0.0,-3.0021684516658644,0.0
4530963662.8745,-13.431485030282156,0.0,-2.996789067345634,0.0
4530978662.874,-13.429518244459587,0.0,-2.9732249035314493,0.0
4530993662.8735,-13.429844023442342,0.0,-3.0141838853566725,0.0
4531008662.873,-13.43142631597787,0.0,-2.9965894601062586,0.0
4531023662.8725,-13.428957180240936,0.0,-3.041602695185211,0.0
4531038662.872,-13.425570608636676,0.0,-3.1333498154188244,0.0
4531053662.8715,-13.434930557729036,0.0,-3.0699382698121673,0.0
4531068662.871,-13.435102066446152,0.0,-3.04341180974038,0.0
4531083662.8705,-13.426472570671395,0.0,-3.09750831308219,0.0
4531098662.87,-13.435572841100946,0.0,-3.059493413397943,0.0
4531113662.8695,-13.441697231068712,0.0,-3.080301671234355,0.0
4531128662.869,-13.43734057976085,0.0,-3.0475339346406303,0.0
4531143662.8685,-13.440705408256825,0.0,-3.015902045737726,0.0
4531158662.868,-13.427296101363801,0.0,-3.0887586210490103,0.0
4531173662.8675,-13.433102720806628,0.0,-3.106952979290991,0.0
4531188662.867,-13.434313764164612,0.0,-3.041888259832757,0.0
4531203662.8665,-13.427964303458179,0.0,-3.119742443879901,0.0
4531218662.866,-13.437848311071019,0.0,-3.1246561713850194,0.0
4531233662.8655,-13.431505681747353,0.0,-3.0529079478428813,0.0
4531248662.865,-13.437517982934104,0.0,-3.027166868624209,0.0
4531263662.8645,-13.435245524526048,0.0,-3.1454295338820684,0.0
4531278662.864,-13.432251144880702,0.0,-3.050632948080379,0.0
4531293662.8635,-13.431275740768548,0.0,-3.056504684241192,0.0
4531308662.863,-13.431887927246962,0.0,-3.118392714850094,0.0
4531323662.8625,-13.432910681635114,0.0,-3.1476294516709484,0.0
4531338662.862,-13.438900610006861,0.0,-3.0305345058949307,0.0
4531353662.8615,-13.436739005417277,0.0,-3.1214236699513114,0.0
4531368662.861,-13.442286166641335,0.0,-3.051350432484145,0.0
4531383662.8605,-13.43786081366721,0.0,-3.090732698582099,0.0
4531398662.86,-13.438900394597198,0.0,-3.0958422951841644,0.0
4531413662.8595,-13.444371897327335,0.0,-3.20115253607662,0.0
4531428662.859,-13.439471495920603,0.0,-3.1490894437966332,0.0
4531443662.8585,-13.437094556588994,0.0,-3.1350985702334753,0.0
4531458662.858,-13.433927215995677,0.0,-3.139497923028406,0.0
4531473662.8575,-13.428924483757434,0.0,-3.148081055334018,0.0
4531488662.857,-13.435365015717968,0.0,-3.1318867101612726,0.0
4531503662.8565,-13.441795716302384,0.0,-3.1588081705577142,0.0
4531518662.856,-13.427035221229108,0.0,-3.0820831995908025,0.0
4531533662.8555,-13.441487222243557,0.0,-3.1671541555351235,0.0
4531548662.855,-13.436917651077017,0.0,-3.107719327499052,0.0
4531563662.8545,-13.439878623683834,0.0,-3.1255006507367686,0.0
4531578662.854,-13.433288448643097,0.0,-3.136136449368976,0.0
4531593662.8535,-13.43130674963234,0.0,-3.1966512469526953,0.0
4531608662.853,-13.435465580378526,0.0,-3.1594701473383426,0.0
4531623662.8525,-13.426768963955855,0.0,-3.1417163165245814,0.0
4531638662.852,-13.430378667335578,0.0,-3.1201562780520384,0.0
4531653662.8515,-13.43788154552988,0.0,-3.173303258375204,0.0
4531668662.851,-13.436505681121108,0.0,-3.2208688448505263,0.0
4531683662.8505,-13.438242150365971,0.0,-3.1866067066820487,0.0
4531698662.85,-13.428841298774506,0.0,-3.220674520327757,0.0
4531713662.8495,-13.420090076143815,0.0,-3.2001510278471095,0.0
4531728662.849,-13.437619678794498,0.0,-3.1705356799670628,0.0
4531743662.8485,-13.432784330773499,0.0,-3.21013354400098,0.0
4531758662.848,-13.43245632980361,0.0,-3.1608789208301884,0.0
4531773662.8475,-13.431904537772251,0.0,-3.205491269998478,0.0
4531788662.847,-13.436392557915678,0.0,-3.1536393017969755,0.0
4531803662.8465,-13.434512575341548,0.0,-3.2131145691636243,0.0
4531818662.846,-13.437539813939534,0.0,-3.229513359898203,0.0
4531833662.8455,-13.436185391011268,0.0,-3.2390886173077575,0.0
4531848662.845,-13.43654688115975,0.0,-3.1718433907968238,0.0
4531863662.8445,-13.443143586809134,0.0,-3.243399905168726,0.0
