Frequency,S11,S11-Q,S11-Phase,S11-Phase-Q
4527198663.0,-13.406869830246468,0.0,-2.8583166922054133,0.0
4527213662.9995,-13.409412018122191,0.0,-2.8519901021928353,0.0
4527228662.999,-13.405275925270288,0.0,-2.814633717270774,0.0
4527243662.9985,-13.411959544141627,0.0,-2.799359363710298,0.0
4527258662.998,-13.412321501200601,0.0,-2.8619245233019095,0.0
4527273662.9975,-13.411415916756283,0.0,-2.8825273820597648,0.0
4527288662.997,-13.407994859058574,0.0,-2.8555788690194865,0.0
4527303662.9965,-13.413745319824704,0.0,-2.8713410621394946,0.0
4527318662.996,-13.406337168841837,0.0,-2.8312814380701754,0.0
4527333662.9955,-13.409586414937682,0.0,-2.8788078493157965,0.0
4527348662.995,-13.42137385686097,0.0,-2.85781527352863,0.0
4527363662.9945,-13.406579372275466,0.0,-2.847628894146534,0.0
4527378662.994,-13.40980818808006,0.0,-2.8257017108951197,0.0
4527393662.9935,-13.407933549138003,0.0,-2.8769730907156927,0.0
4527408662.993,-13.407572951420017,0.0,-2.9259086217871735,0.0
4527423662.9925,-13.407591076262566,0.0,-2.9084255269859667,0.0
4527438662.992,-13.41262917382905,0.0,-2.907008921700547,0.0
4527453662.9915,-13.406782368075643,0.0,-2.909423795257594,0.0
4527468662.991,-13.411779236641326,0.0,-2.7901703659948294,0.0
4527483662.9905,-13.420960253882974,0.0,-2.90868672963505,0.0
4527498662.99,-13.402199259644139,0.0,-2.951542050439474,0.0
4527513662.9895,-13.413639516528074,0.0,-2.8828486843237973,0.0
4527528662.989,-13.40853475854039,0.0,-2.9200147636200207,0.0
4527543662.9885,-13.416857761302,0.0,-2.866022972914616,0.0
4527558662.988,-13.402882971590483,0.0,-2.943459714710998,0.0
4527573662.9875,-13.405616122260378,0.0,-2.836784456319846,0.0
4527588662.987,-13.402160918933017,0.0,-2.902715075998088,0.0
4527603662.9865,-13.40390283853204,0.0,-2.9678992131641713,0.0
4527618662.986,-13.403063734739504,0.0,-2.89848795154321,0.0
4527633662.9855,-13.403649948624281,0.0,-2.8872279480974994,0.0
4527648662.985,-13.402186371128721,0.0,-2.909016048909926,0.0
4527663662.9845,-13.415722046381768,0.0,-2.9076868248195176,0.0
4527678662.984,-13.400409117201901,0.0,-2.925138282781572,0.0
4527693662.9835,-13.4047101282824,0.0,-2.934208344034311,0.0
4527708662.983,-13.405486606729372,0.0,-2.95285776898752,0.0
4527723662.9825,-13.409558507716216,0.0,-2.944390109462317,0.0
4527738662.982,-13.406842720345043,0.0,-2.881769815374677,0.0
4527753662.9815,-13.415795241889423,0.0,-2.8861410592401513,0.0
4527768662.981,-13.413132216236248,0.0,-2.9251237317411665,0.0
4527783662.9805,-13.407416564942658,0.0,-2.945211276127617,0.0
4527798662.98,-13.416249005007295,0.0,-2.8679782102085882,0.0
4527813662.9795,-13.416129664980268,0.0,-2.8880725979515867,0.0
4527828662.979,-13.402591086684843,0.0,-2.9124337311598505,0.0
4527843662.9785,-13.41145742974826,0.0,-2.9598269773295174,0.0
4527858662.978,-13.409111858202305,0.0,-2.9155225798538993,0.0
4527873662.9775,-13.402483558819124,0.0,-2.884482959649315,0.0
4527888662.977,-13.40029583223843,0.0,-2.926098599983467,0.0
4527903662.9765,-13.40164333972021,0.0,-2.947473194786554,0.0
4527918662.976,-13.410218458327485,0.0,-2.9386668672856713,0.0
4527933662.9755,-13.402213103691412,0.0,-3.002451250562911,0.0
4527948662.975,-13.414557637252507,0.0,-2.9268042201352142,0.0
4527963662.9745,-13.410461014195995,0.0,-2.975209641343799,0.0
4527978662.974,-13.405352049345538,0.0,-2.9657253958379477,0.0
4527993662.9735,-13.40095730543224,0.0,-2.9073480637818534,0.0
4528008662.973,-13.416957397899731,0.0,-2.93356961677175,0.0
4528023662.9725,-13.418797284307482,0.0,-2.922395666350993,0.0
4528038662.972,-13.410624470301007,0.0,-2.9419672849622827,0.0
4528053662.9715,-13.407021776618341,0.0,-3.0013889149157733,0.0
4528068662.971,-13.410947145297115,0.0,-2.9158017772397797,0.0
4528083662.9705,-13.407127948669817,0.0,-2.941946145905087,0.0
4528098662.97,-13.407958839445136,0.0,-2.9875389674589234,0.0
4528113662.9695,-13.403981917457417,0.0,-2.900981288583511,0.0
4528128662.969,-13.40239365409242,0.0,-2.98540920723364,0.0
4528143662.9685,-13.414116392889,0.0,-2.9471384100018003,0.0
4528158662.968,-13.403216435581335,0.0,-2.989760596007266,0.0
4528173662.9675,-13.396674094190189,0.0,-2.9808178707451933,0.0
4528188662.967,-13.40529070351341,0.0,-3.0504501970125357,0.0
4528203662.9665,-13.39992961735467,0.0,-2.9599388527382646,0.0
4528218662.966,-13.404523796304746,0.0,-3.0070271765516754,0.0
4528233662.9655,-13.409532436791968,0.0,-3.0248621887035396,0.0
4528248662.965,-13.411607712607974,0.0,-2.956183562614505,0.0
4528263662.9645,-13.406504317801351,0.0,-3.0061774472279756,0.0
4528278662.964,-13.411452322948268,0.0,-3.063326002173172,0.0
4528293662.9635,-13.41377249905882,0.0,-3.053700373772801,0.0
4528308662.963,-13.410813731817743,0.0,-2.9521017924193016,0.0
4528323662.9625,-13.410243414935712,0.0,-3.0038838035602584,0.0
4528338662.962,-13.412240227867718,0.0,-3.0406687002162642,0.0
4528353662.9615,-13.407341999721321,0.0,-3.0365571986052506,0.0
4528368662.961,-13.416988465728124,0.0,-3.0310523263623868,0.0
4528383662.9605,-13.401313630910563,0.0,-3.004145145965254,0.0
4528398662.96,-13.409244938723358,0.0,-3.018295851163595,0.0
4528413662.9595,-13.411088009972993,0.0,-3.0507641943244375,0.0
4528428662.959,-13.405509629097569,0.0,-2.9845689750102307,0.0
4528443662.9585,-13.404104697579664,0.0,-3.076101623442142,0.0
4528458662.958,-13.409032139049684,0.0,-3.0372844502067347,0.0
4528473662.9575,-13.404160220727652,0.0,-3.0015636733648665,0.0
4528488662.957,-13.414143622816741,0.0,-3.055040999384354,0.0
4528503662.9565,-13.408646736479469,0.0,-3.014980717081577,0.0
4528518662.956,-13.408983595329824,0.0,-3.0575810881781744,0.0
4528533662.9555,-13.403782250716908,0.0,-3.027944187666412,0.0
4528548662.955,-13.401152618260387,0.0,-3.0332711676953674,0.0
4528563662.9545,-13.413309991879048,0.0,-3.0290151461736716,0.0
4528578662.954,-13.411674879717834,0.0,-3.012674216711516,0.0
4528593662.9535,-13.40781104896627,0.0,-3.025204561581505,0.0
4528608662.953,-13.410276542951706,0.0,-3.07969830210823,0.0
4528623662.9525,-13.403571788263228,0.0,-3.030328670783951,0.0
4528638662.952,-13.413311708759272,0.0,-3.084348057863299,0.0
4528653662.9515,-13.407752576196252,0.0,-3.0360866674315017,0.0
4528668662.951,-13.409650204969232,0.0,-3.1185600680245877,0.0
4528683662.9505,-13.409413263712073,0.0,-3.096721911964349,0.0
4528698662.95,-13.411197294505596,0.0,-3.0182912712909187,0.0
4528713662.9495,-13.415800359833117,0.0,-3.0364041975818354,0.0
4528728662.949,-13.403892895462175,0.0,-3.05012405426126,0.0
4528743662.9485,-13.416468259982917,0.0,-3.0864964475235532,0.0
4528758662.948,-13.416506386726986,0.0,-3.1408542417186407,0.0
4528773662.9475,-13.406916090631709,0.0,-3.0712578446511345,0.0
4528788662.947,-13.405347432220351,0.0,-3.030766748103316,0.0
4528803662.9465,-13.41009356995716,0.0,-3.045415508933464,0.0
4528818662.946,-13.410869791531193,0.0,-3.0767531449690493,0.0
4528833662.9455,-13.409020958638768,0.0,-3.0696745101104597,0.0
4528848662.945,-13.411433094264403,0.0,-3.109049308395211,0.0
4528863662.9445,-13.412823342431885,0.0,-3.0364464054804,0.0
4528878662.944,-13.403814343610028,0.0,-3.065277628655782,0.0
4528893662.9435,-13.406868788495975,0.0,-3.156666019247408,0.0
4528908662.943,-13.399917348670652,0.0,-3.1236172942621687,0.0
4528923662.9425,-13.41246019382828,0.0,-3.072327532419428,0.0
4528938662.942,-13.413974414246425,0.0,-3.126534417781188,0.0
4528953662.9415,-13.407988034596857,0.0,-3.049818559938114,0.0
4528968662.941,-13.416383109778094,0.0,-3.130361279148881,0.0
4528983662.9405,-13.39824681960919,0.0,-3.1183054010546263,0.0
4528998662.94,-13.409428592688462,0.0,-3.103294478075159,0.0
4529013662.9395,-13.407505573976211,0.0,-3.1794922729913604,0.0
4529028662.939,-13.407509989050672,0.0,-3.1425731344132384,0.0
4529043662.9385,-13.41177818909606,0.0,-3.158052479598708,0.0
4529058662.938,-13.41970640195963,0.0,-3.1623175127953496,0.0
4529073662.9375,-13.417175427003166,0.0,-3.1375176385658863,0.0
4529088662.937,-13.413240333199365,0.0,-3.114972251940849,0.0
4529103662.9365,-13.419087293836052,0.0,-3.1109254991785367,0.0
4529118662.936,-13.397363603294307,0.0,-3.0870913419594066,0.0
4529133662.9355,-13.412419968337643,0.0,-3.1445216655804837,0.0
4529148662.935,-13.410057985995909,0.0,-3.0985475133649656,0.0
4529163662.9345,-13.406367961739038,0.0,-3.18969115089461,0.0
4529178662.934,-13.416796405145064,0.0,-3.1224156299074006,0.0
4529193662.9335,-13.413673043340992,0.0,-3.158207351755985,0.0
4529208662.933,-13.417241652451725,0.0,-3.193331479136415,0.0
4529223662.9325,-13.412681698259233,0.0,-3.1843820071845905,0.0
4529238662.932,-13.409370358456293,0.0,-3.161862631280395,0.0
4529253662.9315,-13.413650527417893,0.0,-3.107502891623731,0.0
4529268662.931,-13.41026571867192,0.0,-3.1142525335172753,0.0
4529283662.9305,-13.409595331468756,0.0,-3.2396077601282176,0.0
4529298662.93,-13.410726108017476,0.0,-3.1888656194948886,0.0
4529313662.9295,-13.408544284766728,0.0,-3.1436954636471217,0.0
4529328662.929,-13.413404803209064,0.0,-3.1256453796928763,0.0
4529343662.9285,-13.421521026171543,0.0,-3.1799620659265853,0.0
4529358662.928,-13.409992211028833,0.0,-3.2337610983456355,0.0
4529373662.9275,-13.411740558545757,0.0,-3.1274259017487682,0.0
4529388662.927,-13.415054140358912,0.0,-3.1795399550263395,0.0
4529403662.9265,-13.411190381602323,0.0,-3.2008360827179114,0.0
4529418662.926,-13.414576822272972,0.0,-3.2213150964642723,0.0
4529433662.9255,-13.415103155291703,0.0,-3.183510405533862,0.0
4529448662.925,-13.410750162147703,0.0,-3.2409166950465726,0.0
4529463662.9245,-13.421681599971338,0.0,-3.2026646541726644,0.0
4529478662.924,-13.42522611862451,0.0,-3.2146321512374163,0.0
4529493662.9235,-13.405275153459751,0.0,-3.2385890711713503,0.0
4529508662.923,-13.412021136525844,0.0,-3.19124686626605,0.0
4529523662.9225,-13.408992811887117,0.0,-3.2423335212086,0.0
4529538662.922,-13.40785929731387,0.0,-3.2084507775468207,0.0
4529553662.9215,-13.412526157105,0.0,-3.2503193583615086,0.0
4529568662.921,-13.40981099049105,0.0,-3.1919260824543447,0.0
4529583662.9205,-13.409074822078125,0.0,-3.2732415994809463,0.0
4529598662.92,-13.420651979301448,0.0,-3.2334766100441668,0.0
4529613662.9195,-13.41058857635921,0.0,-3.2126846876853237,0.0
4529628662.919,-13.416344260040905,0.0,-3.225342378238147,0.0
4529643662.9185,-13.406071988950483,0.0,-3.2190178275246213,0.0
4529658662.918,-13.405476178234172,0.0,-3.233134893454433,0.0
4529673662.9175,-13.40738865361426,0.0,-3.2288771544072756,0.0
4529688662.917,-13.413666556958855,0.0,-3.269660749771256,0.0
4529703662.9165,-13.4090512225574,0.0,-3.2609170682640394,0.0
4529718662.916,-13.424138406033867,0.0,-3.2872500316403643,0.0
4529733662.9155,-13.419497256364096,0.0,-3.218815425468859,0.0
4529748662.915,-13.415700025904494,0.0,-3.2862710610135473,0.0
4529763662.9145,-13.416295908668666,0.0,-3.2456624377932415,0.0
4529778662.914,-13.42202796862579,0.0,-3.2336973133821445,0.0
4529793662.9135,-13.410195155801414,0.0,-3.280989998768594,0.0
4529808662.913,-13.412992602807483,0.0,-3.2373360132314164,0.0
4529823662.9125,-13.410173488971555,0.0,-3.2731781045606057,0.0
4529838662.912,-13.408505189591384,0.0,-3.2682384901766275,0.0
4529853662.9115,-13.423086995399487,0.0,-3.2571528104567653,0.0
4529868662.911,-13.415391409191031,0.0,-3.304446738640179,0.0
4529883662.9105,-13.424988296359292,0.0,-3.3403991870261973,0.0
4529898662.91,-13.424208980889974,0.0,-3.2810585272357287,0.0
4529913662.9095,-13.419592999776626,0.0,-3.3383435777137027,0.0
4529928662.909,-13.417223572919724,0.0,-3.331354249227514,0.0
4529943662.9085,-13.414888756076452,0.0,-3.294746504567945,0.0
4529958662.908,-13.4213764615895,0.0,-3.315358088606761,0.0
4529973662.9075,-13.413371595563275,0.0,-3.2905531993678343,0.0
4529988662.907,-13.4140770560605,0.0,-3.293779825696598,0.0
4530003662.9065,-13.414233414332182,0.0,-3.3098820443189734,0.0
4530018662.906,-13.410072153661739,0.0,-3.3489290986610194,0.0
4530033662.9055,-13.416656005780773,0.0,-3.349685489743316,0.0
4530048662.905,-13.412464066273817,0.0,-3.306291290597221,0.0
4530063662.9045,-13.416790546673841,0.0,-3.319992335477303,0.0
4530078662.904,-13.420991099768344,0.0,-3.391955344661891,0.0
4530093662.9035,-13.414685364617329,0.0,-3.296364390166238,0.0
4530108662.903,-13.413163420038627,0.0,-3.3386266089352334,0.0
4530123662.9025,-13.412135300031068,0.0,-3.2930302478838227,0.0
4530138662.902,-13.412535463513315,0.0,-3.356435604376571,0.0
4530153662.9015,-13.424257958989072,0.0,-3.350350767663537,0.0
4530168662.901,-13.415561057325665,0.0,-3.346247462527006,0.0
4530183662.9005,-13.41283614535258,0.0,-3.3309845121246977,0.0
4530198662.9,-13.410043870553011,0.0,-3.315498216778782,0.0
4530213662.8995,-13.413385909662667,0.0,-3.400132551300564,0.0
4530228662.899,-13.418539986352318,0.0,-3.3838608825686705,0.0
4530243662.8985,-13.409759874467078,0.0,-3.3677818715411143,0.0
4530258662.898,-13.416861135433374,0.0,-3.3522418283342628,0.0
4530273662.8975,-13.416958588018543,0.0,-3.3679310418364925,0.0
4530288662.897,-13.418620762273282,0.0,-3.3596748597673214,0.0
4530303662.8965,-13.416372785699053,0.0,-3.3584176615227617,0.0
4530318662.896,-13.421934385353163,0.0,-3.3932201622104405,0.0
4530333662.8955,-13.412911252486685,0.0,-3.4126877976133283,0.0
4530348662.895,-13.41613943190521,0.0,-3.364565068252589,0.0
4530363662.8945,-13.411172030229995,0.0,-3.479941055300467,0.0
4530378662.894,-13.412194508991448,0.0,-3.448196718875708,0.0
4530393662.8935,-13.410661316276384,0.0,-3.424658173533189,0.0
4530408662.893,-13.430264978089873,0.0,-3.3631128457545856,0.0
4530423662.8925,-13.414421429136231,0.0,-3.4794935123420565,0.0
4530438662.892,-13.415338169939908,0.0,-3.3741908197557104,0.0
4530453662.8915,-13.415429517455003,0.0,-3.434211243639027,0.0
4530468662.891,-13.415526064657502,0.0,-3.397868223925243,0.0
4530483662.8905,-13.409349230720345,0.0,-3.398238143735834,0.0
4530498662.89,-13.41596188467684,0.0,-3.414809623542236,0.0
4530513662.8895,-13.415666243220848,0.0,-3.404950644797012,0.0
4530528662.889,-13.41714825622919,0.0,-3.444316982264538,0.0
4530543662.8885,-13.422778093100906,0.0,-3.4683633699126384,0.0
4530558662.888,-13.4164443355385,0.0,-3.497346020399709,0.0
4530573662.8875,-13.41548978861837,0.0,-3.48900211823932,0.0
4530588662.887,-13.412302308573645,0.0,-3.443785339658692,0.0
4530603662.8865,-13.415015753970664,0.0,-3.4858241054390193,0.0
4530618662.886,-13.411734150800603,0.0,-3.484066340104587,0.0
4530633662.8855,-13.407504940967446,0.0,-3.497511383442144,0.0
4530648662.885,-13.428485503788036,0.0,-3.416944180605561,0.0
4530663662.8845,-13.415047816594374,0.0,-3.4804043347516593,0.0
4530678662.884,-13.414954278124057,0.0,-3.4837510641964506,0.0
4530693662.8835,-13.417653204166132,0.0,-3.5006627691811696,0.0
4530708662.883,-13.419452804146964,0.0,-3.466964946031298,0.0
4530723662.8825,-13.414673427462567,0.0,-3.482645610314871,0.0
4530738662.882,-13.419664696574278,0.0,-3.514399204893938,0.0
4530753662.8815,-13.415231839953082,0.0,-3.4858573744496137,0.0
4530768662.881,-13.416264903099293,0.0,-3.489996166182905,0.0
4530783662.8805,-13.413310224036117,0.0,-3.4836082805291193,0.0
4530798662.88,-13.42192169927689,0.0,-3.5120686219117836,0.0
4530813662.8795,-13.419845418469457,0.0,-3.5178284085851717,0.0
4530828662.879,-13.42186793598525,0.0,-3.4679180735495696,0.0
4530843662.8785,-13.413276914576024,0.0,-3.4913757211969205,0.0
4530858662.878,-13.419899447834736,0.0,-3.4592618681532183,0.0
4530873662.8775,-13.416754520069105,0.0,-3.519031792185311,0.0
4530888662.877,-13.413242903382097,0.0,-3.4538411665242186,0.0
4530903662.8765,-13.416262639497365,0.0,-3.5463480406762606,0.0
4530918662.876,-13.424067498423028,0.0,-3.594640161077223,0.0
4530933662.8755,-13.425349475237445,0.0,-3.504553851864253,0.0
4530948662.875,-13.420312718659495,0.0,-3.532942730171872,0.0
4530963662.8745,-13.41949756667233,0.0,-3.5360644425137298,0.0
4530978662.874,-13.420852773607148,0.0,-3.504266592845036,0.0
4530993662.8735,-13.409258646309636,0.0,-3.55323195682818,0.0
4531008662.873,-13.403966668357539,0.0,-3.5353122715039826,0.0
4531023662.8725,-13.424813644520361,0.0,-3.496068733172564,0.0
4531038662.872,-13.41777907044599,0.0,-3.541507393611637,0.0
4531053662.8715,-13.418422329935682,0.0,-3.534177754434596,0.0
4531068662.871,-13.42008954837873,0.0,-3.57189540952712,0.0
4531083662.8705,-13.428238260365507,0.0,-3.5833438027867195,0.0
4531098662.87,-13.41441661146326,0.0,-3.582937484587044,0.0
4531113662.8695,-13.423605879828507,0.0,-3.5173147533142446,0.0
4531128662.869,-13.41505643245556,0.0,-3.563068652422641,0.0
4531143662.8685,-13.423506924990619,0.0,-3.5620487912379635,0.0
4531158662.868,-13.418463143076039,0.0,-3.5439979863091704,0.0
4531173662.8675,-13.420901172156848,0.0,-3.5582346360259334,0.0
4531188662.867,-13.414864527485449,0.0,-3.589493894175139,0.0
4531203662.8665,-13.421339195906203,0.0,-3.5245878073085186,0.0
4531218662.866,-13.422172251205327,0.0,-3.646689845637999,0.0
4531233662.8655,-13.427482687174424,0.0,-3.575883666028366,0.0
4531248662.865,-13.420198830685573,0.0,-3.5850752301201863,0.0
4531263662.8645,-13.416339589915378,0.0,-3.651244163067129,0.0
4531278662.864,-13.416845531020147,0.0,-3.5498822270746793,0.0
4531293662.8635,-13.429415928499818,0.0,-3.6336189803070584,0.0
4531308662.863,-13.422752304704035,0.0,-3.5848428778463735,0.0
4531323662.8625,-13.422863404594331,0.0,-3.5657083864683132,0.0
4531338662.862,-13.419409910038206,0.0,-3.6393335494851176,0.0
4531353662.8615,-13.414623551927335,0.0,-3.600106450596025,0.0
4531368662.861,-13.415411320076519,0.0,-3.5763909196203443,0.0
4531383662.8605,-13.422869381270278,0.0,-3.6469145489014214,0.0
4531398662.86,-13.416303188907378,0.0,-3.7131091025772514,0.0
4531413662.8595,-13.41917446673887,0.0,-3.632127828154971,0.0
4531428662.859,-13.411987442358468,0.0,-3.679382736291806,0.0
4531443662.8585,-13.422371117439504,0.0,-3.617768021537071,0.0
4531458662.858,-13.428726602804897,0.0,-3.6240011880199416,0.0
4531473662.8575,-13.421014770200834,0.0,-3.681432309352592,0.0
4531488662.857,-13.419192133878857,0.0,-3.702071447252464,0.0
4531503662.8565,-13.421605392552951,0.0,-3.634010277375088,0.0
4531518662.856,-13.420749320249568,0.0,-3.651059189892781,0.0
4531533662.8555,-13.426312792593396,0.0,-3.706130732925875,0.0
4531548662.855,-13.427552127780242,0.0,-3.7036001350575574,0.0
4531563662.8545,-13.420104308199747,0.0,-3.7203416846807054,0.0
4531578662.854,-13.409207177026207,0.0,-3.73108465499031,0.0
4531593662.8535,-13.42226933340398,0.0,-3.7018539109449375,0.0
4531608662.853,-13.420959911964639,0.0,-3.73655839789082,0.0
4531623662.8525,-13.416869277231802,0.0,-3.7387076540037048,0.0
4531638662.852,-13.412553794242353,0.0,-3.721421770663668,0.0
4531653662.8515,-13.422215119911643,0.0,-3.6843953650402046,0.0
4531668662.851,-13.422664226416794,0.0,-3.752508783079676,0.0
4531683662.8505,-13.41144555866223,0.0,-3.731075024832129,0.0
4531698662.85,-13.430096433572254,0.0,-3.671404541295572,0.0
4531713662.8495,-13.416425612246567,0.0,-3.7182872001921994,0.0
4531728662.849,-13.416519983785085,0.0,-3.728889473904888,0.0
4531743662.8485,-13.408573463568237,0.0,-3.72151055931451,0.0
4531758662.848,-13.422551578367326,0.0,-3.7372517326359014,0.0
4531773662.8475,-13.423218087935547,0.0,-3.696229085505771,0.0
4531788662.847,-13.418551260103452,0.0,-3.739571500731851,0.0
4531803662.8465,-13.419496292112163,0.0,-3.7656137746946197,0.0
4531818662.846,-13.419848080751056,0.0,-3.7042050294002333,0.0
4531833662.8455,-13.422723418521436,0.0,-3.690717433489118,0.0
4531848662.845,-13.415677312805059,0.0,-3.6996810723236973,0.0
4531863662.8445,-13.430886565969011,0.0,-3.7542289568975162,0.0
4531878662.844,-13.41606276262073,0.0,-3.805233359320153,0.0
