Frequency,S11,S11-Q,S11-Phase,S11-Phase-Q
4527198663.0,-13.468508708610514,0.0,-2.0201977173584607,0.0
4527213662.9995,-13.463030038033688,0.0,-1.924142820588312,0.0
4527228662.999,-13.475172660191202,0.0,-1.9724697088057697,0.0
4527243662.9985,-13.468033477827731,0.0,-2.03025297879746,0.0
4527258662.998,-13.459957705661358,0.0,-2.051711807986492,0.0
4527273662.9975,-13.464487091452892,0.0,-1.9739880502084441,0.0
4527288662.997,-13.465080316816467,0.0,-1.9768607991493063,0.0
4527303662.9965,-13.457840346277376,0.0,-1.973406823457147,0.0
4527318662.996,-13.465906632137452,0.0,-1.9802335783364235,0.0
4527333662.9955,-13.463512282662421,0.0,-1.9955119081500747,0.0
4527348662.995,-13.479681700826358,0.0,-2.03342234318125,0.0
4527363662.9945,-13.470328127187381,0.0,-1.9907345669346028,0.0
4527378662.994,-13.469241068708866,0.0,-1.9800402846348069,0.0
4527393662.9935,-13.470862632787002,0.0,-2.0087180612137,0.0
4527408662.993,-13.468949353960678,0.0,-2.061653368571751,0.0
4527423662.9925,-13.461648373704902,0.0,-2.0602564444675746,0.0
4527438662.992,-13.462062811286888,0.0,-1.9805662418952807,0.0
4527453662.9915,-13.468973256297055,0.0,-2.039522391551007,0.0
4527468662.991,-13.460183725243493,0.0,-1.9751968568061553,0.0
4527483662.9905,-13.471272343555851,0.0,-2.075003893655981,0.0
4527498662.99,-13.460223999615684,0.0,-2.0065856512720823,0.0
4527513662.9895,-13.459070798599537,0.0,-2.0393327395485574,0.0
4527528662.989,-13.466354446433463,0.0,-2.0513525886159463,0.0
4527543662.9885,-13.467860431012934,0.0,-1.975713237171428,0.0
4527558662.988,-13.46586014100647,0.0,-2.0418367001986146,0.0
4527573662.9875,-13.466322661912354,0.0,-2.0026075130505268,0.0
4527588662.987,-13.466526031056691,0.0,-2.0694844404571686,0.0
4527603662.9865,-13.466754360025968,0.0,-2.0959712706358267,0.0
4527618662.986,-13.458830719684567,0.0,-2.0446491126817747,0.0
4527633662.9855,-13.468584038672013,0.0,-2.0097126051942644,0.0
4527648662.985,-13.47011545619674,0.0,-2.0436562189836716,0.0
4527663662.9845,-13.465853428181,0.0,-2.040205670968773,0.0
4527678662.984,-13.465334882602795,0.0,-2.0055236232023463,0.0
4527693662.9835,-13.457652480751168,0.0,-2.060728615527252,0.0
4527708662.983,-13.456578723172388,0.0,-2.065687983406146,0.0
4527723662.9825,-13.465201892611322,0.0,-2.070342599917158,0.0
4527738662.982,-13.461589818138613,0.0,-2.030942681846671,0.0
4527753662.9815,-13.461103166977558,0.0,-1.9949539527362368,0.0
4527768662.981,-13.470031492046717,0.0,-2.0586221412802868,0.0
4527783662.9805,-13.461559467099844,0.0,-2.0446583963905764,0.0
4527798662.98,-13.464238426780675,0.0,-2.0203209348119926,0.0
4527813662.9795,-13.460172938227446,0.0,-2.0423516626624796,0.0
4527828662.979,-13.469817455480463,0.0,-2.0859458784034692,0.0
4527843662.9785,-13.465237887372702,0.0,-2.0861390400875774,0.0
4527858662.978,-13.466167350901433,0.0,-2.0521564142017388,0.0
4527873662.9775,-13.4611195390516,0.0,-2.042351740723325,0.0
4527888662.977,-13.468714086953701,0.0,-2.1481126490555336,0.0
4527903662.9765,-13.473774451225824,0.0,-2.0674789829134053,0.0
4527918662.976,-13.465886623894278,0.0,-2.0474076020593133,0.0
4527933662.9755,-13.462055086223543,0.0,-2.0683255832112315,0.0
4527948662.975,-13.463368901757418,0.0,-2.047337049469487,0.0
4527963662.9745,-13.464681184888995,0.0,-2.065083067118856,0.0
4527978662.974,-13.46311085889236,0.0,-2.1351569749072623,0.0
4527993662.9735,-13.46111698361975,0.0,-2.1168906977086532,0.0
4528008662.973,-13.468794305349594,0.0,-2.0890057452597914,0.0
4528023662.9725,-13.449340131279765,0.0,-2.103863614048734,0.0
4528038662.972,-13.462695455668731,0.0,-2.102921849651876,0.0
4528053662.9715,-13.454562592214439,0.0,-2.16137877326556,0.0
4528068662.971,-13.467225818646158,0.0,-2.0705960671192236,0.0
4528083662.9705,-13.462662925475822,0.0,-2.07645434768575,0.0
4528098662.97,-13.46261372597277,0.0,-2.111725383604719,0.0
4528113662.9695,-13.464423659380127,0.0,-2.1453927041052796,0.0
4528128662.969,-13.467086707699732,0.0,-2.091582772751621,0.0
4528143662.9685,-13.46446474931559,0.0,-2.145232540592405,0.0
4528158662.968,-13.45326567305344,0.0,-2.1698103395219523,0.0
4528173662.9675,-13.470138477150853,0.0,-2.072272439096329,0.0
4528188662.967,-13.457892490377862,0.0,-2.0905671126805334,0.0
4528203662.9665,-13.46276342355065,0.0,-2.1234582320222253,0.0
4528218662.966,-13.473396721434872,0.0,-2.168904337278207,0.0
4528233662.9655,-13.468540214174155,0.0,-2.0653567172221736,0.0
4528248662.965,-13.466119000679189,0.0,-2.1314300368304613,0.0
4528263662.9645,-13.463049619263812,0.0,-2.0737312902674385,0.0
4528278662.964,-13.457153088677673,0.0,-2.1126069796624565,0.0
4528293662.9635,-13.464786329611758,0.0,-2.103324358714101,0.0
4528308662.963,-13.46641120013845,0.0,-2.1370365344289084,0.0
4528323662.9625,-13.455418955185065,0.0,-2.143179606873061,0.0
4528338662.962,-13.467673511661872,0.0,-2.1548674795056657,0.0
4528353662.9615,-13.461665002418526,0.0,-2.1484746095231935,0.0
4528368662.961,-13.457319432267054,0.0,-2.119807946094344,0.0
4528383662.9605,-13.46324414725224,0.0,-2.1237866990901715,0.0
4528398662.96,-13.466654325340413,0.0,-2.1819589937314547,0.0
4528413662.9595,-13.467587055197708,0.0,-2.1307007762171644,0.0
4528428662.959,-13.45886440162845,0.0,-2.2039953820992335,0.0
4528443662.9585,-13.458731601184862,0.0,-2.125234262674103,0.0
4528458662.958,-13.461051405912443,0.0,-2.1618653555541467,0.0
4528473662.9575,-13.46527538764805,0.0,-2.151420999838967,0.0
4528488662.957,-13.46305613445985,0.0,-2.1447101434062277,0.0
4528503662.9565,-13.474615335869453,0.0,-2.1825723675384716,0.0
4528518662.956,-13.465765495408613,0.0,-2.1759043864931824,0.0
4528533662.9555,-13.467592912627527,0.0,-2.1342696779508024,0.0
4528548662.955,-13.462147865103358,0.0,-2.1911088283191766,0.0
4528563662.9545,-13.454294320706861,0.0,-2.2128306890128773,0.0
4528578662.954,-13.465299788029718,0.0,-2.1497560481536095,0.0
4528593662.9535,-13.473370366912654,0.0,-2.1246510721893026,0.0
4528608662.953,-13.460619782209406,0.0,-2.1673440088678495,0.0
4528623662.9525,-13.468830764901416,0.0,-2.1365479840443298,0.0
4528638662.952,-13.46237880402766,0.0,-2.1769948905089573,0.0
4528653662.9515,-13.464926941416744,0.0,-2.227504342588761,0.0
4528668662.951,-13.455930230911097,0.0,-2.1811676225951837,0.0
4528683662.9505,-13.456636485600587,0.0,-2.15733883670377,0.0
4528698662.95,-13.458430356915986,0.0,-2.1293433067488032,0.0
4528713662.9495,-13.46147611623209,0.0,-2.180359897330343,0.0
4528728662.949,-13.459379433222763,0.0,-2.202569074454759,0.0
4528743662.9485,-13.47900869216791,0.0,-2.176937885225089,0.0
4528758662.948,-13.464757809541453,0.0,-2.1739312785179177,0.0
4528773662.9475,-13.475582005553136,0.0,-2.16053196250716,0.0
4528788662.947,-13.463560097642322,0.0,-2.195855846317089,0.0
4528803662.9465,-13.456152913941112,0.0,-2.1954395958147783,0.0
4528818662.946,-13.466514184587465,0.0,-2.244739885674208,0.0
4528833662.9455,-13.467209428447575,0.0,-2.2473792980590623,0.0
4528848662.945,-13.45307664290466,0.0,-2.200558654332141,0.0
4528863662.9445,-13.478179337437812,0.0,-2.196906611445092,0.0
4528878662.944,-13.47149249024776,0.0,-2.1696630077849712,0.0
4528893662.9435,-13.4612565835842,0.0,-2.197952007225149,0.0
4528908662.943,-13.467529819651098,0.0,-2.173376225991323,0.0
4528923662.9425,-13.466394184316444,0.0,-2.1848453784972603,0.0
4528938662.942,-13.465054942659036,0.0,-2.1883495433363587,0.0
4528953662.9415,-13.461137000965751,0.0,-2.2447071423339366,0.0
4528968662.941,-13.468296089986065,0.0,-2.2595390527970967,0.0
4528983662.9405,-13.45872637489319,0.0,-2.1433210807889966,0.0
4528998662.94,-13.461182710953377,0.0,-2.2260617026149205,0.0
4529013662.9395,-13.476180254060065,0.0,-2.2750843420132165,0.0
4529028662.939,-13.461740755370704,0.0,-2.2591502880333483,0.0
4529043662.9385,-13.470709271635744,0.0,-2.2185039316579123,0.0
4529058662.938,-13.463287328368835,0.0,-2.272600213258624,0.0
4529073662.9375,-13.463286779149044,0.0,-2.2468592354506165,0.0
4529088662.937,-13.458320712963959,0.0,-2.283969256444512,0.0
4529103662.9365,-13.464487394395952,0.0,-2.211563471106932,0.0
4529118662.936,-13.4643573761707,0.0,-2.2660439456458925,0.0
4529133662.9355,-13.466916883165228,0.0,-2.2478546158057005,0.0
4529148662.935,-13.464829084737016,0.0,-2.2480391406697624,0.0
4529163662.9345,-13.463254865442087,0.0,-2.2551282208570913,0.0
4529178662.934,-13.463722668608305,0.0,-2.2162379119784643,0.0
4529193662.9335,-13.458709448803495,0.0,-2.21332043136392,0.0
4529208662.933,-13.457259319880901,0.0,-2.1769957897712584,0.0
4529223662.9325,-13.464772597211878,0.0,-2.256829434629415,0.0
4529238662.932,-13.46195634685012,0.0,-2.2755185558363076,0.0
4529253662.9315,-13.461533316736421,0.0,-2.305573087226407,0.0
4529268662.931,-13.47012117584236,0.0,-2.2845500197919755,0.0
4529283662.9305,-13.468345229024113,0.0,-2.300465430369454,0.0
4529298662.93,-13.462636213059746,0.0,-2.2469884861762144,0.0
4529313662.9295,-13.466474967506167,0.0,-2.2921605544665695,0.0
4529328662.929,-13.46962724105747,0.0,-2.2363587338376734,0.0
4529343662.9285,-13.459687421982053,0.0,-2.21915606496559,0.0
4529358662.928,-13.457258976281508,0.0,-2.258670072351369,0.0
4529373662.9275,-13.465114211925046,0.0,-2.2740860447962397,0.0
4529388662.927,-13.459670524713962,0.0,-2.293847653865444,0.0
4529403662.9265,-13.447797685966652,0.0,-2.2623812045013674,0.0
4529418662.926,-13.466894965056282,0.0,-2.251756644507799,0.0
4529433662.9255,-13.46436753474482,0.0,-2.3077766025698536,0.0
4529448662.925,-13.461882809473343,0.0,-2.308194912523395,0.0
4529463662.9245,-13.464929960270705,0.0,-2.277753283444228,0.0
4529478662.924,-13.466290758976909,0.0,-2.3244114520835204,0.0
4529493662.9235,-13.459845504863125,0.0,-2.2889310773486087,0.0
4529508662.923,-13.461495941900603,0.0,-2.3422972391501333,0.0
4529523662.9225,-13.464617250903387,0.0,-2.3011629098250657,0.0
4529538662.922,-13.459228283515117,0.0,-2.292164857729741,0.0
4529553662.9215,-13.455646100477612,0.0,-2.320077045814388,0.0
4529568662.921,-13.4616924948565,0.0,-2.2513067088300347,0.0
4529583662.9205,-13.462134298199707,0.0,-2.332316356053046,0.0
4529598662.92,-13.466134471770586,0.0,-2.305670379678956,0.0
4529613662.9195,-13.464878584190902,0.0,-2.3228545479688663,0.0
4529628662.919,-13.475085624781773,0.0,-2.2899743562507453,0.0
4529643662.9185,-13.478889755742776,0.0,-2.3533820526396614,0.0
4529658662.918,-13.460431639461344,0.0,-2.3373761523445555,0.0
4529673662.9175,-13.459243729511115,0.0,-2.32240978958203,0.0
4529688662.917,-13.472991502703216,0.0,-2.291863706295647,0.0
4529703662.9165,-13.466687474897931,0.0,-2.297471842126365,0.0
4529718662.916,-13.460773398175743,0.0,-2.309930950470876,0.0
4529733662.9155,-13.464036278551827,0.0,-2.3134551074865364,0.0
4529748662.915,-13.463273983079052,0.0,-2.3147600970889126,0.0
4529763662.9145,-13.461379388361813,0.0,-2.3445993800359735,0.0
4529778662.914,-13.462013782758115,0.0,-2.2872857406536298,0.0
4529793662.9135,-13.469273561109334,0.0,-2.2905187811168766,0.0
4529808662.913,-13.46296412843599,0.0,-2.3227532647914786,0.0
4529823662.9125,-13.471138161961754,0.0,-2.3824244702402058,0.0
4529838662.912,-13.461483301459792,0.0,-2.325061896295963,0.0
4529853662.9115,-13.451505529397709,0.0,-2.343245706909005,0.0
4529868662.911,-13.473580286486817,0.0,-2.362651622258783,0.0
4529883662.9105,-13.46768605128521,0.0,-2.4002966316576093,0.0
4529898662.91,-13.467388218003977,0.0,-2.3109594482002795,0.0
4529913662.9095,-13.461143922213184,0.0,-2.328037261077471,0.0
4529928662.909,-13.461872904659316,0.0,-2.3654037787131226,0.0
4529943662.9085,-13.466759562215946,0.0,-2.3549759641411985,0.0
4529958662.908,-13.471454302092402,0.0,-2.352022559776945,0.0
4529973662.9075,-13.46910457132376,0.0,-2.4081420081210694,0.0
4529988662.907,-13.456471416520113,0.0,-2.379496496606147,0.0
4530003662.9065,-13.462782290662991,0.0,-2.475417934555356,0.0
4530018662.906,-13.460607919687149,0.0,-2.3433846618568692,0.0
4530033662.9055,-13.467524222805578,0.0,-2.415314287764755,0.0
4530048662.905,-13.465051478440673,0.0,-2.4072976081095714,0.0
4530063662.9045,-13.464910344409146,0.0,-2.386919431451335,0.0
4530078662.904,-13.466594541190005,0.0,-2.4003659241340554,0.0
4530093662.9035,-13.468558851473114,0.0,-2.350560032345818,0.0
4530108662.903,-13.468273328929408,0.0,-2.3721951806795913,0.0
4530123662.9025,-13.469399056684775,0.0,-2.3591646210455175,0.0
4530138662.902,-13.470014595359883,0.0,-2.4109127939168737,0.0
4530153662.9015,-13.470122297897277,0.0,-2.436394938518636,0.0
4530168662.901,-13.465319437179986,0.0,-2.3910449817482373,0.0
4530183662.9005,-13.464576318924475,0.0,-2.435861355593676,0.0
4530198662.9,-13.465103691504483,0.0,-2.4007363067420844,0.0
4530213662.8995,-13.476747538646134,0.0,-2.3601909919656086,0.0
4530228662.899,-13.465418837476498,0.0,-2.3538255573564193,0.0
4530243662.8985,-13.46074104434053,0.0,-2.4499143559289562,0.0
4530258662.898,-13.461083288499607,0.0,-2.426924846246831,0.0
4530273662.8975,-13.459423837328115,0.0,-2.4313685480881486,0.0
4530288662.897,-13.454431782046747,0.0,-2.397158321516377,0.0
4530303662.8965,-13.4697897784374,0.0,-2.3940424085745438,0.0
4530318662.896,-13.474962831886042,0.0,-2.4526766653737777,0.0
4530333662.8955,-13.465752368747117,0.0,-2.448992249772072,0.0
4530348662.895,-13.463210861680038,0.0,-2.4294600373219564,0.0
4530363662.8945,-13.459827735747654,0.0,-2.4352677363344024,0.0
4530378662.894,-13.464178211083945,0.0,-2.3770924518337377,0.0
4530393662.8935,-13.470326629519569,0.0,-2.4570952696313824,0.0
4530408662.893,-13.467252865467668,0.0,-2.421941096945658,0.0
4530423662.8925,-13.459541135326596,0.0,-2.3744698095682173,0.0
4530438662.892,-13.471692645645806,0.0,-2.452969242559827,0.0
4530453662.8915,-13.47024202193986,0.0,-2.4293597556541866,0.0
4530468662.891,-13.465727091537778,0.0,-2.411389223790598,0.0
4530483662.8905,-13.473523094963726,0.0,-2.4980385661418114,0.0
4530498662.89,-13.463959477885158,0.0,-2.5105632526928763,0.0
4530513662.8895,-13.465345047755886,0.0,-2.4739637877311025,0.0
4530528662.889,-13.47038970592747,0.0,-2.4498257619949064,0.0
4530543662.8885,-13.45679814606019,0.0,-2.466347013133098,0.0
4530558662.888,-13.46109800673156,0.0,-2.481180434981142,0.0
4530573662.8875,-13.464839303491804,0.0,-2.439005980054336,0.0
4530588662.887,-13.4725465687362,0.0,-2.501666087113937,0.0
4530603662.8865,-13.464424348997442,0.0,-2.4776542789369747,0.0
4530618662.886,-13.459754934529634,0.0,-2.4788165540546894,0.0
4530633662.8855,-13.468203950357296,0.0,-2.458632900698198,0.0
4530648662.885,-13.463820173643352,0.0,-2.508009109238062,0.0
4530663662.8845,-13.46123159260169,0.0,-2.5346852245154454,0.0
4530678662.884,-13.456554489544242,0.0,-2.508573209521866,0.0
4530693662.8835,-13.459444894272988,0.0,-2.4830652133760824,0.0
4530708662.883,-13.469471846611123,0.0,-2.5014695554877573,0.0
4530723662.8825,-13.474909343372241,0.0,-2.4943767381820425,0.0
4530738662.882,-13.463009542853069,0.0,-2.4981425742484595,0.0
4530753662.8815,-13.465106517414045,0.0,-2.4930915646329663,0.0
4530768662.881,-13.458662653866382,0.0,-2.522494331104143,0.0
4530783662.8805,-13.460490894924908,0.0,-2.5771275543725825,0.0
4530798662.88,-13.460795503542064,0.0,-2.5033994100648083,0.0
4530813662.8795,-13.466942185991094,0.0,-2.526687320988054,0.0
4530828662.879,-13.462180464871045,0.0,-2.4779408179249938,0.0
4530843662.8785,-13.46695242656409,0.0,-2.4750834019711836,0.0
4530858662.878,-13.470448859684991,0.0,-2.50452295258769,0.0
4530873662.8775,-13.470104976456007,0.0,-2.5665794547049474,0.0
4530888662.877,-13.46680430165553,0.0,-2.4954099015648277,0.0
4530903662.8765,-13.462233194986402,0.0,-2.4903713265215894,0.0
4530918662.876,-13.46803230681676,0.0,-2.6129672700367093,0.0
4530933662.8755,-13.474479749136082,0.0,-2.5488718253334066,0.0
4530948662.875,-13.468041317257393,0.0,-2.509484318334966,0.0
4530963662.8745,-13.469420207609755,0.0,-2.4903924700062827,0.0
4530978662.874,-13.467513595919973,0.0,-2.5470954659524523,0.0
4530993662.8735,-13.461944092413543,0.0,-2.525224040673884,0.0
4531008662.873,-13.470631458502869,0.0,-2.5164401503472815,0.0
4531023662.8725,-13.474518903707702,0.0,-2.5183890310249426,0.0
4531038662.872,-13.463424346082526,0.0,-2.5722276219687212,0.0
4531053662.8715,-13.470437286084547,0.0,-2.615611287570284,0.0
4531068662.871,-13.465924522909123,0.0,-2.5110552917673323,0.0
4531083662.8705,-13.4680647531342,0.0,-2.5984518210226772,0.0
4531098662.87,-13.472499265885835,0.0,-2.5748263942464447,0.0
4531113662.8695,-13.469030481330249,0.0,-2.538251201708559,0.0
4531128662.869,-13.475460749867246,0.0,-2.542556669357232,0.0
4531143662.8685,-13.462891248590655,0.0,-2.552448179101883,0.0
4531158662.868,-13.47070883343983,0.0,-2.5533007285955844,0.0
4531173662.8675,-13.4668959229305,0.0,-2.597615570813553,0.0
4531188662.867,-13.47901832124564,0.0,-2.559525670760459,0.0
4531203662.8665,-13.468899381577831,0.0,-2.550032693297186,0.0
4531218662.866,-13.47686904180563,0.0,-2.5420995107991224,0.0
4531233662.8655,-13.474882168689138,0.0,-2.559962343985221,0.0
4531248662.865,-13.47219378590744,0.0,-2.6005930440689435,0.0
4531263662.8645,-13.468393773738974,0.0,-2.605985204828174,0.0
4531278662.864,-13.466743569451648,0.0,-2.5606365212877886,0.0
4531293662.8635,-13.464682427424147,0.0,-2.6205425097444377,0.0
4531308662.863,-13.464699717046425,0.0,-2.5803362015154128,0.0
4531323662.8625,-13.459690219200757,0.0,-2.610039554061655,0.0
4531338662.862,-13.46822294439992,0.0,-2.57475708363825,0.0
4531353662.8615,-13.463411246750173,0.0,-2.539888779868093,0.0
4531368662.861,-13.466388487874765,0.0,-2.568164411713905,0.0
4531383662.8605,-13.469148870139628,0.0,-2.6054672015908418,0.0
4531398662.86,-13.462657763475876,0.0,-2.5963637416960115,0.0
4531413662.8595,-13.46983810873744,0.0,-2.544599119034759,0.0
4531428662.859,-13.477803116646374,0.0,-2.596007621786084,0.0
4531443662.8585,-13.465332028745703,0.0,-2.6208820422346397,0.0
4531458662.858,-13.468765444347328,0.0,-2.657456422734458,0.0
4531473662.8575,-13.46593668220067,0.0,-2.6008331336346293,0.0
4531488662.857,-13.470386138625434,0.0,-2.640677369121825,0.0
4531503662.8565,-13.469319845657935,0.0,-2.6478157849672463,0.0
4531518662.856,-13.462632991096973,0.0,-2.669840132866205,0.0
4531533662.8555,-13.472126611800899,0.0,-2.6136840547935596,0.0
4531548662.855,-13.472959666719607,0.0,-2.698627489866926,0.0
4531563662.8545,-13.46919385417565,0.0,-2.6402307321157505,0.0
4531578662.854,-13.468133267511602,0.0,-2.7039391320392534,0.0
4531593662.8535,-13.46822185026608,0.0,-2.5877986278965333,0.0
4531608662.853,-13.47153947312465,0.0,-2.5993919653962325,0.0
4531623662.8525,-13.4693162357974,0.0,-2.6371203011471587,0.0
4531638662.852,-13.47717291011567,0.0,-2.708989112787295,0.0
4531653662.8515,-13.46657115112376,0.0,-2.652786527715127,0.0
4531668662.851,-13.468703416496375,0.0,-2.625544786677786,0.0
4531683662.8505,-13.462857183423914,0.0,-2.6817727397247735,0.0
4531698662.85,-13.467719564580609,0.0,-2.694812437889835,0.0
4531713662.8495,-13.470720318724762,0.0,-2.684749581196531,0.0
4531728662.849,-13.475388526822158,0.0,-2.735960466156776,0.0
4531743662.8485,-13.472131621017203,0.0,-2.7009219503258564,0.0
4531758662.848,-13.477044415621657,0.0,-2.663847470215041,0.0
4531773662.8475,-13.467839720379596,0.0,-2.754190746971338,0.0
4531788662.847,-13.475264930004958,0.0,-2.663075139882342,0.0
4531803662.8465,-13.467304919153584,0.0,-2.6150218885094256,0.0
4531818662.846,-13.479999433802256,0.0,-2.682324782299129,0.0
4531833662.8455,-13.467036413324056,0.0,-2.6540292836319397,0.0
4531848662.845,-13.469448204210476,0.0,-2.724860130003791,0.0
4531863662.8445,-13.473323584821378,0.0,-2.6934626084003432,0.0
