Frequency,S11,S11-Q,S11-Phase,S11-Phase-Q
4527198663.0,-13.418912194482598,0.0,-2.5344647034502197,0.0
4527213662.9995,-13.437855648011162,0.0,-2.5307906022929103,0.0
4527228662.999,-13.43047319648326,0.0,-2.5381881870468965,0.0
4527243662.9985,-13.425349450669628,0.0,-2.462168401968765,0.0
4527258662.998,-13.429694674164484,0.0,-2.5544424778356905,0.0
4527273662.9975,-13.425162250236495,0.0,-2.5545499158812275,0.0
4527288662.997,-13.42807028482218,0.0,-2.5761600804839273,0.0
4527303662.9965,-13.426293269287113,0.0,-2.579977784277212,0.0
4527318662.996,-13.421920098134501,0.0,-2.4952919544567584,0.0
4527333662.9955,-13.42447746024725,0.0,-2.609105968099726,0.0
4527348662.995,-13.425251171356322,0.0,-2.588213579720664,0.0
4527363662.9945,-13.430895707009627,0.0,-2.6058502236483347,0.0
4527378662.994,-13.41973520591594,0.0,-2.5071150537826106,0.0
4527393662.9935,-13.436279141505063,0.0,-2.5202446468637048,0.0
4527408662.993,-13.420981241388239,0.0,-2.554397926680064,0.0
4527423662.9925,-13.431152117367464,0.0,-2.593367333521482,0.0
4527438662.992,-13.422850031146055,0.0,-2.581083715037614,0.0
4527453662.9915,-13.42804522967959,0.0,-2.5727073098547746,0.0
4527468662.991,-13.427332004501286,0.0,-2.548780197961524,0.0
4527483662.9905,-13.4301790957342,0.0,-2.642092398257093,0.0
4527498662.99,-13.43189883031908,0.0,-2.5742919319177098,0.0
4527513662.9895,-13.428409000557506,0.0,-2.541661830747296,0.0
4527528662.989,-13.428428158612975,0.0,-2.564401055414196,0.0
4527543662.9885,-13.43835028574891,0.0,-2.588216963627858,0.0
4527558662.988,-13.425254644237219,0.0,-2.596927362999331,0.0
4527573662.9875,-13.43236624823011,0.0,-2.5971574373617563,0.0
4527588662.987,-13.433125680894683,0.0,-2.533760928919719,0.0
4527603662.9865,-13.430926906041847,0.0,-2.589065115693922,0.0
4527618662.986,-13.424780363951264,0.0,-2.6619829982562186,0.0
4527633662.9855,-13.4369340987407,0.0,-2.597842685172693,0.0
4527648662.985,-13.422899004333198,0.0,-2.615262464164057,0.0
4527663662.9845,-13.430551352537845,0.0,-2.6124393546303173,0.0
4527678662.984,-13.427633597781467,0.0,-2.556160311155355,0.0
4527693662.9835,-13.425358798213853,0.0,-2.6136263414453555,0.0
4527708662.983,-13.431524367123394,0.0,-2.614992613220977,0.0
4527723662.9825,-13.428841296888184,0.0,-2.5711230052525322,0.0
4527738662.982,-13.427761831346272,0.0,-2.577632129978992,0.0
4527753662.9815,-13.4261232375121,0.0,-2.608992789617006,0.0
4527768662.981,-13.433051509313888,0.0,-2.566165973633496,0.0
4527783662.9805,-13.425965377561091,0.0,-2.6193961947749846,0.0
4527798662.98,-13.429208917747566,0.0,-2.6215727222587915,0.0
4527813662.9795,-13.429297921387208,0.0,-2.6316986404801646,0.0
4527828662.979,-13.427371469693004,0.0,-2.610052022832696,0.0
4527843662.9785,-13.42567884988357,0.0,-2.6089140212139252,0.0
4527858662.978,-13.420375717437969,0.0,-2.5844050788364834,0.0
4527873662.9775,-13.4267283952364,0.0,-2.5775234750520135,0.0
4527888662.977,-13.429096680381978,0.0,-2.61124469786271,0.0
4527903662.9765,-13.430805451639543,0.0,-2.598384152626433,0.0
4527918662.976,-13.420588915622893,0.0,-2.644586415492351,0.0
4527933662.9755,-13.435874647171143,0.0,-2.6587906994199684,0.0
4527948662.975,-13.428117940471731,0.0,-2.6290224709033745,0.0
4527963662.9745,-13.429390851359768,0.0,-2.646491463404054,0.0
4527978662.974,-13.435084578402263,0.0,-2.663771131863245,0.0
4527993662.9735,-13.424889414247712,0.0,-2.6847472469901477,0.0
4528008662.973,-13.425936259672621,0.0,-2.6049504706512567,0.0
4528023662.9725,-13.432137673716172,0.0,-2.67520573354857,0.0
4528038662.972,-13.427088801189935,0.0,-2.672026721056271,0.0
4528053662.9715,-13.433587788425644,0.0,-2.5918642591154253,0.0
4528068662.971,-13.443318727884844,0.0,-2.6683995975371606,0.0
4528083662.9705,-13.427464894428873,0.0,-2.6172163544596603,0.0
4528098662.97,-13.42377627465126,0.0,-2.679861360132614,0.0
4528113662.9695,-13.43003795360763,0.0,-2.629591692995653,0.0
4528128662.969,-13.432767932685808,0.0,-2.6761818821685814,0.0
4528143662.9685,-13.431066873309177,0.0,-2.6589356627922403,0.0
4528158662.968,-13.429792855164798,0.0,-2.676468213521383,0.0
4528173662.9675,-13.435277812609034,0.0,-2.6710977501530744,0.0
4528188662.967,-13.42026635552623,0.0,-2.647314373011129,0.0
4528203662.9665,-13.432767179613098,0.0,-2.715188763722591,0.0
4528218662.966,-13.424303584334794,0.0,-2.7062136662336993,0.0
4528233662.9655,-13.428807977383572,0.0,-2.7384475351011988,0.0
4528248662.965,-13.430012037183355,0.0,-2.7079278729518097,0.0
4528263662.9645,-13.422940891274667,0.0,-2.7264563067750256,0.0
4528278662.964,-13.434926364131112,0.0,-2.7006950478249956,0.0
4528293662.9635,-13.43089139316614,0.0,-2.7236748362501846,0.0
4528308662.963,-13.42185690410763,0.0,-2.693531502952077,0.0
4528323662.9625,-13.427166269754752,0.0,-2.668996370975453,0.0
4528338662.962,-13.435745808203574,0.0,-2.73443404493939,0.0
4528353662.9615,-13.421768919286386,0.0,-2.7017036919509216,0.0
4528368662.961,-13.4410428739193,0.0,-2.700976275028919,0.0
4528383662.9605,-13.429524693210118,0.0,-2.7441290574799004,0.0
4528398662.96,-13.426460022593016,0.0,-2.6945265113746766,0.0
4528413662.9595,-13.426330178544365,0.0,-2.722722752928285,0.0
4528428662.959,-13.427314005852587,0.0,-2.6798274126829638,0.0
4528443662.9585,-13.42461101553475,0.0,-2.695942329817594,0.0
4528458662.958,-13.423828500721458,0.0,-2.7050388393165274,0.0
4528473662.9575,-13.426145627972517,0.0,-2.75222048776105,0.0
4528488662.957,-13.432559527059944,0.0,-2.657165677098841,0.0
4528503662.9565,-13.427548038129228,0.0,-2.7405481802882057,0.0
4528518662.956,-13.430314416559142,0.0,-2.7268905258821836,0.0
4528533662.9555,-13.425362515054722,0.0,-2.7075619186527398,0.0
4528548662.955,-13.431437822242117,0.0,-2.751410737362748,0.0
4528563662.9545,-13.441921960660135,0.0,-2.748529422446978,0.0
4528578662.954,-13.42555050607982,0.0,-2.770124031340715,0.0
4528593662.9535,-13.434107163954865,0.0,-2.7934581565945615,0.0
4528608662.953,-13.436895348071761,0.0,-2.7475051580450227,0.0
4528623662.9525,-13.428386280932298,0.0,-2.7626414598602973,0.0
4528638662.952,-13.425511910059845,0.0,-2.8040359814486977,0.0
4528653662.9515,-13.424490108130847,0.0,-2.70183860882145,0.0
4528668662.951,-13.432301378924542,0.0,-2.7643245848955744,0.0
4528683662.9505,-13.430320705855632,0.0,-2.768323111852926,0.0
4528698662.95,-13.433765583569489,0.0,-2.8350076380581464,0.0
4528713662.9495,-13.428422265219764,0.0,-2.7060155136833224,0.0
4528728662.949,-13.42692538489895,0.0,-2.8063258066591334,0.0
4528743662.9485,-13.427867599494597,0.0,-2.7591667287244537,0.0
4528758662.948,-13.429426359177715,0.0,-2.790814343942623,0.0
4528773662.9475,-13.437118469965261,0.0,-2.7818278062430464,0.0
4528788662.947,-13.432558333008892,0.0,-2.768574927291042,0.0
4528803662.9465,-13.42755457126119,0.0,-2.735755065757634,0.0
4528818662.946,-13.425155186303373,0.0,-2.74690604028746,0.0
4528833662.9455,-13.432844447280878,0.0,-2.8079664956596275,0.0
4528848662.945,-13.43260640001959,0.0,-2.7437255212533236,0.0
4528863662.9445,-13.420541845635793,0.0,-2.8367311691887043,0.0
4528878662.944,-13.426293648464465,0.0,-2.781009387834571,0.0
4528893662.9435,-13.433188771223803,0.0,-2.7813393472834056,0.0
4528908662.943,-13.427492995799458,0.0,-2.769712393940741,0.0
4528923662.9425,-13.4303793462915,0.0,-2.792658745526582,0.0
4528938662.942,-13.42921187484776,0.0,-2.8119959745018006,0.0
4528953662.9415,-13.422119202564431,0.0,-2.857436453776613,0.0
4528968662.941,-13.438150368008973,0.0,-2.771788943440032,0.0
4528983662.9405,-13.431044643781327,0.0,-2.808375187855698,0.0
4528998662.94,-13.433619581507026,0.0,-2.8275240830328587,0.0
4529013662.9395,-13.438249314664002,0.0,-2.819682875306272,0.0
4529028662.939,-13.424612047574382,0.0,-2.8515857100402053,0.0
4529043662.9385,-13.435416211234504,0.0,-2.831995161209199,0.0
4529058662.938,-13.427672597244186,0.0,-2.840112550042961,0.0
4529073662.9375,-13.430313556248649,0.0,-2.8490886426888866,0.0
4529088662.937,-13.430339844748033,0.0,-2.8214469383549057,0.0
4529103662.9365,-13.427109337739878,0.0,-2.867138814004445,0.0
4529118662.936,-13.431406094922904,0.0,-2.840368956987042,0.0
4529133662.9355,-13.4289126388249,0.0,-2.8325582441645,0.0
4529148662.935,-13.433852353075043,0.0,-2.8464883722798535,0.0
4529163662.9345,-13.433029457561735,0.0,-2.829973518236179,0.0
4529178662.934,-13.432605360772245,0.0,-2.8413697257111834,0.0
4529193662.9335,-13.428987235706515,0.0,-2.8601080675131922,0.0
4529208662.933,-13.434938900718183,0.0,-2.90939446708843,0.0
4529223662.9325,-13.435041014955678,0.0,-2.84960662926585,0.0
4529238662.932,-13.429203646929004,0.0,-2.833142702740259,0.0
4529253662.9315,-13.436084034051191,0.0,-2.875367793202107,0.0
4529268662.931,-13.428352840582585,0.0,-2.8577745174747955,0.0
4529283662.9305,-13.428159285679875,0.0,-2.845107376363392,0.0
4529298662.93,-13.42352616127145,0.0,-2.921399332967927,0.0
4529313662.9295,-13.435628099855887,0.0,-2.8689409406780797,0.0
4529328662.929,-13.43055728580794,0.0,-2.8647555991395905,0.0
4529343662.9285,-13.433394675731336,0.0,-2.8585464989275056,0.0
4529358662.928,-13.430384463814754,0.0,-2.9177217443712156,0.0
4529373662.9275,-13.432162148327754,0.0,-2.912676798911257,0.0
4529388662.927,-13.435529283933306,0.0,-2.8770087098185675,0.0
4529403662.9265,-13.438591730041411,0.0,-2.87680150890705,0.0
4529418662.926,-13.426886302992022,0.0,-2.8599710926845088,0.0
4529433662.9255,-13.439416347789932,0.0,-2.847524476402115,0.0
4529448662.925,-13.434460226487845,0.0,-2.9151364290766355,0.0
4529463662.9245,-13.432581248144036,0.0,-2.90902130210736,0.0
4529478662.924,-13.432057092008794,0.0,-2.869632444172845,0.0
4529493662.9235,-13.42822124559566,0.0,-2.9138351283055033,0.0
4529508662.923,-13.426873391092006,0.0,-2.8858762735441763,0.0
4529523662.9225,-13.436043685811896,0.0,-2.894317089173516,0.0
4529538662.922,-13.432298124259745,0.0,-2.9812445479573637,0.0
4529553662.9215,-13.430840820282322,0.0,-2.874219178049044,0.0
4529568662.921,-13.4333511859639,0.0,-2.928706617672132,0.0
4529583662.9205,-13.429322831336417,0.0,-2.9564079584265603,0.0
4529598662.92,-13.443751495372258,0.0,-2.924312031420963,0.0
4529613662.9195,-13.433464354840833,0.0,-2.925399205485929,0.0
4529628662.919,-13.432539736024292,0.0,-2.9018340561802662,0.0
4529643662.9185,-13.432520185978552,0.0,-2.9369521611116354,0.0
4529658662.918,-13.427855782935898,0.0,-2.9632737978162744,0.0
4529673662.9175,-13.432857309509599,0.0,-2.9049632968801915,0.0
4529688662.917,-13.4377542404848,0.0,-2.9995545043096725,0.0
4529703662.9165,-13.428260634649734,0.0,-2.9992901595935804,0.0
4529718662.916,-13.433279093477331,0.0,-2.959241900734065,0.0
4529733662.9155,-13.42638519448063,0.0,-3.0023637730046726,0.0
4529748662.915,-13.42952990690387,0.0,-2.9794977909823124,0.0
4529763662.9145,-13.435166513564592,0.0,-2.9860899607911064,0.0
4529778662.914,-13.427845463134746,0.0,-2.983656841644293,0.0
4529793662.9135,-13.428845504452948,0.0,-2.948074117792862,0.0
4529808662.913,-13.43642415779177,0.0,-2.993207460931008,0.0
4529823662.9125,-13.431873148490299,0.0,-2.976083936114483,0.0
4529838662.912,-13.43313054848524,0.0,-2.9631219304955008,0.0
4529853662.9115,-13.433741211470565,0.0,-3.034718614876811,0.0
4529868662.911,-13.436589776346985,0.0,-2.9824750198226906,0.0
4529883662.9105,-13.436995250529693,0.0,-2.9851156790021376,0.0
4529898662.91,-13.434813895113319,0.0,-3.0363967293431764,0.0
4529913662.9095,-13.428555761891008,0.0,-3.0209134135063724,0.0
4529928662.909,-13.43413382808512,0.0,-3.004731534852809,0.0
4529943662.9085,-13.432322058076661,0.0,-3.001019053791291,0.0
4529958662.908,-13.443648704364444,0.0,-2.96862539865862,0.0
4529973662.9075,-13.434972437489394,0.0,-3.000294129142738,0.0
4529988662.907,-13.434792797948534,0.0,-3.024390875915689,0.0
4530003662.9065,-13.432549796847944,0.0,-2.9935903331701192,0.0
4530018662.906,-13.43067848174918,0.0,-3.0426720273602865,0.0
4530033662.9055,-13.430579010363067,0.0,-3.0365196269979364,0.0
4530048662.905,-13.437177213344693,0.0,-3.057116270108069,0.0
4530063662.9045,-13.430950296982571,0.0,-3.0427600878051977,0.0
4530078662.904,-13.436744199384435,0.0,-3.0298377685594833,0.0
4530093662.9035,-13.438240454871082,0.0,-2.950293547016395,0.0
4530108662.903,-13.427782060638183,0.0,-3.01960838970586,0.0
4530123662.9025,-13.419853559917854,0.0,-3.0253734066688254,0.0
4530138662.902,-13.43680912047202,0.0,-2.9822097555716933,0.0
4530153662.9015,-13.432076407957535,0.0,-3.0742040024847745,0.0
4530168662.901,-13.43927106193946,0.0,-3.0231755379500576,0.0
4530183662.9005,-13.431028638000988,0.0,-3.0593978284522754,0.0
4530198662.9,-13.431159639518222,0.0,-3.0539937902770555,0.0
4530213662.8995,-13.444653183477499,0.0,-3.0889278682274646,0.0
4530228662.899,-13.435616926893639,0.0,-3.1393192043630758,0.0
4530243662.8985,-13.435044196332031,0.0,-3.085974786902852,0.0
4530258662.898,-13.438723521097968,0.0,-3.097990886995414,0.0
4530273662.8975,-13.431692476582505,0.0,-3.0579543458328375,0.0
4530288662.897,-13.4276963606768,0.0,-3.1163157565231003,0.0
4530303662.8965,-13.430841781806977,0.0,-3.13869478891758,0.0
4530318662.896,-13.428193750538021,0.0,-3.0989572611842795,0.0
4530333662.8955,-13.442314353958313,0.0,-3.0428664659449054,0.0
4530348662.895,-13.437811509880273,0.0,-3.14737218432189,0.0
4530363662.8945,-13.43522873535455,0.0,-3.100424887098231,0.0
4530378662.894,-13.431889344536295,0.0,-3.1153492688938926,0.0
4530393662.8935,-13.440065953991354,0.0,-3.1011349237053336,0.0
4530408662.893,-13.434524384639229,0.0,-3.145098828519176,0.0
4530423662.8925,-13.425064467151923,0.0,-3.1123583614358354,0.0
4530438662.892,-13.429940250874047,0.0,-3.0857330599670862,0.0
4530453662.8915,-13.437267060498183,0.0,-3.1432279147936923,0.0
4530468662.891,-13.435872411427503,0.0,-3.09619650703982,0.0
4530483662.8905,-13.434487540206927,0.0,-3.05986683313532,0.0
4530498662.89,-13.432873396436989,0.0,-3.119907809691706,0.0
4530513662.8895,-13.437915796508422,0.0,-3.07552828608101,0.0
4530528662.889,-13.436065180956016,0.0,-3.1044604739364994,0.0
4530543662.8885,-13.432978825545877,0.0,-3.1874284230773426,0.0
4530558662.888,-13.43467183554907,0.0,-3.178141623651075,0.0
4530573662.8875,-13.436278875086957,0.0,-3.104525811254499,0.0
4530588662.887,-13.431606033923519,0.0,-3.138972605081224,0.0
4530603662.8865,-13.435232141359146,0.0,-3.1794184488589456,0.0
4530618662.886,-13.442016452677299,0.0,-3.0733146127172257,0.0
4530633662.8855,-13.444552709155474,0.0,-3.1345982951747122,0.0
4530648662.885,-13.445970013054305,0.0,-3.1797431865885195,0.0
4530663662.8845,-13.438865578522526,0.0,-3.177378875539265,0.0
4530678662.884,-13.434029789153781,0.0,-3.113078759871967,0.0
4530693662.8835,-13.430978079529964,0.0,-3.154682595121239,0.0
4530708662.883,-13.43015852709868,0.0,-3.2023104911935003,0.0
4530723662.8825,-13.433969325002149,0.0,-3.2065020128710344,0.0
4530738662.882,-13.434379736289927,0.0,-3.1538366560025035,0.0
4530753662.8815,-13.44432727173688,0.0,-3.17375450544433,0.0
4530768662.881,-13.436228809539468,0.0,-3.2147941037557226,0.0
4530783662.8805,-13.436406205322351,0.0,-3.196903178886116,0.0
4530798662.88,-13.439503600847072,0.0,-3.204244876786309,0.0
4530813662.8795,-13.432183874279604,0.0,-3.186631395229103,0.0
4530828662.879,-13.440481233614296,0.0,-3.208067689096556,0.0
4530843662.8785,-13.42954266398259,0.0,-3.242585004461874,0.0
4530858662.878,-13.438861129465842,0.0,-3.150161798233021,0.0
4530873662.8775,-13.44193049427294,0.0,-3.2642982999133614,0.0
4530888662.877,-13.441394507289932,0.0,-3.200677021121506,0.0
4530903662.8765,-13.440344542864427,0.0,-3.2386928639020094,0.0
4530918662.876,-13.429890758845811,0.0,-3.232868779687775,0.0
4530933662.8755,-13.446179223905814,0.0,-3.227937550098877,0.0
4530948662.875,-13.437299740722516,0.0,-3.291816214642092,0.0
4530963662.8745,-13.437424419758893,0.0,-3.259720428099506,0.0
4530978662.874,-13.439160516278294,0.0,-3.2942130371047966,0.0
4530993662.8735,-13.435043941011939,0.0,-3.1935877601768143,0.0
4531008662.873,-13.43897797593926,0.0,-3.2297787651063086,0.0
4531023662.8725,-13.447304949469558,0.0,-3.2040107593600835,0.0
4531038662.872,-13.434577576773432,0.0,-3.254427729946484,0.0
4531053662.8715,-13.448854632343616,0.0,-3.293728913283528,0.0
4531068662.871,-13.436792977711844,0.0,-3.2434214520165567,0.0
4531083662.8705,-13.438499420452622,0.0,-3.2663610420947164,0.0
4531098662.87,-13.432054270411635,0.0,-3.300585497763001,0.0
4531113662.8695,-13.434578947125694,0.0,-3.2765105937206047,0.0
4531128662.869,-13.442983591527899,0.0,-3.289336227048555,0.0
4531143662.8685,-13.433064788017205,0.0,-3.23303369734345,0.0
4531158662.868,-13.441911339856087,0.0,-3.2557501660835673,0.0
4531173662.8675,-13.444661706186182,0.0,-3.315636338439207,0.0
4531188662.867,-13.45057989890433,0.0,-3.223523869879002,0.0
4531203662.8665,-13.444172203580326,0.0,-3.25839997918103,0.0
4531218662.866,-13.430343956244874,0.0,-3.2381141095442585,0.0
4531233662.8655,-13.435476562982585,0.0,-3.31206497748363,0.0
4531248662.865,-13.448423502765916,0.0,-3.306135187357722,0.0
4531263662.8645,-13.434206969209605,0.0,-3.319739021078495,0.0
4531278662.864,-13.442782073053541,0.0,-3.3521067009712757,0.0
4531293662.8635,-13.436488310358904,0.0,-3.3408905180952027,0.0
4531308662.863,-13.43795462642163,0.0,-3.330380913474322,0.0
4531323662.8625,-13.438773779151688,0.0,-3.3687008272578858,0.0
4531338662.862,-13.442009665189893,0.0,-3.3378021306552843,0.0
4531353662.8615,-13.4434548842578,0.0,-3.3185517035665995,0.0
4531368662.861,-13.436031932885914,0.0,-3.333462485706689,0.0
4531383662.8605,-13.440255920841263,0.0,-3.3567990856245546,0.0
4531398662.86,-13.438427929289425,0.0,-3.3467922887869657,0.0
4531413662.8595,-13.431237958358832,0.0,-3.316332301559172,0.0
4531428662.859,-13.4325325036981,0.0,-3.3507985638571847,0.0
4531443662.8585,-13.435314439405664,0.0,-3.3197207296763005,0.0
4531458662.858,-13.43965816603302,0.0,-3.4173612023750257,0.0
4531473662.8575,-13.429716024579983,0.0,-3.3522161465302105,0.0
4531488662.857,-13.43338864259314,0.0,-3.4239535040438995,0.0
4531503662.8565,-13.436435987268013,0.0,-3.3277933556679073,0.0
4531518662.856,-13.437667075210086,0.0,-3.4045927513058425,0.0
4531533662.8555,-13.447087822415874,0.0,-3.3908205093618613,0.0
4531548662.855,-13.443348213140778,0.0,-3.394828035192892,0.0
4531563662.8545,-13.434959035760842,0.0,-3.362803026976299,0.0
4531578662.854,-13.44344546866074,0.0,-3.3838686428642974,0.0
4531593662.8535,-13.42496389819634,0.0,-3.410313899093273,0.0
4531608662.853,-13.447174615265709,0.0,-3.3722468891030175,0.0
4531623662.8525,-13.439082300360097,0.0,-3.3915687274830946,0.0
4531638662.852,-13.445338539602789,0.0,-3.407013291417247,0.0
4531653662.8515,-13.44157523083475,0.0,-3.399367763866828,0.0
4531668662.851,-13.449135417669268,0.0,-3.454631854054287,0.0
4531683662.8505,-13.430310732746921,0.0,-3.437189312333582,0.0
4531698662.85,-13.44383122238276,0.0,-3.4719946736968756,0.0
4531713662.8495,-13.450619637985026,0.0,-3.500868074593884,0.0
4531728662.849,-13.447556953065549,0.0,-3.5384975316721445,0.0
4531743662.8485,-13.442031277040858,0.0,-3.471987209374173,0.0
4531758662.848,-13.441002580113473,0.0,-3.4656802738395016,0.0
4531773662.8475,-13.442147489545606,0.0,-3.4482377742296206,0.0
4531788662.847,-13.432668869444162,0.0,-3.4334530380022743,0.0
4531803662.8465,-13.43915120124972,0.0,-3.421183752271247,0.0
4531818662.846,-13.435426724964818,0.0,-3.4683323677506146,0.0
4531833662.8455,-13.441974346805655,0.0,-3.386802454743543,0.0
4531848662.845,-13.441072339259312,0.0,-3.471713172660525,0.0
4531863662.8445,-13.430166246541436,0.0,-3.4771731890477935,0.0
4531878662.844,-13.43770764953314,0.0,-3.4894264665639376,0.0
