Frequency,S11,S11-Q,S11-Phase,S11-Phase-Q
4527198663.0,-13.495608518444575,0.0,-3.007176551434193,0.0
4527213662.9995,-13.494200473379223,0.0,-3.0794412796159625,0.0
4527228662.999,-13.494165169496403,0.0,-3.0765029795575,0.0
4527243662.9985,-13.492330566883712,0.0,-3.0461759841874816,0.0
4527258662.998,-13.493373533738609,0.0,-3.0494360613905735,0.0
4527273662.9975,-13.494882588293837,0.0,-2.9901090136139405,0.0
4527288662.997,-13.495982063313846,0.0,-3.0040712697885166,0.0
4527303662.9965,-13.487390961689393,0.0,-3.0669235841919407,0.0
4527318662.996,-13.495740935688312,0.0,-2.9978901437873033,0.0
4527333662.9955,-13.490213446544816,0.0,-3.1357025010371915,0.0
4527348662.995,-13.49751351807804,0.0,-3.0506192526924076,0.0
4527363662.9945,-13.500877444147324,0.0,-3.0862521908485037,0.0
4527378662.994,-13.49565224261416,0.0,-3.0956719216867654,0.0
4527393662.9935,-13.49997754020724,0.0,-3.142237477604191,0.0
4527408662.993,-13.490940162559406,0.0,-3.071005501533914,0.0
4527423662.9925,-13.496097904477208,0.0,-3.1081794101843307,0.0
4527438662.992,-13.503418677332736,0.0,-3.0607988973361113,0.0
4527453662.9915,-13.498626712738544,0.0,-3.0806144490897287,0.0
4527468662.991,-13.505124410576837,0.0,-3.1291031037905204,0.0
4527483662.9905,-13.506668930521979,0.0,-3.0972940352948646,0.0
4527498662.99,-13.493392796071186,0.0,-3.1395244736890264,0.0
4527513662.9895,-13.497322302770945,0.0,-3.1073180752972482,0.0
4527528662.989,-13.508215450897637,0.0,-3.1537730492296676,0.0
4527543662.9885,-13.49735278898895,0.0,-3.0725953198421747,0.0
4527558662.988,-13.500008030761192,0.0,-3.0982308037773643,0.0
4527573662.9875,-13.51165751925529,0.0,-3.111881279573191,0.0
4527588662.987,-13.50802527802166,0.0,-3.1048446714529403,0.0
4527603662.9865,-13.508819668436946,0.0,-3.0917352772978233,0.0
4527618662.986,-13.503765232441138,0.0,-3.1009199778307224,0.0
4527633662.9855,-13.504245225425898,0.0,-3.161912746850482,0.0
4527648662.985,-13.500448540053254,0.0,-3.0755835330594743,0.0
4527663662.9845,-13.514400434637352,0.0,-3.1117951712350718,0.0
4527678662.984,-13.512287025884262,0.0,-3.109610237109614,0.0
4527693662.9835,-13.505180132640664,0.0,-3.1358985667350066,0.0
4527708662.983,-13.513651153358136,0.0,-3.142781293794018,0.0
4527723662.9825,-13.517361212634569,0.0,-3.1598816312721767,0.0
4527738662.982,-13.509613376499923,0.0,-3.177606948058433,0.0
4527753662.9815,-13.508559593642403,0.0,-3.1562926478318287,0.0
4527768662.981,-13.509779804857523,0.0,-3.2020439626185166,0.0
4527783662.9805,-13.513552261835791,0.0,-3.208814904480361,0.0
4527798662.98,-13.517607526386051,0.0,-3.124674850366678,0.0
4527813662.9795,-13.523413990835342,0.0,-3.1742545153897224,0.0
4527828662.979,-13.523496316737663,0.0,-3.1995556748391136,0.0
4527843662.9785,-13.516012069505738,0.0,-3.241162216052623,0.0
4527858662.978,-13.509006923068887,0.0,-3.2403421820072156,0.0
4527873662.9775,-13.515846175530363,0.0,-3.1820512050588636,0.0
4527888662.977,-13.518999310324682,0.0,-3.1391445710438775,0.0
4527903662.9765,-13.513947393018576,0.0,-3.1927649284972275,0.0
4527918662.976,-13.517409516468096,0.0,-3.2362508761098634,0.0
4527933662.9755,-13.522011823585117,0.0,-3.1939530642162866,0.0
4527948662.975,-13.52872184573636,0.0,-3.216735926631768,0.0
4527963662.9745,-13.528010809800096,0.0,-3.1590840034622993,0.0
4527978662.974,-13.519146812100418,0.0,-3.212834459541562,0.0
4527993662.9735,-13.524339072709584,0.0,-3.2218255105523217,0.0
4528008662.973,-13.526755458147859,0.0,-3.2302869544200874,0.0
4528023662.9725,-13.523639860423728,0.0,-3.2849814371417088,0.0
4528038662.972,-13.52949246710785,0.0,-3.265485904519335,0.0
4528053662.9715,-13.524521683003105,0.0,-3.1809630854745095,0.0
4528068662.971,-13.535807414576851,0.0,-3.255974567501709,0.0
4528083662.9705,-13.52264657854234,0.0,-3.1811210011131617,0.0
4528098662.97,-13.524412963166906,0.0,-3.31476948026584,0.0
4528113662.9695,-13.527567778385674,0.0,-3.1965918686856853,0.0
4528128662.969,-13.528217454342782,0.0,-3.2483479584846426,0.0
4528143662.9685,-13.533472017342092,0.0,-3.2760586625486376,0.0
4528158662.968,-13.535252738018613,0.0,-3.2730417954701205,0.0
4528173662.9675,-13.522686611336454,0.0,-3.2028264964360313,0.0
4528188662.967,-13.533801038737954,0.0,-3.263917892178107,0.0
4528203662.9665,-13.535434165270036,0.0,-3.278578752476183,0.0
4528218662.966,-13.53838524853944,0.0,-3.225297481115153,0.0
4528233662.9655,-13.532700221482855,0.0,-3.303319063355073,0.0
4528248662.965,-13.536421485595866,0.0,-3.3064806738456363,0.0
4528263662.9645,-13.53246079717238,0.0,-3.295803730065709,0.0
4528278662.964,-13.535080521923211,0.0,-3.2925514227820014,0.0
4528293662.9635,-13.53729704674975,0.0,-3.3094932697584003,0.0
4528308662.963,-13.540800585422028,0.0,-3.2587458915465906,0.0
4528323662.9625,-13.541672426095332,0.0,-3.285939657193635,0.0
4528338662.962,-13.550785208924722,0.0,-3.275960268559958,0.0
4528353662.9615,-13.534691462919762,0.0,-3.242998053038787,0.0
4528368662.961,-13.546372536535426,0.0,-3.2951858008202346,0.0
4528383662.9605,-13.54631041673996,0.0,-3.3120889664556143,0.0
4528398662.96,-13.543247663934327,0.0,-3.326560961476204,0.0
4528413662.9595,-13.549478312702144,0.0,-3.3414270493017004,0.0
4528428662.959,-13.542192961972994,0.0,-3.2871441508515113,0.0
4528443662.9585,-13.53534107225891,0.0,-3.349162970573076,0.0
4528458662.958,-13.54976793418896,0.0,-3.27636661358632,0.0
4528473662.9575,-13.541690460604837,0.0,-3.312702666191405,0.0
4528488662.957,-13.548063306977074,0.0,-3.298055364151793,0.0
4528503662.9565,-13.548479223305428,0.0,-3.309970802412485,0.0
4528518662.956,-13.5541954624309,0.0,-3.357678414068824,0.0
4528533662.9555,-13.551660105351967,0.0,-3.3985148859122187,0.0
4528548662.955,-13.552489864419556,0.0,-3.365438175721391,0.0
4528563662.9545,-13.556670879858661,0.0,-3.3159470549590466,0.0
4528578662.954,-13.558316158676025,0.0,-3.3495307769385323,0.0
4528593662.9535,-13.552198233950474,0.0,-3.316073605080055,0.0
4528608662.953,-13.553570949477574,0.0,-3.283996597973301,0.0
4528623662.9525,-13.556342647547208,0.0,-3.3640289887755643,0.0
4528638662.952,-13.54987807168666,0.0,-3.3621498702576695,0.0
4528653662.9515,-13.5581392531315,0.0,-3.3522060010776875,0.0
4528668662.951,-13.552856477362862,0.0,-3.3920797417393316,0.0
4528683662.9505,-13.560601787397708,0.0,-3.424293274517289,0.0
4528698662.95,-13.556000573918014,0.0,-3.3410368730323663,0.0
4528713662.9495,-13.563395247481061,0.0,-3.318405526324382,0.0
4528728662.949,-13.562743090814802,0.0,-3.3766374835285453,0.0
4528743662.9485,-13.562004154270221,0.0,-3.403583415244377,0.0
4528758662.948,-13.556352030701934,0.0,-3.3302041894059293,0.0
4528773662.9475,-13.563028275679086,0.0,-3.289379574338778,0.0
4528788662.947,-13.570439488612207,0.0,-3.4402438011645824,0.0
4528803662.9465,-13.561453780579612,0.0,-3.4002144956724765,0.0
4528818662.946,-13.567398118790772,0.0,-3.39536955910892,0.0
4528833662.9455,-13.56634458961165,0.0,-3.36163372592695,0.0
4528848662.945,-13.5700473187035,0.0,-3.3862113373977816,0.0
4528863662.9445,-13.562807335984905,0.0,-3.4116331640118465,0.0
4528878662.944,-13.57642019025092,0.0,-3.3679646230227935,0.0
4528893662.9435,-13.573093501879468,0.0,-3.3713960609499236,0.0
4528908662.943,-13.579448297500136,0.0,-3.3615159878973255,0.0
4528923662.9425,-13.56545586511677,0.0,-3.354459100169407,0.0
4528938662.942,-13.573860060393397,0.0,-3.424026622553595,0.0
4528953662.9415,-13.575417135470069,0.0,-3.4369529528048512,0.0
4528968662.941,-13.581025308973938,0.0,-3.3834803189456335,0.0
4528983662.9405,-13.568530854543287,0.0,-3.3971473923119366,0.0
4528998662.94,-13.572266079349227,0.0,-3.442899036441235,0.0
4529013662.9395,-13.582032624770118,0.0,-3.4460649905127734,0.0
4529028662.939,-13.597557051628225,0.0,-3.409154430910426,0.0
4529043662.9385,-13.580326689140865,0.0,-3.4220302551316606,0.0
4529058662.938,-13.57549979131101,0.0,-3.4209857852172028,0.0
4529073662.9375,-13.585586266741338,0.0,-3.3976076162457565,0.0
4529088662.937,-13.57603268212328,0.0,-3.376798522401485,0.0
4529103662.9365,-13.582719991983652,0.0,-3.4027608680097305,0.0
4529118662.936,-13.593126038927181,0.0,-3.368579701016251,0.0
4529133662.9355,-13.58673517532312,0.0,-3.4471929545204056,0.0
4529148662.935,-13.589416787930364,0.0,-3.4961997000252687,0.0
4529163662.9345,-13.59369035428382,0.0,-3.4112696364290747,0.0
4529178662.934,-13.592301508629062,0.0,-3.37496083005736,0.0
4529193662.9335,-13.598581202950758,0.0,-3.4310728531734993,0.0
4529208662.933,-13.591702840744775,0.0,-3.413714811659003,0.0
4529223662.9325,-13.58944816264473,0.0,-3.4216367446726452,0.0
4529238662.932,-13.596769716981072,0.0,-3.370765921777078,0.0
4529253662.9315,-13.59044517481676,0.0,-3.484229535184689,0.0
4529268662.931,-13.588659221965782,0.0,-3.476088171086879,0.0
4529283662.9305,-13.598738466589495,0.0,-3.386014061653922,0.0
4529298662.93,-13.603117839061333,0.0,-3.4577990598666535,0.0
4529313662.9295,-13.606105987632374,0.0,-3.464655358669301,0.0
4529328662.929,-13.609817591605156,0.0,-3.443648302875748,0.0
4529343662.9285,-13.600535243721591,0.0,-3.410834743618363,0.0
4529358662.928,-13.604647501285896,0.0,-3.4263991340188524,0.0
4529373662.9275,-13.612443800389018,0.0,-3.4117767152299554,0.0
4529388662.927,-13.603482452122197,0.0,-3.414337473387374,0.0
4529403662.9265,-13.61432982636986,0.0,-3.4133570955482817,0.0
4529418662.926,-13.608137160183551,0.0,-3.4137402923195457,0.0
4529433662.9255,-13.603608282511967,0.0,-3.4332420367069036,0.0
4529448662.925,-13.612405495124309,0.0,-3.4140583345316964,0.0
4529463662.9245,-13.61905255446532,0.0,-3.412407931009913,0.0
4529478662.924,-13.608171851940973,0.0,-3.428153381908027,0.0
4529493662.9235,-13.613058524083058,0.0,-3.429187690729412,0.0
4529508662.923,-13.618988931407806,0.0,-3.438113863815388,0.0
4529523662.9225,-13.610389036203843,0.0,-3.4047250415181414,0.0
4529538662.922,-13.620445971142628,0.0,-3.46702359601819,0.0
4529553662.9215,-13.62029565155776,0.0,-3.436620205115265,0.0
4529568662.921,-13.61220811783302,0.0,-3.4576383330054408,0.0
4529583662.9205,-13.622861810112127,0.0,-3.46225134105626,0.0
4529598662.92,-13.619504109616356,0.0,-3.4122047266350832,0.0
4529613662.9195,-13.629854765812235,0.0,-3.4106780974732915,0.0
4529628662.919,-13.621290074081882,0.0,-3.471645435635196,0.0
4529643662.9185,-13.624192756173542,0.0,-3.4714785677598714,0.0
4529658662.918,-13.62973515909625,0.0,-3.484429034217806,0.0
4529673662.9175,-13.628655385693103,0.0,-3.4514829808387315,0.0
4529688662.917,-13.634950946643507,0.0,-3.4916231893834175,0.0
4529703662.9165,-13.633455449040188,0.0,-3.474473768962605,0.0
4529718662.916,-13.625677868634083,0.0,-3.4516691159758643,0.0
4529733662.9155,-13.629562108503974,0.0,-3.518142359445409,0.0
4529748662.915,-13.627903872440827,0.0,-3.391249888198308,0.0
4529763662.9145,-13.632799496846964,0.0,-3.4572074900261263,0.0
4529778662.914,-13.640907839572911,0.0,-3.506447501881029,0.0
4529793662.9135,-13.630385361203176,0.0,-3.432908705312087,0.0
4529808662.913,-13.634794313398821,0.0,-3.4057001946765544,0.0
4529823662.9125,-13.64491014035898,0.0,-3.4348396663823793,0.0
4529838662.912,-13.638538775282568,0.0,-3.3730479210117696,0.0
4529853662.9115,-13.643219975152395,0.0,-3.4123980005609846,0.0
4529868662.911,-13.644138570528463,0.0,-3.462802842039728,0.0
4529883662.9105,-13.653144154659762,0.0,-3.436431936096375,0.0
4529898662.91,-13.640893244437143,0.0,-3.4406692054733115,0.0
4529913662.9095,-13.641801184387285,0.0,-3.4339483465677456,0.0
4529928662.909,-13.654807360871814,0.0,-3.4987231745814924,0.0
4529943662.9085,-13.658788121792053,0.0,-3.4126193911032794,0.0
4529958662.908,-13.644627220485756,0.0,-3.3941898221292064,0.0
4529973662.9075,-13.644717387829361,0.0,-3.4040314069378934,0.0
4529988662.907,-13.647146104904548,0.0,-3.466512739842638,0.0
4530003662.9065,-13.650899981387512,0.0,-3.394081846182012,0.0
4530018662.906,-13.653882652660183,0.0,-3.506467905796458,0.0
4530033662.9055,-13.66343537694629,0.0,-3.4424892518233134,0.0
4530048662.905,-13.659184713329271,0.0,-3.4585290624086715,0.0
4530063662.9045,-13.660014783095765,0.0,-3.5158541808620583,0.0
4530078662.904,-13.66618980535359,0.0,-3.3616948832705034,0.0
4530093662.9035,-13.664069710788418,0.0,-3.4360932929553525,0.0
4530108662.903,-13.67185373947999,0.0,-3.3977186772642707,0.0
4530123662.9025,-13.664220105156499,0.0,-3.406673794147396,0.0
4530138662.902,-13.671823230159193,0.0,-3.4215708074781563,0.0
4530153662.9015,-13.667644562873363,0.0,-3.363133552787741,0.0
4530168662.901,-13.658951985728907,0.0,-3.3745257728325453,0.0
4530183662.9005,-13.677266696925725,0.0,-3.446170383533692,0.0
4530198662.9,-13.678051699612787,0.0,-3.3114623172409723,0.0
4530213662.8995,-13.674714135775103,0.0,-3.403341202349547,0.0
4530228662.899,-13.671761019822217,0.0,-3.4455899322556838,0.0
4530243662.8985,-13.667688452180808,0.0,-3.4371718534396423,0.0
4530258662.898,-13.674424703560106,0.0,-3.4318300224305713,0.0
4530273662.8975,-13.673281556818255,0.0,-3.4383659458505087,0.0
4530288662.897,-13.674950498122598,0.0,-3.4247442659144465,0.0
4530303662.8965,-13.67578725756087,0.0,-3.38167855656757,0.0
4530318662.896,-13.67982688095138,0.0,-3.349280702980506,0.0
4530333662.8955,-13.677851144832115,0.0,-3.3740743713260968,0.0
4530348662.895,-13.686081566983987,0.0,-3.3742718141101067,0.0
4530363662.8945,-13.683529458841175,0.0,-3.3586351040838465,0.0
4530378662.894,-13.681503306427993,0.0,-3.359859686036695,0.0
4530393662.8935,-13.693397213090478,0.0,-3.299094059602009,0.0
4530408662.893,-13.686890858242517,0.0,-3.3349310376745334,0.0
4530423662.8925,-13.692919328582505,0.0,-3.3896916462737217,0.0
4530438662.892,-13.695748434459956,0.0,-3.4381626682827493,0.0
4530453662.8915,-13.693163899770246,0.0,-3.330166356074297,0.0
4530468662.891,-13.68850573183943,0.0,-3.323405583591593,0.0
4530483662.8905,-13.691148772042869,0.0,-3.3305793659624108,0.0
4530498662.89,-13.694801135253591,0.0,-3.343532554532643,0.0
4530513662.8895,-13.694207983772223,0.0,-3.3423264506293244,0.0
4530528662.889,-13.689301489952637,0.0,-3.3703213432196013,0.0
4530543662.8885,-13.691100936018064,0.0,-3.341126227950269,0.0
4530558662.888,-13.696722910155563,0.0,-3.2775959805350108,0.0
4530573662.8875,-13.694693958545585,0.0,-3.3290181337063456,0.0
4530588662.887,-13.68203074686969,0.0,-3.294954032909145,0.0
4530603662.8865,-13.69873575165597,0.0,-3.3135182232367892,0.0
4530618662.886,-13.691141976909268,0.0,-3.315748504720699,0.0
4530633662.8855,-13.694686162652916,0.0,-3.3415616096748066,0.0
4530648662.885,-13.689659708038459,0.0,-3.34433623752156,0.0
4530663662.8845,-13.704009086958415,0.0,-3.3269744412120756,0.0
4530678662.884,-13.70306820905148,0.0,-3.3284303352680062,0.0
4530693662.8835,-13.705463755220295,0.0,-3.323193558847199,0.0
4530708662.883,-13.71237801942045,0.0,-3.306811649218918,0.0
4530723662.8825,-13.707447994597528,0.0,-3.295035725312482,0.0
4530738662.882,-13.709860823254644,0.0,-3.302572454699678,0.0
4530753662.8815,-13.717811105243026,0.0,-3.2935291118751833,0.0
4530768662.881,-13.714236860991942,0.0,-3.2813830906917674,0.0
4530783662.8805,-13.725545341954057,0.0,-3.283447262749957,0.0
4530798662.88,-13.705455886809695,0.0,-3.2770290067334154,0.0
4530813662.8795,-13.718105369427596,0.0,-3.2860426532787566,0.0
4530828662.879,-13.716044605559714,0.0,-3.2244895386766563,0.0
4530843662.8785,-13.722399037359487,0.0,-3.276588892151719,0.0
4530858662.878,-13.716401170489176,0.0,-3.24828326211049,0.0
4530873662.8775,-13.721758745131506,0.0,-3.262443162068562,0.0
4530888662.877,-13.712064784253368,0.0,-3.246460578649132,0.0
4530903662.8765,-13.724595637186026,0.0,-3.199107827944826,0.0
4530918662.876,-13.72052860485843,0.0,-3.2408145666771278,0.0
4530933662.8755,-13.716070872565545,0.0,-3.2643872477567064,0.0
4530948662.875,-13.717877690888896,0.0,-3.2037250121660255,0.0
4530963662.8745,-13.726304506258503,0.0,-3.1575873869009534,0.0
4530978662.874,-13.717005344703452,0.0,-3.1846355549771883,0.0
4530993662.8735,-13.72423030204424,0.0,-3.165789440697617,0.0
4531008662.873,-13.722703380063958,0.0,-3.1811059506138952,0.0
4531023662.8725,-13.7284681384226,0.0,-3.1519770676953978,0.0
4531038662.872,-13.720103974464115,0.0,-3.1948997230248763,0.0
4531053662.8715,-13.726886357276824,0.0,-3.23296050809249,0.0
4531068662.871,-13.727710959587064,0.0,-3.099766872555361,0.0
4531083662.8705,-13.727464265137977,0.0,-3.16193353033424,0.0
4531098662.87,-13.740675956522807,0.0,-3.1487365105628853,0.0
4531113662.8695,-13.725313696423488,0.0,-3.12712714470075,0.0
4531128662.869,-13.742485274226832,0.0,-3.1547631069701976,0.0
4531143662.8685,-13.727094773122651,0.0,-3.2405179922895546,0.0
4531158662.868,-13.73244610183522,0.0,-3.2450954807101793,0.0
4531173662.8675,-13.726803226086016,0.0,-3.1462162846283857,0.0
4531188662.867,-13.733373797932764,0.0,-3.10164087393784,0.0
4531203662.8665,-13.724987438270372,0.0,-3.118775824667359,0.0
4531218662.866,-13.739853221135977,0.0,-3.1039394147587998,0.0
4531233662.8655,-13.739630949493941,0.0,-3.0847965817229683,0.0
4531248662.865,-13.735259320149638,0.0,-3.05850006002335,0.0
4531263662.8645,-13.736932629414948,0.0,-3.0149656196646806,0.0
4531278662.864,-13.735106582990062,0.0,-3.0961271137484103,0.0
4531293662.8635,-13.734103380084917,0.0,-3.038664061609573,0.0
4531308662.863,-13.732568267133159,0.0,-3.0516099050978105,0.0
4531323662.8625,-13.743308921083859,0.0,-3.0796306737107724,0.0
4531338662.862,-13.756772769087435,0.0,-3.07651769466928,0.0
4531353662.8615,-13.736620821064067,0.0,-3.0574818303357834,0.0
4531368662.861,-13.736997084880255,0.0,-3.0672578427815425,0.0
4531383662.8605,-13.744472830444312,0.0,-3.037197963631165,0.0
4531398662.86,-13.747426070551965,0.0,-3.028915310418902,0.0
4531413662.8595,-13.737301207512868,0.0,-2.973263630831691,0.0
4531428662.859,-13.747848268454302,0.0,-3.029270521435075,0.0
4531443662.8585,-13.74885017142323,0.0,-3.0622879893540977,0.0
4531458662.858,-13.748657998271218,0.0,-2.991597305749619,0.0
4531473662.8575,-13.748629023246032,0.0,-2.9967109418649804,0.0
4531488662.857,-13.747249960262094,0.0,-2.994333140114156,0.0
4531503662.8565,-13.762125702589355,0.0,-2.986587380968034,0.0
4531518662.856,-13.74372449098898,0.0,-3.0332579420495187,0.0
4531533662.8555,-13.741712624087612,0.0,-2.9754816515254836,0.0
4531548662.855,-13.748053605516704,0.0,-3.02571513191761,0.0
4531563662.8545,-13.742939181753824,0.0,-2.970801549086047,0.0
4531578662.854,-13.752828656804441,0.0,-2.9608811484057345,0.0
4531593662.8535,-13.74911886240538,0.0,-2.9578247327656553,0.0
4531608662.853,-13.748213280100945,0.0,-2.8901832869675697,0.0
4531623662.8525,-13.756244334659032,0.0,-2.9576581676495612,0.0
4531638662.852,-13.75129764274465,0.0,-2.8502805916363823,0.0
4531653662.8515,-13.75117091137245,0.0,-2.8664451598552714,0.0
4531668662.851,-13.748470707608767,0.0,-2.939023787589463,0.0
4531683662.8505,-13.739733324746183,0.0,-2.9902497010705473,0.0
4531698662.85,-13.748628716622006,0.0,-2.9590408306486187,0.0
4531713662.8495,-13.746289296661677,0.0,-2.933485467678762,0.0
4531728662.849,-13.756302356133423,0.0,-2.909129418719438,0.0
4531743662.8485,-13.750605300954824,0.0,-2.9468286688244425,0.0
4531758662.848,-13.752213172707162,0.0,-2.8523239170852372,0.0
4531773662.8475,-13.75406926941709,0.0,-2.865694193698449,0.0
4531788662.847,-13.74867726719549,0.0,-2.812174813959819,0.0
4531803662.8465,-13.7454134167231,0.0,-2.853033263810326,0.0
4531818662.846,-13.75684019013876,0.0,-2.8586496132523123,0.0
4531833662.8455,-13.748654040812955,0.0,-2.8131069038111356,0.0
4531848662.845,-13.757114127088466,0.0,-2.827459211348659,0.0
4531863662.8445,-13.761300401029377,0.0,-2.8804652005501494,0.0
