Frequency,S11,S11-Q,S11-Phase,S11-Phase-Q
4527198663.0,-13.43144924677768,0.0,-2.5030227073960756,0.0
4527213662.9995,-13.428121268189791,0.0,-2.5385575355196592,0.0
4527228662.999,-13.420385520705793,0.0,-2.5290822149589443,0.0
4527243662.9985,-13.42455420875137,0.0,-2.5243878388038614,0.0
4527258662.998,-13.425362268139423,0.0,-2.480334520261745,0.0
4527273662.9975,-13.429491128835984,0.0,-2.5231298756273013,0.0
4527288662.997,-13.424167618456362,0.0,-2.5517810485532033,0.0
4527303662.9965,-13.42404768927726,0.0,-2.5514965276682178,0.0
4527318662.996,-13.426339238405376,0.0,-2.5707877342803838,0.0
4527333662.9955,-13.429707138840524,0.0,-2.612573659702128,0.0
4527348662.995,-13.430596925086007,0.0,-2.5443033809705136,0.0
4527363662.9945,-13.421517410622595,0.0,-2.556294693612919,0.0
4527378662.994,-13.42801898521073,0.0,-2.5445942306772484,0.0
4527393662.9935,-13.42540286647069,0.0,-2.487983843094707,0.0
4527408662.993,-13.43205575399133,0.0,-2.5963895562831367,0.0
4527423662.9925,-13.421714043993392,0.0,-2.572416361837053,0.0
4527438662.992,-13.427957906324755,0.0,-2.514699595122391,0.0
4527453662.9915,-13.437544397152152,0.0,-2.5302236286083484,0.0
4527468662.991,-13.432389757416491,0.0,-2.572831415554065,0.0
4527483662.9905,-13.431262138566911,0.0,-2.5947017529424623,0.0
4527498662.99,-13.434344967076115,0.0,-2.545699957776816,0.0
4527513662.9895,-13.426264791124662,0.0,-2.550535105764132,0.0
4527528662.989,-13.425694376920099,0.0,-2.5615257448304622,0.0
4527543662.9885,-13.431990245556193,0.0,-2.6134400261008173,0.0
4527558662.988,-13.432851379306477,0.0,-2.570813384000956,0.0
4527573662.9875,-13.43437196710363,0.0,-2.5299478108671853,0.0
4527588662.987,-13.425599661680568,0.0,-2.6113228395724897,0.0
4527603662.9865,-13.421441611634402,0.0,-2.5656716933808768,0.0
4527618662.986,-13.422663711357316,0.0,-2.589674758129518,0.0
4527633662.9855,-13.415950702224412,0.0,-2.560682047476428,0.0
4527648662.985,-13.425407602390349,0.0,-2.558137230464838,0.0
4527663662.9845,-13.42297466954048,0.0,-2.556456596041389,0.0
4527678662.984,-13.420182035213994,0.0,-2.54385852777865,0.0
4527693662.9835,-13.427186912910688,0.0,-2.617924217336116,0.0
4527708662.983,-13.42844660812694,0.0,-2.621207185946518,0.0
4527723662.9825,-13.42870544900858,0.0,-2.6178475787734143,0.0
4527738662.982,-13.427093851000924,0.0,-2.6506296201340303,0.0
4527753662.9815,-13.422802126649236,0.0,-2.5793207239139555,0.0
4527768662.981,-13.43031184908854,0.0,-2.6386507511871167,0.0
4527783662.9805,-13.41975214073104,0.0,-2.6001662593278065,0.0
4527798662.98,-13.425023380892753,0.0,-2.6210856939567226,0.0
4527813662.9795,-13.430693768106785,0.0,-2.7128013473447847,0.0
4527828662.979,-13.423356554445691,0.0,-2.608194764843496,0.0
4527843662.9785,-13.435776055203787,0.0,-2.5772984356042454,0.0
4527858662.978,-13.430629726494633,0.0,-2.676572264448886,0.0
4527873662.9775,-13.434167767843237,0.0,-2.6245849054847654,0.0
4527888662.977,-13.43061213703336,0.0,-2.629547717454326,0.0
4527903662.9765,-13.431541452580786,0.0,-2.6124383908944777,0.0
4527918662.976,-13.424883287258504,0.0,-2.5683241447597536,0.0
4527933662.9755,-13.433664808450374,0.0,-2.6474953966828845,0.0
4527948662.975,-13.430228808703646,0.0,-2.60525083903349,0.0
4527963662.9745,-13.417692233301048,0.0,-2.63574672034272,0.0
4527978662.974,-13.427437858887323,0.0,-2.668882359663372,0.0
4527993662.9735,-13.428482793312845,0.0,-2.6284536577662965,0.0
4528008662.973,-13.428044666581131,0.0,-2.6268679612522456,0.0
4528023662.9725,-13.43396018148217,0.0,-2.640613911410375,0.0
4528038662.972,-13.428831678270953,0.0,-2.610693364690318,0.0
4528053662.9715,-13.43486139577674,0.0,-2.6679973924869493,0.0
4528068662.971,-13.435778408814006,0.0,-2.6414860493970442,0.0
4528083662.9705,-13.425149782772634,0.0,-2.576164149054481,0.0
4528098662.97,-13.425455184716713,0.0,-2.6122139819481642,0.0
4528113662.9695,-13.426344953064737,0.0,-2.6636062288275424,0.0
4528128662.969,-13.429880854138556,0.0,-2.592249137451178,0.0
4528143662.9685,-13.429632261133499,0.0,-2.6640812145587818,0.0
4528158662.968,-13.421107927703655,0.0,-2.6625312192402992,0.0
4528173662.9675,-13.433125180219953,0.0,-2.6838487746283213,0.0
4528188662.967,-13.427488835679615,0.0,-2.6326986703550923,0.0
4528203662.9665,-13.429714171189993,0.0,-2.664758985656055,0.0
4528218662.966,-13.432544257752122,0.0,-2.678661950420017,0.0
4528233662.9655,-13.42896752630218,0.0,-2.6271003028085644,0.0
4528248662.965,-13.429731997678402,0.0,-2.6622826564778284,0.0
4528263662.9645,-13.432425601455751,0.0,-2.6714544621197556,0.0
4528278662.964,-13.426423903304489,0.0,-2.706293069713313,0.0
4528293662.9635,-13.42962476902933,0.0,-2.714423837758105,0.0
4528308662.963,-13.433113600402098,0.0,-2.732252016748373,0.0
4528323662.9625,-13.431236940822478,0.0,-2.700057381275829,0.0
4528338662.962,-13.440608224135175,0.0,-2.600732020984047,0.0
4528353662.9615,-13.427452691559994,0.0,-2.706005779698719,0.0
4528368662.961,-13.431319436098654,0.0,-2.715623740086224,0.0
4528383662.9605,-13.425419800715655,0.0,-2.7174207941298083,0.0
4528398662.96,-13.424042825189233,0.0,-2.7090876099795214,0.0
4528413662.9595,-13.437383237104301,0.0,-2.7206524500772282,0.0
4528428662.959,-13.425912773273478,0.0,-2.6759153832383515,0.0
4528443662.9585,-13.43415086323511,0.0,-2.729069503746984,0.0
4528458662.958,-13.42432377643421,0.0,-2.6955005100264846,0.0
4528473662.9575,-13.425741583910956,0.0,-2.7085365616538843,0.0
4528488662.957,-13.42941289838354,0.0,-2.737053556014853,0.0
4528503662.9565,-13.425611417066074,0.0,-2.745977222508116,0.0
4528518662.956,-13.42717922604754,0.0,-2.778345983630414,0.0
4528533662.9555,-13.43687453730886,0.0,-2.715300122104373,0.0
4528548662.955,-13.425714780571303,0.0,-2.764540641373627,0.0
4528563662.9545,-13.42480562639777,0.0,-2.7220968474635368,0.0
4528578662.954,-13.42871645030882,0.0,-2.7060082866235295,0.0
4528593662.9535,-13.426174481636028,0.0,-2.714123272509765,0.0
4528608662.953,-13.434664147182156,0.0,-2.688061988629348,0.0
4528623662.9525,-13.422964710804502,0.0,-2.721740883170383,0.0
4528638662.952,-13.423608271014178,0.0,-2.802272755008021,0.0
4528653662.9515,-13.420437315173533,0.0,-2.7659313409003516,0.0
4528668662.951,-13.4376583980627,0.0,-2.7576754754079658,0.0
4528683662.9505,-13.427025059676371,0.0,-2.733779314097436,0.0
4528698662.95,-13.43393438042387,0.0,-2.7070849623974444,0.0
4528713662.9495,-13.423491609177391,0.0,-2.771028520574857,0.0
4528728662.949,-13.42319012572952,0.0,-2.7207730754553667,0.0
4528743662.9485,-13.431127058837202,0.0,-2.745341526373057,0.0
4528758662.948,-13.438581673703906,0.0,-2.8131162220342594,0.0
4528773662.9475,-13.427724501013987,0.0,-2.746907461177062,0.0
4528788662.947,-13.437370637945108,0.0,-2.779585573673904,0.0
4528803662.9465,-13.433674111860705,0.0,-2.753134627400588,0.0
4528818662.946,-13.428269501874421,0.0,-2.755682542430336,0.0
4528833662.9455,-13.432747728224783,0.0,-2.7785100677127335,0.0
4528848662.945,-13.439012732567049,0.0,-2.7713578507381027,0.0
4528863662.9445,-13.435932200423766,0.0,-2.7833699334770667,0.0
4528878662.944,-13.42795352596212,0.0,-2.850774152303297,0.0
4528893662.9435,-13.43013384727451,0.0,-2.7767376146351266,0.0
4528908662.943,-13.426698875135596,0.0,-2.794408069925676,0.0
4528923662.9425,-13.41926894059508,0.0,-2.7994291404000413,0.0
4528938662.942,-13.431874099403355,0.0,-2.85510809009364,0.0
4528953662.9415,-13.436877947716784,0.0,-2.8254021616217364,0.0
4528968662.941,-13.427097258042815,0.0,-2.8020817849460506,0.0
4528983662.9405,-13.435179119484335,0.0,-2.7863741038275953,0.0
4528998662.94,-13.441252388462697,0.0,-2.7924653171829132,0.0
4529013662.9395,-13.425338727300591,0.0,-2.7482449614775626,0.0
4529028662.939,-13.424722434009757,0.0,-2.767232476068551,0.0
4529043662.9385,-13.4318452747762,0.0,-2.873873301354315,0.0
4529058662.938,-13.437943648602154,0.0,-2.770163017230077,0.0
4529073662.9375,-13.428533682558825,0.0,-2.831023524735162,0.0
4529088662.937,-13.434352628839717,0.0,-2.908330096411814,0.0
4529103662.9365,-13.439414056141121,0.0,-2.8462143205066974,0.0
4529118662.936,-13.434074871725404,0.0,-2.8624564732668163,0.0
4529133662.9355,-13.429022376084678,0.0,-2.8498318623877723,0.0
4529148662.935,-13.428827887907884,0.0,-2.8250407431757987,0.0
4529163662.9345,-13.434553617234101,0.0,-2.8605701686324405,0.0
4529178662.934,-13.43381015970709,0.0,-2.8760440548826973,0.0
4529193662.9335,-13.429123178791606,0.0,-2.8503265511377345,0.0
4529208662.933,-13.434912691819129,0.0,-2.867428996057914,0.0
4529223662.9325,-13.429070969474315,0.0,-2.870405621034558,0.0
4529238662.932,-13.434736889008017,0.0,-2.8219922493517804,0.0
4529253662.9315,-13.434150474690167,0.0,-2.8428077566549748,0.0
4529268662.931,-13.437250517168813,0.0,-2.8616796973453593,0.0
4529283662.9305,-13.423949895350646,0.0,-2.851087520844922,0.0
4529298662.93,-13.432334726959612,0.0,-2.9260094648203245,0.0
4529313662.9295,-13.429716126079068,0.0,-2.8653671207758467,0.0
4529328662.929,-13.436578753968302,0.0,-2.861701680213117,0.0
4529343662.9285,-13.43686017374652,0.0,-2.885595640324841,0.0
4529358662.928,-13.428229322351953,0.0,-2.9224159366812428,0.0
4529373662.9275,-13.4287959846402,0.0,-2.895374633831698,0.0
4529388662.927,-13.433316341575448,0.0,-2.8668701428962007,0.0
4529403662.9265,-13.435499553429324,0.0,-2.8659623702831927,0.0
4529418662.926,-13.434690365975879,0.0,-2.94899575356282,0.0
4529433662.9255,-13.431215421437816,0.0,-2.907580069777794,0.0
4529448662.925,-13.434016402162998,0.0,-2.9111563621751277,0.0
4529463662.9245,-13.428304494741843,0.0,-2.904784955485773,0.0
4529478662.924,-13.444382816702502,0.0,-2.901916349392906,0.0
4529493662.9235,-13.435896490097486,0.0,-2.902540722909796,0.0
4529508662.923,-13.43106363717019,0.0,-2.881400114561079,0.0
4529523662.9225,-13.433314205904487,0.0,-2.869776314573634,0.0
4529538662.922,-13.432659697453289,0.0,-2.8694750948772785,0.0
4529553662.9215,-13.43683492348517,0.0,-2.883644727840777,0.0
4529568662.921,-13.434595957884401,0.0,-2.9447001770442585,0.0
4529583662.9205,-13.429758276455638,0.0,-2.9819120932748704,0.0
4529598662.92,-13.434372885716947,0.0,-2.929966636250331,0.0
4529613662.9195,-13.439428760939451,0.0,-2.896706125798228,0.0
4529628662.919,-13.44075027801615,0.0,-2.874906945828907,0.0
4529643662.9185,-13.432740117664256,0.0,-2.909828213953673,0.0
4529658662.918,-13.427451132416659,0.0,-2.925537815188764,0.0
4529673662.9175,-13.444483788911326,0.0,-2.9677548120365023,0.0
4529688662.917,-13.446143272288927,0.0,-2.957682409359195,0.0
4529703662.9165,-13.432719705446694,0.0,-2.936180771208147,0.0
4529718662.916,-13.436344848922309,0.0,-3.0289601578473673,0.0
4529733662.9155,-13.427341319460337,0.0,-2.957825621294001,0.0
4529748662.915,-13.434370378393306,0.0,-3.048076288646325,0.0
4529763662.9145,-13.437742746002751,0.0,-2.9220391572682956,0.0
4529778662.914,-13.435626222149137,0.0,-3.019564240379669,0.0
4529793662.9135,-13.42870609253444,0.0,-2.9340523853591054,0.0
4529808662.913,-13.43417026613917,0.0,-2.9698942399089185,0.0
4529823662.9125,-13.434381515388058,0.0,-2.9760410857681836,0.0
4529838662.912,-13.43185610462124,0.0,-2.9444142185637854,0.0
4529853662.9115,-13.43677230858194,0.0,-2.9250872400722083,0.0
4529868662.911,-13.427529857838342,0.0,-3.0009170188223044,0.0
4529883662.9105,-13.436164270834814,0.0,-2.973533930729492,0.0
4529898662.91,-13.444822535108283,0.0,-3.047614460158451,0.0
4529913662.9095,-13.4341853849265,0.0,-2.9908276782968968,0.0
4529928662.909,-13.437022533065248,0.0,-3.0495309858160393,0.0
4529943662.9085,-13.433970134599576,0.0,-3.02142358976525,0.0
4529958662.908,-13.437260383341057,0.0,-3.040647330598093,0.0
4529973662.9075,-13.434695146163458,0.0,-2.9459811368702327,0.0
4529988662.907,-13.432345637751471,0.0,-2.9910403860119246,0.0
4530003662.9065,-13.433341300362724,0.0,-2.9659678991964276,0.0
4530018662.906,-13.43730899724211,0.0,-3.024017799904443,0.0
4530033662.9055,-13.434657131023444,0.0,-2.9934570853880986,0.0
4530048662.905,-13.435478254475825,0.0,-3.0364735856236473,0.0
4530063662.9045,-13.443324841657843,0.0,-2.974229985771064,0.0
4530078662.904,-13.434728635387902,0.0,-3.0233551597235633,0.0
4530093662.9035,-13.43637346787747,0.0,-3.0102451011476714,0.0
4530108662.903,-13.440329088512078,0.0,-3.036313631410073,0.0
4530123662.9025,-13.431170788592297,0.0,-3.0736835808828413,0.0
4530138662.902,-13.432219796525576,0.0,-3.0212196944513603,0.0
4530153662.9015,-13.434994815678085,0.0,-3.038865217134619,0.0
4530168662.901,-13.432454253515667,0.0,-3.0659621122226732,0.0
4530183662.9005,-13.428524991920796,0.0,-3.1044151427088265,0.0
4530198662.9,-13.42650919713554,0.0,-3.0369425628457214,0.0
4530213662.8995,-13.441353876400232,0.0,-3.052561510550045,0.0
4530228662.899,-13.432620090688847,0.0,-3.04656519833783,0.0
4530243662.8985,-13.438654667048496,0.0,-3.053757531808231,0.0
4530258662.898,-13.43877202839506,0.0,-3.116551385815149,0.0
4530273662.8975,-13.433701116133731,0.0,-3.1136094596385497,0.0
4530288662.897,-13.435807927554663,0.0,-3.0796070730343716,0.0
4530303662.8965,-13.427106481539044,0.0,-3.0330014624804673,0.0
4530318662.896,-13.429146381759182,0.0,-3.079271443203937,0.0
4530333662.8955,-13.43537165379643,0.0,-3.0977827179581094,0.0
4530348662.895,-13.433243895488632,0.0,-3.066740562618481,0.0
4530363662.8945,-13.434050434212974,0.0,-3.0809120621416355,0.0
4530378662.894,-13.441556311253073,0.0,-3.095838639971207,0.0
4530393662.8935,-13.432976300314397,0.0,-3.1496604465791886,0.0
4530408662.893,-13.440033080375436,0.0,-3.137950077989177,0.0
4530423662.8925,-13.4424221454988,0.0,-3.112213724615717,0.0
4530438662.892,-13.43274813496787,0.0,-3.077978715472515,0.0
4530453662.8915,-13.444496281760074,0.0,-3.123982970519271,0.0
4530468662.891,-13.439220483604046,0.0,-3.076520535388684,0.0
4530483662.8905,-13.434544687664712,0.0,-3.1053691119612186,0.0
4530498662.89,-13.433277484266718,0.0,-3.169283107245417,0.0
4530513662.8895,-13.431374673757752,0.0,-3.1270355539809116,0.0
4530528662.889,-13.440439390229809,0.0,-3.1008361800215605,0.0
4530543662.8885,-13.432575662046728,0.0,-3.0769025164865447,0.0
4530558662.888,-13.438199113960497,0.0,-3.1302345110343985,0.0
4530573662.8875,-13.432991202079412,0.0,-3.1288952384578326,0.0
4530588662.887,-13.433023387626143,0.0,-3.1127463025930155,0.0
4530603662.8865,-13.447317874334775,0.0,-3.121886876185062,0.0
4530618662.886,-13.43912544688184,0.0,-3.1837040486424346,0.0
4530633662.8855,-13.440891999695248,0.0,-3.1024107276024258,0.0
4530648662.885,-13.43770426797821,0.0,-3.1201659282670753,0.0
4530663662.8845,-13.441077496599494,0.0,-3.1507876234573975,0.0
4530678662.884,-13.43793937944504,0.0,-3.1381088474759777,0.0
4530693662.8835,-13.438217210236827,0.0,-3.0962016517227045,0.0
4530708662.883,-13.437334797158481,0.0,-3.1460512869701613,0.0
4530723662.8825,-13.431735609511568,0.0,-3.1565422455080756,0.0
4530738662.882,-13.441737054381775,0.0,-3.166359683602864,0.0
4530753662.8815,-13.427687609834928,0.0,-3.1855698748344965,0.0
4530768662.881,-13.438790701336835,0.0,-3.1496506216895788,0.0
4530783662.8805,-13.442354053301633,0.0,-3.1782249840299084,0.0
4530798662.88,-13.435023789634585,0.0,-3.238824442899458,0.0
4530813662.8795,-13.434647935159527,0.0,-3.1530635621065275,0.0
4530828662.879,-13.44315106286895,0.0,-3.1550523955322625,0.0
4530843662.8785,-13.435324625967258,0.0,-3.2030244059776662,0.0
4530858662.878,-13.439269723926294,0.0,-3.2029096656747114,0.0
4530873662.8775,-13.440224458683996,0.0,-3.186064499962408,0.0
4530888662.877,-13.445392395570659,0.0,-3.196158796402852,0.0
4530903662.8765,-13.440282689774719,0.0,-3.1820674664986353,0.0
4530918662.876,-13.437632727768872,0.0,-3.2449838951150323,0.0
4530933662.8755,-13.443550202673544,0.0,-3.2409406834126817,0.0
4530948662.875,-13.442120811685083,0.0,-3.235831010388013,0.0
4530963662.8745,-13.438920376920375,0.0,-3.222827398326669,0.0
4530978662.874,-13.439684415876815,0.0,-3.2301006104675394,0.0
4530993662.8735,-13.435795735365046,0.0,-3.265210860195699,0.0
4531008662.873,-13.44028415993861,0.0,-3.204327689374998,0.0
4531023662.8725,-13.438367692104169,0.0,-3.2331395027386782,0.0
4531038662.872,-13.428034025553652,0.0,-3.2410811730455173,0.0
4531053662.8715,-13.441867912405822,0.0,-3.276354445754831,0.0
4531068662.871,-13.439711240434766,0.0,-3.1814160340203914,0.0
4531083662.8705,-13.43954502069435,0.0,-3.164398063346866,0.0
4531098662.87,-13.44322351428302,0.0,-3.240273298021436,0.0
4531113662.8695,-13.434481054001479,0.0,-3.2674276639404787,0.0
4531128662.869,-13.44499910293826,0.0,-3.2623550512815496,0.0
4531143662.8685,-13.442526839436367,0.0,-3.2473140482036382,0.0
4531158662.868,-13.42558841037107,0.0,-3.251904335351431,0.0
4531173662.8675,-13.435844886973879,0.0,-3.2440931539775297,0.0
4531188662.867,-13.442704807123267,0.0,-3.25979856294235,0.0
4531203662.8665,-13.435670214651747,0.0,-3.251915370099971,0.0
4531218662.866,-13.443254047872555,0.0,-3.3086940231638367,0.0
4531233662.8655,-13.440741863782883,0.0,-3.28333996251925,0.0
4531248662.865,-13.441358311118794,0.0,-3.216386676662766,0.0
4531263662.8645,-13.442262113627397,0.0,-3.2787166406939825,0.0
4531278662.864,-13.43528077924706,0.0,-3.3070539282816633,0.0
4531293662.8635,-13.433756639354325,0.0,-3.2455428059499214,0.0
4531308662.863,-13.434823578338875,0.0,-3.271829236265985,0.0
4531323662.8625,-13.444250525825536,0.0,-3.3597110734353315,0.0
4531338662.862,-13.43348021804572,0.0,-3.3004730438958436,0.0
4531353662.8615,-13.440621265702928,0.0,-3.3177771139355308,0.0
4531368662.861,-13.429608827738363,0.0,-3.335996239699272,0.0
4531383662.8605,-13.43922311066918,0.0,-3.3468839706506177,0.0
4531398662.86,-13.438348957475084,0.0,-3.318076988971676,0.0
4531413662.8595,-13.446328483748712,0.0,-3.340273398760093,0.0
4531428662.859,-13.444584260815574,0.0,-3.3995184480412384,0.0
4531443662.8585,-13.437853075101419,0.0,-3.411197936298991,0.0
4531458662.858,-13.44217842593255,0.0,-3.372741121648333,0.0
4531473662.8575,-13.436591102855836,0.0,-3.3647510197049253,0.0
4531488662.857,-13.43377960988256,0.0,-3.366071483108755,0.0
4531503662.8565,-13.43269373670858,0.0,-3.362074708485207,0.0
4531518662.856,-13.445537311686902,0.0,-3.3722258618284355,0.0
4531533662.8555,-13.438263964732899,0.0,-3.403068553606287,0.0
4531548662.855,-13.441339322954814,0.0,-3.3644805710582397,0.0
4531563662.8545,-13.437937478722377,0.0,-3.4027825817989563,0.0
4531578662.854,-13.438190841356864,0.0,-3.369179829297577,0.0
4531593662.8535,-13.438174324645992,0.0,-3.392269097349714,0.0
4531608662.853,-13.446090466478145,0.0,-3.385572106339812,0.0
4531623662.8525,-13.43801105053955,0.0,-3.423876744719454,0.0
4531638662.852,-13.436259915795517,0.0,-3.3839371120017288,0.0
4531653662.8515,-13.44798110810135,0.0,-3.439513573993452,0.0
4531668662.851,-13.438335238328285,0.0,-3.43240139128256,0.0
4531683662.8505,-13.440846343294567,0.0,-3.372019144734471,0.0
4531698662.85,-13.44472977502172,0.0,-3.386813810684934,0.0
4531713662.8495,-13.43909891342399,0.0,-3.3793544395973774,0.0
4531728662.849,-13.443527814083968,0.0,-3.4269829775027247,0.0
4531743662.8485,-13.440178437052603,0.0,-3.442678848805799,0.0
4531758662.848,-13.439606687269256,0.0,-3.4604629267120814,0.0
4531773662.8475,-13.447876770866738,0.0,-3.4652688052977774,0.0
4531788662.847,-13.43696977111586,0.0,-3.4542786587172145,0.0
4531803662.8465,-13.43942078740572,0.0,-3.4509365596112413,0.0
4531818662.846,-13.438941330267536,0.0,-3.4393905442016317,0.0
4531833662.8455,-13.438334936775862,0.0,-3.4266675210165904,0.0
4531848662.845,-13.44408371638664,0.0,-3.4430133136998373,0.0
4531863662.8445,-13.444318102198224,0.0,-3.4927804168659153,0.0
4531878662.844,-13.440877059424936,0.0,-3.4768434061172977,0.0
