Frequency,S11,S11-Q,S11-Phase,S11-Phase-Q
4527198663.0,-13.426015082940186,0.0,-2.538115557245129,0.0
4527213662.9995,-13.417666765539618,0.0,-2.583900318125937,0.0
4527228662.999,-13.417647417802437,0.0,-2.5970497648825788,0.0
4527243662.9985,-13.42495750228265,0.0,-2.5448680161624333,0.0
4527258662.998,-13.420359935151783,0.0,-2.579698448396393,0.0
4527273662.9975,-13.422030125888071,0.0,-2.548637012636336,0.0
4527288662.997,-13.435763898166837,0.0,-2.5538430533028724,0.0
4527303662.9965,-13.423898222886276,0.0,-2.6113351958253688,0.0
4527318662.996,-13.425509310382369,0.0,-2.5387546747914684,0.0
4527333662.9955,-13.434965113710275,0.0,-2.571577260650067,0.0
4527348662.995,-13.433863700026244,0.0,-2.5157292194580223,0.0
4527363662.9945,-13.427142022301094,0.0,-2.530255184894863,0.0
4527378662.994,-13.426782162325859,0.0,-2.5989235665988493,0.0
4527393662.9935,-13.422910712498183,0.0,-2.564494568629434,0.0
4527408662.993,-13.426492095444356,0.0,-2.5719981169722113,0.0
4527423662.9925,-13.425049961616649,0.0,-2.5899165585067063,0.0
4527438662.992,-13.425196435341691,0.0,-2.611129434847816,0.0
4527453662.9915,-13.425257895002948,0.0,-2.5378424569368576,0.0
4527468662.991,-13.424225115476759,0.0,-2.561234374836526,0.0
4527483662.9905,-13.425421671357194,0.0,-2.590228070167806,0.0
4527498662.99,-13.42359376102991,0.0,-2.592401343153469,0.0
4527513662.9895,-13.435791019457334,0.0,-2.5686234615993,0.0
4527528662.989,-13.435443835656207,0.0,-2.56842311908635,0.0
4527543662.9885,-13.418564112331559,0.0,-2.589327584384711,0.0
4527558662.988,-13.424999254680834,0.0,-2.587276590144736,0.0
4527573662.9875,-13.426000554624373,0.0,-2.5968126029449525,0.0
4527588662.987,-13.426864194059258,0.0,-2.656421162720139,0.0
4527603662.9865,-13.429806306611297,0.0,-2.6479816935682425,0.0
4527618662.986,-13.431287712825238,0.0,-2.62167339881283,0.0
4527633662.9855,-13.422408881328822,0.0,-2.618023299859104,0.0
4527648662.985,-13.418050469258704,0.0,-2.538507783667074,0.0
4527663662.9845,-13.427677386361223,0.0,-2.6252272080983223,0.0
4527678662.984,-13.433224265818154,0.0,-2.5862044527365002,0.0
4527693662.9835,-13.42481703503783,0.0,-2.6210498612585083,0.0
4527708662.983,-13.427309941157322,0.0,-2.653167986656554,0.0
4527723662.9825,-13.418011897238184,0.0,-2.6454502358480383,0.0
4527738662.982,-13.429161743450514,0.0,-2.627468894689363,0.0
4527753662.9815,-13.42225042332858,0.0,-2.6420337712475934,0.0
4527768662.981,-13.42801523245772,0.0,-2.640793710532905,0.0
4527783662.9805,-13.425095690416143,0.0,-2.662170100470711,0.0
4527798662.98,-13.42577998992371,0.0,-2.5944366826287415,0.0
4527813662.9795,-13.427757828081454,0.0,-2.627979881515045,0.0
4527828662.979,-13.429062761312782,0.0,-2.673387737980423,0.0
4527843662.9785,-13.429927033484638,0.0,-2.6373152102637802,0.0
4527858662.978,-13.426085992171181,0.0,-2.6409256189556634,0.0
4527873662.9775,-13.427756038909514,0.0,-2.606548996740169,0.0
4527888662.977,-13.427076829465804,0.0,-2.623922371931895,0.0
4527903662.9765,-13.426637595725463,0.0,-2.666504286413498,0.0
4527918662.976,-13.4269363389964,0.0,-2.6467007799423876,0.0
4527933662.9755,-13.426727813672608,0.0,-2.6533183938161207,0.0
4527948662.975,-13.418688754301389,0.0,-2.6351500766426,0.0
4527963662.9745,-13.424546296353245,0.0,-2.6576143620054555,0.0
4527978662.974,-13.423637977281164,0.0,-2.6191325918100614,0.0
4527993662.9735,-13.424509710606012,0.0,-2.7076368476033434,0.0
4528008662.973,-13.439571954329201,0.0,-2.6904268913283227,0.0
4528023662.9725,-13.4195760534264,0.0,-2.6935221539241554,0.0
4528038662.972,-13.427678269937037,0.0,-2.7248244635851906,0.0
4528053662.9715,-13.428197431880637,0.0,-2.7442460373651194,0.0
4528068662.971,-13.426868241735871,0.0,-2.647245716372677,0.0
4528083662.9705,-13.422218525826073,0.0,-2.6928976918606664,0.0
4528098662.97,-13.430564280599896,0.0,-2.6941529188576454,0.0
4528113662.9695,-13.429640503075495,0.0,-2.7241212052329753,0.0
4528128662.969,-13.42964694593843,0.0,-2.731567747986093,0.0
4528143662.9685,-13.431030982018994,0.0,-2.6908148773605878,0.0
4528158662.968,-13.41944270888336,0.0,-2.655415637673756,0.0
4528173662.9675,-13.42729721136626,0.0,-2.67959954265082,0.0
4528188662.967,-13.426561463194979,0.0,-2.6926369061076776,0.0
4528203662.9665,-13.43193678209051,0.0,-2.7118240537998943,0.0
4528218662.966,-13.419937616049452,0.0,-2.6647919296911917,0.0
4528233662.9655,-13.431592579259618,0.0,-2.716500048165173,0.0
4528248662.965,-13.430084551365303,0.0,-2.7360562304408154,0.0
4528263662.9645,-13.424345546403655,0.0,-2.663100395034037,0.0
4528278662.964,-13.42072727802316,0.0,-2.7493494579041844,0.0
4528293662.9635,-13.427383815717434,0.0,-2.7411449905720575,0.0
4528308662.963,-13.42068696723346,0.0,-2.736762232388768,0.0
4528323662.9625,-13.431678661860747,0.0,-2.7006037385135024,0.0
4528338662.962,-13.428279020135328,0.0,-2.705547039852675,0.0
4528353662.9615,-13.439034975980162,0.0,-2.7119324528979387,0.0
4528368662.961,-13.424467734413765,0.0,-2.760880877460212,0.0
4528383662.9605,-13.430943525630221,0.0,-2.699140320001238,0.0
4528398662.96,-13.42355634838469,0.0,-2.7206134599827023,0.0
4528413662.9595,-13.420730091084218,0.0,-2.7452224098824964,0.0
4528428662.959,-13.428522865284565,0.0,-2.75357473997619,0.0
4528443662.9585,-13.433920973563641,0.0,-2.7504096938959224,0.0
4528458662.958,-13.420668391433546,0.0,-2.740394186440761,0.0
4528473662.9575,-13.428248740504294,0.0,-2.6750666109827015,0.0
4528488662.957,-13.426764961693785,0.0,-2.7337616142959877,0.0
4528503662.9565,-13.428604461618354,0.0,-2.8185140165412066,0.0
4528518662.956,-13.43157416854634,0.0,-2.738679193692209,0.0
4528533662.9555,-13.43674976270883,0.0,-2.821990235701152,0.0
4528548662.955,-13.427824001299346,0.0,-2.754620434406114,0.0
4528563662.9545,-13.429174456681345,0.0,-2.749684335409748,0.0
4528578662.954,-13.4241382851153,0.0,-2.7890445874936827,0.0
4528593662.9535,-13.427059644882666,0.0,-2.7696689233200935,0.0
4528608662.953,-13.42878182021095,0.0,-2.801003375235275,0.0
4528623662.9525,-13.436357270096044,0.0,-2.738299183068154,0.0
4528638662.952,-13.42140528599269,0.0,-2.844417538540039,0.0
4528653662.9515,-13.435164469351182,0.0,-2.80202527768155,0.0
4528668662.951,-13.428275075874993,0.0,-2.8062897003099962,0.0
4528683662.9505,-13.429974576420117,0.0,-2.7478842204847114,0.0
4528698662.95,-13.431209135663147,0.0,-2.7723136923145186,0.0
4528713662.9495,-13.425847774329124,0.0,-2.757568427757213,0.0
4528728662.949,-13.420539625275085,0.0,-2.836643143917975,0.0
4528743662.9485,-13.427466947860175,0.0,-2.7798933268776387,0.0
4528758662.948,-13.427267987825173,0.0,-2.855169922722409,0.0
4528773662.9475,-13.429240459348204,0.0,-2.792006669105565,0.0
4528788662.947,-13.429030032562446,0.0,-2.775212521632221,0.0
4528803662.9465,-13.430566069180689,0.0,-2.809961333153864,0.0
4528818662.946,-13.432567337638837,0.0,-2.8357118039490414,0.0
4528833662.9455,-13.435131929645173,0.0,-2.840825159698379,0.0
4528848662.945,-13.427935068939439,0.0,-2.8887352263675545,0.0
4528863662.9445,-13.430594881562556,0.0,-2.8056450998194866,0.0
4528878662.944,-13.429452811695342,0.0,-2.773522608361102,0.0
4528893662.9435,-13.420873179694365,0.0,-2.7887893723118853,0.0
4528908662.943,-13.429309801871177,0.0,-2.8448105875835537,0.0
4528923662.9425,-13.435500871428403,0.0,-2.7921589995207925,0.0
4528938662.942,-13.439740420032917,0.0,-2.852932195423244,0.0
4528953662.9415,-13.43189593762451,0.0,-2.805727565877057,0.0
4528968662.941,-13.438127171318985,0.0,-2.796429641774298,0.0
4528983662.9405,-13.43559081226394,0.0,-2.8771968041838214,0.0
4528998662.94,-13.428361371802202,0.0,-2.7685954679336042,0.0
4529013662.9395,-13.426305062620607,0.0,-2.8634454276419588,0.0
4529028662.939,-13.434385386649211,0.0,-2.8784942501899566,0.0
4529043662.9385,-13.429575004177476,0.0,-2.834212846859348,0.0
4529058662.938,-13.431650497221375,0.0,-2.8340382147430456,0.0
4529073662.9375,-13.42538466525493,0.0,-2.84097052547988,0.0
4529088662.937,-13.418436606287802,0.0,-2.8396817814581246,0.0
4529103662.9365,-13.429515015726432,0.0,-2.8857054248345766,0.0
4529118662.936,-13.439296551455872,0.0,-2.8683474431470724,0.0
4529133662.9355,-13.430465816697419,0.0,-2.822925170728036,0.0
4529148662.935,-13.43016965957082,0.0,-2.879714514909793,0.0
4529163662.9345,-13.433123016932297,0.0,-2.873702523462354,0.0
4529178662.934,-13.42875983882542,0.0,-2.876837986512964,0.0
4529193662.9335,-13.438231406008342,0.0,-2.8615048565190677,0.0
4529208662.933,-13.425868484064978,0.0,-2.8684834044689116,0.0
4529223662.9325,-13.424942147473697,0.0,-2.8851048790438565,0.0
4529238662.932,-13.439577458643353,0.0,-2.9457118927106367,0.0
4529253662.9315,-13.433373852764054,0.0,-2.8959247149382175,0.0
4529268662.931,-13.436512980281659,0.0,-2.8759029788904598,0.0
4529283662.9305,-13.426860140341743,0.0,-2.8779663476448913,0.0
4529298662.93,-13.433154513547901,0.0,-2.869546880312625,0.0
4529313662.9295,-13.42328790770875,0.0,-2.8795554407716653,0.0
4529328662.929,-13.43113364400186,0.0,-2.9293873097563865,0.0
4529343662.9285,-13.423786909636048,0.0,-3.0047746472459114,0.0
4529358662.928,-13.42708830063868,0.0,-2.958165400390623,0.0
4529373662.9275,-13.43212240344144,0.0,-2.8770813742696157,0.0
4529388662.927,-13.430894987246397,0.0,-2.9383464587078088,0.0
4529403662.9265,-13.424481699604414,0.0,-2.909558047502935,0.0
4529418662.926,-13.435383225926676,0.0,-2.8868887370091145,0.0
4529433662.9255,-13.43660029237974,0.0,-2.9361499608388026,0.0
4529448662.925,-13.432501388805491,0.0,-2.9357597655776004,0.0
4529463662.9245,-13.42649652583624,0.0,-2.941355678930853,0.0
4529478662.924,-13.425664946119714,0.0,-2.913885571733077,0.0
4529493662.9235,-13.431183463351033,0.0,-2.9142639500863274,0.0
4529508662.923,-13.428752914930106,0.0,-2.9348497620865817,0.0
4529523662.9225,-13.43946644342541,0.0,-2.9679882940537374,0.0
4529538662.922,-13.440057565708447,0.0,-2.965476134315218,0.0
4529553662.9215,-13.432941253675054,0.0,-2.9601622477315543,0.0
4529568662.921,-13.424876849277606,0.0,-2.9747368215702656,0.0
4529583662.9205,-13.430798326438998,0.0,-2.9362430995342925,0.0
4529598662.92,-13.434678590952542,0.0,-2.9638214649787984,0.0
4529613662.9195,-13.435680344630644,0.0,-2.960126039865566,0.0
4529628662.919,-13.424628933476221,0.0,-2.9894194497929685,0.0
4529643662.9185,-13.426293625713031,0.0,-2.924289077883572,0.0
4529658662.918,-13.432612610997523,0.0,-2.9611843601167838,0.0
4529673662.9175,-13.427187131449958,0.0,-3.0021073923466406,0.0
4529688662.917,-13.43798433432972,0.0,-2.915662271602643,0.0
4529703662.9165,-13.429147963853442,0.0,-2.978063725597018,0.0
4529718662.916,-13.426293847322588,0.0,-2.9754731131163714,0.0
4529733662.9155,-13.441175360176384,0.0,-3.010646002756452,0.0
4529748662.915,-13.430273155648438,0.0,-2.9847952969577842,0.0
4529763662.9145,-13.433982451983159,0.0,-3.031759674830669,0.0
4529778662.914,-13.429765376321338,0.0,-3.029238338048359,0.0
4529793662.9135,-13.433729238030667,0.0,-2.956638134078663,0.0
4529808662.913,-13.428287995148747,0.0,-3.0607788068193864,0.0
4529823662.9125,-13.439149072656845,0.0,-3.01711348569318,0.0
4529838662.912,-13.433885504761545,0.0,-3.049827022629111,0.0
4529853662.9115,-13.429245267280645,0.0,-2.946152497229858,0.0
4529868662.911,-13.429761149533999,0.0,-3.044720342953756,0.0
4529883662.9105,-13.42595134362205,0.0,-2.9873719963590393,0.0
4529898662.91,-13.42406098549054,0.0,-3.0364594761792523,0.0
4529913662.9095,-13.42331399939826,0.0,-2.984926026589041,0.0
4529928662.909,-13.432528591213229,0.0,-3.050682199449583,0.0
4529943662.9085,-13.427896766030107,0.0,-3.0530059770740365,0.0
4529958662.908,-13.437486125322884,0.0,-3.0177379485063502,0.0
4529973662.9075,-13.435209490227722,0.0,-3.1000135187967626,0.0
4529988662.907,-13.439166879749711,0.0,-3.043134956373218,0.0
4530003662.9065,-13.430744228485704,0.0,-3.1068920727091425,0.0
4530018662.906,-13.431191022666146,0.0,-3.041531280987966,0.0
4530033662.9055,-13.433902417677315,0.0,-3.001900467553957,0.0
4530048662.905,-13.431366630662307,0.0,-3.103006533448288,0.0
4530063662.9045,-13.426759556944138,0.0,-3.0338647045098504,0.0
4530078662.904,-13.433265470431381,0.0,-3.0850237994222196,0.0
4530093662.9035,-13.432849470077556,0.0,-3.051834969863489,0.0
4530108662.903,-13.427141636646063,0.0,-3.0985879200347894,0.0
4530123662.9025,-13.429425573140552,0.0,-3.108580405278006,0.0
4530138662.902,-13.433099906105836,0.0,-3.090302726676808,0.0
4530153662.9015,-13.437874276222079,0.0,-3.09116627988441,0.0
4530168662.901,-13.433081509762111,0.0,-3.0946378183604244,0.0
4530183662.9005,-13.42832346918228,0.0,-3.080344983180708,0.0
4530198662.9,-13.425875476821483,0.0,-3.0959718003817436,0.0
4530213662.8995,-13.425188809932445,0.0,-3.1222619950330457,0.0
4530228662.899,-13.438515049630409,0.0,-3.116937393644377,0.0
4530243662.8985,-13.442102006874396,0.0,-3.1441899769454746,0.0
4530258662.898,-13.431335952546748,0.0,-3.1543418210473226,0.0
4530273662.8975,-13.437792699603879,0.0,-3.1201289142372572,0.0
4530288662.897,-13.437190897987678,0.0,-3.1274119719785785,0.0
4530303662.8965,-13.43530206480946,0.0,-3.1425090190708738,0.0
4530318662.896,-13.434158467092542,0.0,-3.1253866426741945,0.0
4530333662.8955,-13.432003448769851,0.0,-3.0796689909525257,0.0
4530348662.895,-13.432541527439763,0.0,-3.1286399827675897,0.0
4530363662.8945,-13.436042739459054,0.0,-3.14611075068514,0.0
4530378662.894,-13.43071495953122,0.0,-3.0977526437310052,0.0
4530393662.8935,-13.428459440226504,0.0,-3.036826672540334,0.0
4530408662.893,-13.437203927775439,0.0,-3.1365900509251885,0.0
4530423662.8925,-13.441835852117565,0.0,-3.165458759552746,0.0
4530438662.892,-13.437170469785162,0.0,-3.106213456810855,0.0
4530453662.8915,-13.444622764952559,0.0,-3.0914330937563874,0.0
4530468662.891,-13.427223737404965,0.0,-3.1758478184275956,0.0
4530483662.8905,-13.434705073849667,0.0,-3.1339101694407083,0.0
4530498662.89,-13.441617401599942,0.0,-3.1176013721742213,0.0
4530513662.8895,-13.43822693260621,0.0,-3.1334482927434446,0.0
4530528662.889,-13.43438374273468,0.0,-3.1221127798367063,0.0
4530543662.8885,-13.441994410321996,0.0,-3.12497473535315,0.0
4530558662.888,-13.439736518416334,0.0,-3.2218622547362394,0.0
4530573662.8875,-13.445367588307223,0.0,-3.199595136485129,0.0
4530588662.887,-13.435947847620897,0.0,-3.1429050631762876,0.0
4530603662.8865,-13.435004139831232,0.0,-3.2093457177272326,0.0
4530618662.886,-13.430288947295692,0.0,-3.164699612259495,0.0
4530633662.8855,-13.43923114364588,0.0,-3.2419916784173637,0.0
4530648662.885,-13.443941912397943,0.0,-3.196332528188292,0.0
4530663662.8845,-13.43252539828624,0.0,-3.2326323404321156,0.0
4530678662.884,-13.436080972038862,0.0,-3.2286970876907946,0.0
4530693662.8835,-13.440433579267552,0.0,-3.1948047320228494,0.0
4530708662.883,-13.44265205327381,0.0,-3.2687582991054907,0.0
4530723662.8825,-13.43754899557323,0.0,-3.191924137708326,0.0
4530738662.882,-13.43648871326975,0.0,-3.2078079255832135,0.0
4530753662.8815,-13.43931668623269,0.0,-3.200960579317042,0.0
4530768662.881,-13.43462317442089,0.0,-3.257568270022451,0.0
4530783662.8805,-13.43847048215248,0.0,-3.245854703455048,0.0
4530798662.88,-13.43208479425349,0.0,-3.2729928030848807,0.0
4530813662.8795,-13.44699476722504,0.0,-3.245914975152275,0.0
4530828662.879,-13.437189551642119,0.0,-3.2717059700536213,0.0
4530843662.8785,-13.433968256037204,0.0,-3.2774980232384037,0.0
4530858662.878,-13.432375455921271,0.0,-3.2613481222728167,0.0
4530873662.8775,-13.436142895283085,0.0,-3.228623853132136,0.0
4530888662.877,-13.432344306394084,0.0,-3.275582375683361,0.0
4530903662.8765,-13.439200863099517,0.0,-3.2644564095719524,0.0
4530918662.876,-13.436144534743024,0.0,-3.2785560484511476,0.0
4530933662.8755,-13.450625861127774,0.0,-3.2779337386822114,0.0
4530948662.875,-13.436752119776742,0.0,-3.2743638872409226,0.0
4530963662.8745,-13.439867840591004,0.0,-3.2336185925463163,0.0
4530978662.874,-13.425424585991259,0.0,-3.300999406042483,0.0
4530993662.8735,-13.429788665875773,0.0,-3.292780852888612,0.0
4531008662.873,-13.436018737241929,0.0,-3.195835127795195,0.0
4531023662.8725,-13.442075956451076,0.0,-3.3085466989646117,0.0
4531038662.872,-13.439741977616766,0.0,-3.278917466145523,0.0
4531053662.8715,-13.443475247434108,0.0,-3.307046567555095,0.0
4531068662.871,-13.444837048548514,0.0,-3.2628003140957667,0.0
4531083662.8705,-13.43495168850167,0.0,-3.291643226383086,0.0
4531098662.87,-13.433166696650673,0.0,-3.3391367043636424,0.0
4531113662.8695,-13.439392817757618,0.0,-3.289569479316245,0.0
4531128662.869,-13.430418645076106,0.0,-3.2899888262973174,0.0
4531143662.8685,-13.437520989562298,0.0,-3.362981911271896,0.0
4531158662.868,-13.441544351503394,0.0,-3.32478003346225,0.0
4531173662.8675,-13.434912503604576,0.0,-3.3470139861797543,0.0
4531188662.867,-13.431231522219926,0.0,-3.25199542835843,0.0
4531203662.8665,-13.438856557348016,0.0,-3.3573497517079667,0.0
4531218662.866,-13.445296633126754,0.0,-3.3259082242131277,0.0
4531233662.8655,-13.445843115739358,0.0,-3.2695875310231437,0.0
4531248662.865,-13.44204651881871,0.0,-3.3095417545016157,0.0
4531263662.8645,-13.430764157541883,0.0,-3.3851961997936875,0.0
4531278662.864,-13.436906114661571,0.0,-3.3584502557893954,0.0
4531293662.8635,-13.442541041331879,0.0,-3.3652664793137665,0.0
4531308662.863,-13.425168629886707,0.0,-3.314758682266502,0.0
4531323662.8625,-13.42852634642872,0.0,-3.35041015594046,0.0
4531338662.862,-13.43852651366789,0.0,-3.376371420203693,0.0
4531353662.8615,-13.44494486060858,0.0,-3.377939497441431,0.0
4531368662.861,-13.436521512397992,0.0,-3.344998041905662,0.0
4531383662.8605,-13.435278723988091,0.0,-3.3527408684272775,0.0
4531398662.86,-13.436930999122776,0.0,-3.3560291458816836,0.0
4531413662.8595,-13.43393022802699,0.0,-3.372998133890693,0.0
4531428662.859,-13.439593432280022,0.0,-3.39149499222948,0.0
4531443662.8585,-13.43493016879971,0.0,-3.36128674649469,0.0
4531458662.858,-13.447915892318793,0.0,-3.3922376896484034,0.0
4531473662.8575,-13.434868349710854,0.0,-3.4513947819345434,0.0
4531488662.857,-13.447234487135738,0.0,-3.379640272527664,0.0
4531503662.8565,-13.439922290176822,0.0,-3.4415930316907093,0.0
4531518662.856,-13.439663805358546,0.0,-3.4212230915847726,0.0
4531533662.8555,-13.434215363409814,0.0,-3.460578398171358,0.0
4531548662.855,-13.438418206548528,0.0,-3.4603168030559623,0.0
4531563662.8545,-13.441339280061102,0.0,-3.4214469812967825,0.0
4531578662.854,-13.427417734462368,0.0,-3.4117499900887616,0.0
4531593662.8535,-13.446395256946392,0.0,-3.4698778997203714,0.0
4531608662.853,-13.438321910495043,0.0,-3.4617374442407494,0.0
4531623662.8525,-13.43809040711555,0.0,-3.4421740812292017,0.0
4531638662.852,-13.440884872932097,0.0,-3.488136448807908,0.0
4531653662.8515,-13.436833065705718,0.0,-3.3755480651368543,0.0
4531668662.851,-13.444766819417104,0.0,-3.44032144373754,0.0
4531683662.8505,-13.435986567877379,0.0,-3.4738704518396815,0.0
4531698662.85,-13.444382008106157,0.0,-3.418369612949373,0.0
4531713662.8495,-13.437276840678518,0.0,-3.4587150180521484,0.0
4531728662.849,-13.440781610936769,0.0,-3.4716084865048407,0.0
4531743662.8485,-13.436735933071208,0.0,-3.4230355135256763,0.0
4531758662.848,-13.438992015280151,0.0,-3.523368113457204,0.0
4531773662.8475,-13.442006720922588,0.0,-3.5058645758868603,0.0
4531788662.847,-13.434405283262043,0.0,-3.4461176030385583,0.0
4531803662.8465,-13.442282254241109,0.0,-3.4763141854654034,0.0
4531818662.846,-13.435408600349987,0.0,-3.4724414882360923,0.0
4531833662.8455,-13.451483598306993,0.0,-3.5078620269013454,0.0
4531848662.845,-13.439651944776493,0.0,-3.457963035747146,0.0
4531863662.8445,-13.447840439448793,0.0,-3.5096711056609715,0.0
4531878662.844,-13.4391202591671,0.0,-3.514176392952777,0.0
