Frequency,S11,S11-Q,S11-Phase,S11-Phase-Q
4527198663.0,-13.418031972183682,0.0,-2.336728756064065,0.0
4527213662.9995,-13.41747897871677,0.0,-2.401181095907058,0.0
4527228662.999,-13.412949568562064,0.0,-2.432559349214527,0.0
4527243662.9985,-13.416015210087625,0.0,-2.412643420772838,0.0
4527258662.998,-13.415171419494563,0.0,-2.3803420908010358,0.0
4527273662.9975,-13.411370128633934,0.0,-2.415762682384997,0.0
4527288662.997,-13.418978710081323,0.0,-2.431145128224317,0.0
4527303662.9965,-13.415845410477669,0.0,-2.4004076230355076,0.0
4527318662.996,-13.408572675603775,0.0,-2.3886390036776524,0.0
4527333662.9955,-13.41881326787935,0.0,-2.4109829703289147,0.0
4527348662.995,-13.42049129776787,0.0,-2.4211652984243455,0.0
4527363662.9945,-13.410193085898216,0.0,-2.4538139945964517,0.0
4527378662.994,-13.414061218019398,0.0,-2.447484206297519,0.0
4527393662.9935,-13.413161795455066,0.0,-2.4269738419047147,0.0
4527408662.993,-13.407975361395689,0.0,-2.3980483548250837,0.0
4527423662.9925,-13.415437129735338,0.0,-2.4375668300044904,0.0
4527438662.992,-13.417117592297906,0.0,-2.4472471870739376,0.0
4527453662.9915,-13.41513017726519,0.0,-2.3975575185074467,0.0
4527468662.991,-13.418967266062236,0.0,-2.3863159356437267,0.0
4527483662.9905,-13.421910572127462,0.0,-2.350940498415496,0.0
4527498662.99,-13.419974527369265,0.0,-2.4802319964845316,0.0
4527513662.9895,-13.418114038596002,0.0,-2.398565260916428,0.0
4527528662.989,-13.41042453709761,0.0,-2.4242102422025944,0.0
4527543662.9885,-13.426534956466247,0.0,-2.4167969262024274,0.0
4527558662.988,-13.411721086996478,0.0,-2.4889455307296693,0.0
4527573662.9875,-13.413419291228625,0.0,-2.408971003792319,0.0
4527588662.987,-13.41605727694417,0.0,-2.4464473533879034,0.0
4527603662.9865,-13.422268012510774,0.0,-2.4869962635150737,0.0
4527618662.986,-13.422523532777868,0.0,-2.4732846587847117,0.0
4527633662.9855,-13.4177121505253,0.0,-2.402744269993512,0.0
4527648662.985,-13.428750632422746,0.0,-2.5177080154764293,0.0
4527663662.9845,-13.413787982678095,0.0,-2.4078267492209156,0.0
4527678662.984,-13.4203300471568,0.0,-2.4447815915111493,0.0
4527693662.9835,-13.418558703907813,0.0,-2.4602211799356013,0.0
4527708662.983,-13.40642941649435,0.0,-2.487033692074817,0.0
4527723662.9825,-13.420693706798287,0.0,-2.491164330583997,0.0
4527738662.982,-13.409093383358279,0.0,-2.4905379391038425,0.0
4527753662.9815,-13.410847921370387,0.0,-2.5018211377296677,0.0
4527768662.981,-13.424252524556191,0.0,-2.4603460899824174,0.0
4527783662.9805,-13.417745953135928,0.0,-2.5126942383358366,0.0
4527798662.98,-13.424134694015855,0.0,-2.482345285508967,0.0
4527813662.9795,-13.420960362134851,0.0,-2.410562230611824,0.0
4527828662.979,-13.42498893322263,0.0,-2.499037450663623,0.0
4527843662.9785,-13.412678053584946,0.0,-2.5003615593785806,0.0
4527858662.978,-13.414765360777741,0.0,-2.545566123247681,0.0
4527873662.9775,-13.423166553689342,0.0,-2.471783256068078,0.0
4527888662.977,-13.412556527124035,0.0,-2.489878224032439,0.0
4527903662.9765,-13.427709871106227,0.0,-2.444597868651623,0.0
4527918662.976,-13.416184328530992,0.0,-2.494625982260153,0.0
4527933662.9755,-13.411010467800912,0.0,-2.4560801438486743,0.0
4527948662.975,-13.420517708581743,0.0,-2.513334306408948,0.0
4527963662.9745,-13.42177708946757,0.0,-2.4691893663037487,0.0
4527978662.974,-13.422737427807096,0.0,-2.523321439971434,0.0
4527993662.9735,-13.419013880790411,0.0,-2.5327450511466045,0.0
4528008662.973,-13.410874639697617,0.0,-2.5333298894297323,0.0
4528023662.9725,-13.427219689750672,0.0,-2.4872812718521593,0.0
4528038662.972,-13.419828582589792,0.0,-2.4746501139362804,0.0
4528053662.9715,-13.429193090844493,0.0,-2.533175517490746,0.0
4528068662.971,-13.417610450019259,0.0,-2.459010698059926,0.0
4528083662.9705,-13.424576664720627,0.0,-2.5404849044113256,0.0
4528098662.97,-13.419249774922008,0.0,-2.48522242758643,0.0
4528113662.9695,-13.416846366405053,0.0,-2.5322835611435903,0.0
4528128662.969,-13.421358837489914,0.0,-2.523036757017308,0.0
4528143662.9685,-13.414497027728832,0.0,-2.5405572380281765,0.0
4528158662.968,-13.421785654069328,0.0,-2.545711830608076,0.0
4528173662.9675,-13.41985800330551,0.0,-2.5654259931894314,0.0
4528188662.967,-13.424978872268706,0.0,-2.5154383628114703,0.0
4528203662.9665,-13.420518387105307,0.0,-2.5798300353545023,0.0
4528218662.966,-13.422567226656001,0.0,-2.573069938117922,0.0
4528233662.9655,-13.411266320891585,0.0,-2.5427699011418645,0.0
4528248662.965,-13.421919199117013,0.0,-2.533698790833299,0.0
4528263662.9645,-13.417892478797624,0.0,-2.5372554470980666,0.0
4528278662.964,-13.42608945450066,0.0,-2.55850083875424,0.0
4528293662.9635,-13.420226307200387,0.0,-2.5344832000673003,0.0
4528308662.963,-13.415003120967361,0.0,-2.5429792210267688,0.0
4528323662.9625,-13.422917333880054,0.0,-2.5180254418964227,0.0
4528338662.962,-13.415069713712807,0.0,-2.5693556578953167,0.0
4528353662.9615,-13.417993729228767,0.0,-2.5555082299564633,0.0
4528368662.961,-13.43012648503133,0.0,-2.543593282268605,0.0
4528383662.9605,-13.423296550907956,0.0,-2.5819111901106937,0.0
4528398662.96,-13.419325507140442,0.0,-2.579149458240107,0.0
4528413662.9595,-13.425609155581185,0.0,-2.5812274666677064,0.0
4528428662.959,-13.419709735686423,0.0,-2.5506110856775366,0.0
4528443662.9585,-13.416202066437865,0.0,-2.5762348333632903,0.0
4528458662.958,-13.417901778923891,0.0,-2.5763995403310256,0.0
4528473662.9575,-13.426058203649543,0.0,-2.57600526815256,0.0
4528488662.957,-13.409863059305884,0.0,-2.5718234255982293,0.0
4528503662.9565,-13.427377711594,0.0,-2.625794777448105,0.0
4528518662.956,-13.41516286861986,0.0,-2.5238369452758493,0.0
4528533662.9555,-13.42848073740123,0.0,-2.6006287698271344,0.0
4528548662.955,-13.413168127427591,0.0,-2.5870043253784294,0.0
4528563662.9545,-13.42113170594729,0.0,-2.530769012711378,0.0
4528578662.954,-13.413084636457134,0.0,-2.5707375241660158,0.0
4528593662.9535,-13.42005700891296,0.0,-2.5890814109294853,0.0
4528608662.953,-13.41549096693062,0.0,-2.637104751682918,0.0
4528623662.9525,-13.414754402369393,0.0,-2.623600435290702,0.0
4528638662.952,-13.421400511142243,0.0,-2.588235115303195,0.0
4528653662.9515,-13.418831014493016,0.0,-2.639767421144577,0.0
4528668662.951,-13.424552873366855,0.0,-2.6103547541433114,0.0
4528683662.9505,-13.425013972931051,0.0,-2.6321006751485756,0.0
4528698662.95,-13.419478755747749,0.0,-2.5895091610141634,0.0
4528713662.9495,-13.41708467637716,0.0,-2.6027325245383297,0.0
4528728662.949,-13.42974769152718,0.0,-2.6269307352072975,0.0
4528743662.9485,-13.42365936551553,0.0,-2.691231793123161,0.0
4528758662.948,-13.414504229474748,0.0,-2.603632203790491,0.0
4528773662.9475,-13.413807410111918,0.0,-2.6416786777579175,0.0
4528788662.947,-13.42171493430472,0.0,-2.6274505615291313,0.0
4528803662.9465,-13.429568694705651,0.0,-2.6461669478254124,0.0
4528818662.946,-13.422064646379074,0.0,-2.7242781632061783,0.0
4528833662.9455,-13.422299486827761,0.0,-2.592509456274467,0.0
4528848662.945,-13.426541443537923,0.0,-2.6669663160234633,0.0
4528863662.9445,-13.42019336563055,0.0,-2.6657655257835757,0.0
4528878662.944,-13.421153317376502,0.0,-2.6359839866565293,0.0
4528893662.9435,-13.424110204336575,0.0,-2.638820436662856,0.0
4528908662.943,-13.418692297892916,0.0,-2.6485999625344734,0.0
4528923662.9425,-13.420201098843005,0.0,-2.653515701865598,0.0
4528938662.942,-13.41619635877718,0.0,-2.600240243716021,0.0
4528953662.9415,-13.419146373249998,0.0,-2.618070382343131,0.0
4528968662.941,-13.42378052782979,0.0,-2.661002368186108,0.0
4528983662.9405,-13.423842938301409,0.0,-2.6185953725614732,0.0
4528998662.94,-13.424596091838652,0.0,-2.6419340335240786,0.0
4529013662.9395,-13.412414646629486,0.0,-2.6380764107610757,0.0
4529028662.939,-13.42463882058588,0.0,-2.7184210145192966,0.0
4529043662.9385,-13.413375900877814,0.0,-2.615568145694509,0.0
4529058662.938,-13.4211355789655,0.0,-2.695405226998217,0.0
4529073662.9375,-13.419860453569035,0.0,-2.64500403610211,0.0
4529088662.937,-13.416769948252526,0.0,-2.6479514103877935,0.0
4529103662.9365,-13.42283976516811,0.0,-2.707579656956876,0.0
4529118662.936,-13.424391340773912,0.0,-2.664509036300848,0.0
4529133662.9355,-13.41339326727958,0.0,-2.649271883877008,0.0
4529148662.935,-13.427829437163334,0.0,-2.6644413159906857,0.0
4529163662.9345,-13.421129186996534,0.0,-2.6842328301431864,0.0
4529178662.934,-13.420583290313726,0.0,-2.686469858723367,0.0
4529193662.9335,-13.42729842465583,0.0,-2.671186467568446,0.0
4529208662.933,-13.420957557872645,0.0,-2.63176981926301,0.0
4529223662.9325,-13.42452062713356,0.0,-2.6894912138217855,0.0
4529238662.932,-13.420849265413779,0.0,-2.6668378556899857,0.0
4529253662.9315,-13.422378705081826,0.0,-2.7025078997764016,0.0
4529268662.931,-13.426850581719279,0.0,-2.7079585316668284,0.0
4529283662.9305,-13.423761623459235,0.0,-2.645201893784682,0.0
4529298662.93,-13.423896327864302,0.0,-2.73139908810366,0.0
4529313662.9295,-13.424142372819688,0.0,-2.7267388226517126,0.0
4529328662.929,-13.424224632728091,0.0,-2.7240496085164274,0.0
4529343662.9285,-13.429354001508166,0.0,-2.701591178093986,0.0
4529358662.928,-13.431983242422735,0.0,-2.7310507456864688,0.0
4529373662.9275,-13.421074166538274,0.0,-2.7384201882184667,0.0
4529388662.927,-13.436099733964728,0.0,-2.702339494535628,0.0
4529403662.9265,-13.42621316324337,0.0,-2.768823676828438,0.0
4529418662.926,-13.413375784287345,0.0,-2.7265827430747924,0.0
4529433662.9255,-13.427806838005708,0.0,-2.7342950330350413,0.0
4529448662.925,-13.423695683198972,0.0,-2.7254110130792633,0.0
4529463662.9245,-13.4187785169503,0.0,-2.764070940139929,0.0
4529478662.924,-13.42220959975502,0.0,-2.716667565871752,0.0
4529493662.9235,-13.429576548489967,0.0,-2.7702924519781105,0.0
4529508662.923,-13.420255649011175,0.0,-2.7185115877448602,0.0
4529523662.9225,-13.423600265960099,0.0,-2.726936044934124,0.0
4529538662.922,-13.425313153411993,0.0,-2.757863493467232,0.0
4529553662.9215,-13.416261949132087,0.0,-2.7378174506905464,0.0
4529568662.921,-13.42956159830986,0.0,-2.731345160233277,0.0
4529583662.9205,-13.423237165221133,0.0,-2.742581380256731,0.0
4529598662.92,-13.430215939554682,0.0,-2.7651731714051087,0.0
4529613662.9195,-13.432865047370314,0.0,-2.8027452891876803,0.0
4529628662.919,-13.427026656626719,0.0,-2.760843416322326,0.0
4529643662.9185,-13.427825785697781,0.0,-2.7822134442701794,0.0
4529658662.918,-13.427992344736621,0.0,-2.7742782418709946,0.0
4529673662.9175,-13.430218364380613,0.0,-2.804520677035912,0.0
4529688662.917,-13.418813471555717,0.0,-2.7682004014018298,0.0
4529703662.9165,-13.425746409482457,0.0,-2.803426989801333,0.0
4529718662.916,-13.429189420102357,0.0,-2.694579951795811,0.0
4529733662.9155,-13.424136869447953,0.0,-2.790549860004378,0.0
4529748662.915,-13.419615992126362,0.0,-2.792676187833627,0.0
4529763662.9145,-13.424106759274048,0.0,-2.741155966804877,0.0
4529778662.914,-13.430604558382989,0.0,-2.7906770195559734,0.0
4529793662.9135,-13.423933002032554,0.0,-2.8789440164806077,0.0
4529808662.913,-13.429811568788217,0.0,-2.732499520914844,0.0
4529823662.9125,-13.427295666157391,0.0,-2.81296444942678,0.0
4529838662.912,-13.421211606712621,0.0,-2.787856452983557,0.0
4529853662.9115,-13.433276372177133,0.0,-2.803959098608008,0.0
4529868662.911,-13.418604640829436,0.0,-2.77326505748293,0.0
4529883662.9105,-13.426219122367037,0.0,-2.781484594200267,0.0
4529898662.91,-13.427240576305818,0.0,-2.868186064809533,0.0
4529913662.9095,-13.421764360841756,0.0,-2.7974191440620366,0.0
4529928662.909,-13.418567319568123,0.0,-2.804337956066779,0.0
4529943662.9085,-13.425666104190855,0.0,-2.867029983389458,0.0
4529958662.908,-13.427583495511808,0.0,-2.7698104885050725,0.0
4529973662.9075,-13.424862822054745,0.0,-2.834823274089316,0.0
4529988662.907,-13.418525299096157,0.0,-2.886755589670943,0.0
4530003662.9065,-13.421969060027354,0.0,-2.848402650951311,0.0
4530018662.906,-13.426139203932282,0.0,-2.849840825984581,0.0
4530033662.9055,-13.432127444833323,0.0,-2.8741132528697686,0.0
4530048662.905,-13.431305545313778,0.0,-2.8553723266426014,0.0
4530063662.9045,-13.42737643364806,0.0,-2.842324378459832,0.0
4530078662.904,-13.422324279660112,0.0,-2.8924819104647588,0.0
4530093662.9035,-13.423109198703498,0.0,-2.824824661440195,0.0
4530108662.903,-13.417485628754262,0.0,-2.819829669554448,0.0
4530123662.9025,-13.425513400213704,0.0,-2.876010822005648,0.0
4530138662.902,-13.426629238496382,0.0,-2.866904230237605,0.0
4530153662.9015,-13.41650572672065,0.0,-2.839766461405969,0.0
4530168662.901,-13.425678886172651,0.0,-2.8763498077508083,0.0
4530183662.9005,-13.416599590676157,0.0,-2.81590575411216,0.0
4530198662.9,-13.427958857710768,0.0,-2.865336188502905,0.0
4530213662.8995,-13.421952913262214,0.0,-2.9036390689094422,0.0
4530228662.899,-13.427209708841168,0.0,-2.8750624486345417,0.0
4530243662.8985,-13.436371170213224,0.0,-2.8963427856223936,0.0
4530258662.898,-13.437501336982754,0.0,-2.895953849152446,0.0
4530273662.8975,-13.427433948497132,0.0,-2.942446695093494,0.0
4530288662.897,-13.42877065665002,0.0,-2.8904906236927603,0.0
4530303662.8965,-13.425348552907137,0.0,-2.9169709867716938,0.0
4530318662.896,-13.429879883526501,0.0,-2.9655911079991935,0.0
4530333662.8955,-13.42615029754602,0.0,-2.9079060759286963,0.0
4530348662.895,-13.425279232020216,0.0,-2.9806707392547933,0.0
4530363662.8945,-13.430983200480044,0.0,-2.876776754203595,0.0
4530378662.894,-13.425663762181387,0.0,-2.8931866389907803,0.0
4530393662.8935,-13.42243142098801,0.0,-2.9481069751262647,0.0
4530408662.893,-13.43126084722472,0.0,-2.892431141495198,0.0
4530423662.8925,-13.424972228453845,0.0,-2.900729463253699,0.0
4530438662.892,-13.429499331144793,0.0,-2.90717210663038,0.0
4530453662.8915,-13.424365970760103,0.0,-2.8712663584240965,0.0
4530468662.891,-13.434437089967808,0.0,-2.9197727803138496,0.0
4530483662.8905,-13.423539318191992,0.0,-2.9716710406552123,0.0
4530498662.89,-13.426085967848898,0.0,-2.9794207040952956,0.0
4530513662.8895,-13.439183607700185,0.0,-2.8919809856466907,0.0
4530528662.889,-13.425608472006662,0.0,-2.914366253834029,0.0
4530543662.8885,-13.426770278774697,0.0,-2.9334576550345566,0.0
4530558662.888,-13.431485383443878,0.0,-2.934997595783915,0.0
4530573662.8875,-13.423655756968472,0.0,-2.9694841421203306,0.0
4530588662.887,-13.420702537114384,0.0,-2.9910183462659172,0.0
4530603662.8865,-13.428478618031605,0.0,-2.964634026103019,0.0
4530618662.886,-13.424527682478466,0.0,-2.9844348797618805,0.0
4530633662.8855,-13.428909350482263,0.0,-2.9341762474392517,0.0
4530648662.885,-13.431825824830634,0.0,-2.920538051995773,0.0
4530663662.8845,-13.422301713210015,0.0,-2.99692874270225,0.0
4530678662.884,-13.424909069381279,0.0,-2.9746830465835066,0.0
4530693662.8835,-13.422873297339898,0.0,-2.946188414226006,0.0
4530708662.883,-13.421700767027717,0.0,-3.0064450826578164,0.0
4530723662.8825,-13.424466714903044,0.0,-3.0014428081027136,0.0
4530738662.882,-13.423514379873431,0.0,-3.031212337924504,0.0
4530753662.8815,-13.434255276156744,0.0,-2.9452109242773465,0.0
4530768662.881,-13.43622477431548,0.0,-3.037980497362217,0.0
4530783662.8805,-13.426602852861226,0.0,-2.9662789018738804,0.0
4530798662.88,-13.42779330809498,0.0,-2.976028261584357,0.0
4530813662.8795,-13.436801073884281,0.0,-2.97474582635113,0.0
4530828662.879,-13.42107825103848,0.0,-2.98215247634038,0.0
4530843662.8785,-13.416155008930634,0.0,-2.994826951789591,0.0
4530858662.878,-13.431656254505295,0.0,-3.016298557527436,0.0
4530873662.8775,-13.427310103625505,0.0,-3.0168582921364435,0.0
4530888662.877,-13.431581137331163,0.0,-2.9417442574153942,0.0
4530903662.8765,-13.422914897920313,0.0,-2.9765754599120475,0.0
4530918662.876,-13.436395377284322,0.0,-3.0597380224755457,0.0
4530933662.8755,-13.426650645903383,0.0,-3.0643800896843185,0.0
4530948662.875,-13.430434359629661,0.0,-2.9938121164258873,0.0
4530963662.8745,-13.425104170003394,0.0,-3.0646328108803074,0.0
4530978662.874,-13.431937620767387,0.0,-2.9661376844666467,0.0
4530993662.8735,-13.419687025943805,0.0,-3.0217951330060693,0.0
4531008662.873,-13.421143408846401,0.0,-3.036358689220146,0.0
4531023662.8725,-13.427117379496643,0.0,-3.0276151469095747,0.0
4531038662.872,-13.429649311732986,0.0,-3.066153391852346,0.0
4531053662.8715,-13.424609457525388,0.0,-3.020917470064016,0.0
4531068662.871,-13.424925351272488,0.0,-3.0346439110394896,0.0
4531083662.8705,-13.439371186993888,0.0,-3.0204600698633928,0.0
4531098662.87,-13.435856662781607,0.0,-3.1582855880256564,0.0
4531113662.8695,-13.431378112293519,0.0,-3.0742617315627934,0.0
4531128662.869,-13.428841995538146,0.0,-3.0278089749026074,0.0
4531143662.8685,-13.426079171944638,0.0,-3.024230666369945,0.0
4531158662.868,-13.430954029678748,0.0,-3.0765920455476756,0.0
4531173662.8675,-13.431691797048897,0.0,-3.0791819131343217,0.0
4531188662.867,-13.431211863200275,0.0,-3.0757308077809924,0.0
4531203662.8665,-13.42855829128796,0.0,-3.0884853632209306,0.0
4531218662.866,-13.42751269773644,0.0,-3.0477460210123675,0.0
4531233662.8655,-13.432143625771955,0.0,-3.1027951315275986,0.0
4531248662.865,-13.431886478478345,0.0,-3.0644609276261625,0.0
4531263662.8645,-13.42338470530411,0.0,-3.1637370156668796,0.0
4531278662.864,-13.43303109159412,0.0,-3.1163673128382423,0.0
4531293662.8635,-13.439721070001074,0.0,-3.102016665809231,0.0
4531308662.863,-13.422780102119635,0.0,-3.065318333825046,0.0
4531323662.8625,-13.426139552453943,0.0,-3.137621817900891,0.0
4531338662.862,-13.43510847216364,0.0,-3.0822697818353637,0.0
4531353662.8615,-13.431841641923008,0.0,-3.2146443159140325,0.0
4531368662.861,-13.43105407972197,0.0,-3.1460218227777412,0.0
4531383662.8605,-13.433982189431532,0.0,-3.1121917251332234,0.0
4531398662.86,-13.435405765832023,0.0,-3.154162831993934,0.0
4531413662.8595,-13.432585802398725,0.0,-3.0555558634294027,0.0
4531428662.859,-13.4350668414909,0.0,-3.0745783581550064,0.0
4531443662.8585,-13.424503085250734,0.0,-3.1875147182721606,0.0
4531458662.858,-13.427447975091805,0.0,-3.1810432899969925,0.0
4531473662.8575,-13.432016347872427,0.0,-3.232370292521942,0.0
4531488662.857,-13.423533740366711,0.0,-3.154875434452754,0.0
4531503662.8565,-13.422446379142979,0.0,-3.1355552873327817,0.0
4531518662.856,-13.433174210375645,0.0,-3.1990624674076753,0.0
4531533662.8555,-13.430332768261717,0.0,-3.1421797765551176,0.0
4531548662.855,-13.429972813149337,0.0,-3.0960137390479887,0.0
4531563662.8545,-13.431267306071895,0.0,-3.234873404972573,0.0
4531578662.854,-13.433121609219905,0.0,-3.184247859346785,0.0
4531593662.8535,-13.4265534068854,0.0,-3.160465637463828,0.0
4531608662.853,-13.438969570327973,0.0,-3.1639340531730733,0.0
4531623662.8525,-13.43384036262421,0.0,-3.1239566169597364,0.0
4531638662.852,-13.428443115373698,0.0,-3.17437171381282,0.0
4531653662.8515,-13.426833168724803,0.0,-3.2521446977960706,0.0
4531668662.851,-13.427698919883868,0.0,-3.215791956781047,0.0
4531683662.8505,-13.428968238643415,0.0,-3.2511261627077666,0.0
4531698662.85,-13.427840820197208,0.0,-3.1745863475836047,0.0
4531713662.8495,-13.436759408035188,0.0,-3.137004734773844,0.0
4531728662.849,-13.4370838787558,0.0,-3.240471160983014,0.0
4531743662.8485,-13.425418425795135,0.0,-3.198135852255809,0.0
4531758662.848,-13.4348582008624,0.0,-3.1991295938609783,0.0
4531773662.8475,-13.436522914234597,0.0,-3.2345541849599715,0.0
4531788662.847,-13.435767033029462,0.0,-3.262955554294142,0.0
4531803662.8465,-13.43345514428725,0.0,-3.26034194077823,0.0
4531818662.846,-13.436073668829454,0.0,-3.224339854267081,0.0
4531833662.8455,-13.439912941699383,0.0,-3.228324414116523,0.0
4531848662.845,-13.432628147403394,0.0,-3.260988442478398,0.0
4531863662.8445,-13.428207072250597,0.0,-3.239840061795237,0.0
4531878662.844,-13.43749046259353,0.0,-3.179285122653066,0.0
