Frequency,S11,S11-Q,S11-Phase,S11-Phase-Q
4527198663.0,-13.419790172981884,0.0,-2.301561559908595,0.0
4527213662.9995,-13.415264997663897,0.0,-2.3352464571382097,0.0
4527228662.999,-13.417853181116431,0.0,-2.420354421284999,0.0
4527243662.9985,-13.427240126947728,0.0,-2.390056405860574,0.0
4527258662.998,-13.425666870802562,0.0,-2.342331929714235,0.0
4527273662.9975,-13.422475559856048,0.0,-2.3876613755123124,0.0
4527288662.997,-13.423876353077384,0.0,-2.353753859215149,0.0
4527303662.9965,-13.421033608254898,0.0,-2.3641155620594065,0.0
4527318662.996,-13.427642394681667,0.0,-2.3489938923604536,0.0
4527333662.9955,-13.417900553651505,0.0,-2.4286546880576085,0.0
4527348662.995,-13.426570601836794,0.0,-2.382684740674638,0.0
4527363662.9945,-13.426024723009839,0.0,-2.433387580114887,0.0
4527378662.994,-13.425494600892051,0.0,-2.3821686053875673,0.0
4527393662.9935,-13.419633300985225,0.0,-2.3853563267827003,0.0
4527408662.993,-13.415024862615033,0.0,-2.383855188934178,0.0
4527423662.9925,-13.42433156734863,0.0,-2.3678286345008854,0.0
4527438662.992,-13.420680337149506,0.0,-2.346526440123,0.0
4527453662.9915,-13.412389907830287,0.0,-2.429607987328097,0.0
4527468662.991,-13.421929359844668,0.0,-2.3200495485426678,0.0
4527483662.9905,-13.425298673035893,0.0,-2.369609128688302,0.0
4527498662.99,-13.417473849995849,0.0,-2.4215446023726797,0.0
4527513662.9895,-13.426014672525907,0.0,-2.4128269952187535,0.0
4527528662.989,-13.427490936951118,0.0,-2.4160464943787785,0.0
4527543662.9885,-13.425496066782278,0.0,-2.403749804916626,0.0
4527558662.988,-13.426147940226203,0.0,-2.426995848262757,0.0
4527573662.9875,-13.41861685517133,0.0,-2.3612205881341795,0.0
4527588662.987,-13.417826997975947,0.0,-2.431097388040202,0.0
4527603662.9865,-13.41666825825724,0.0,-2.444653047802686,0.0
4527618662.986,-13.425040904682335,0.0,-2.377304579029748,0.0
4527633662.9855,-13.423363524792368,0.0,-2.449032028216885,0.0
4527648662.985,-13.426884200014285,0.0,-2.4316410681563485,0.0
4527663662.9845,-13.41595192923039,0.0,-2.4720611160796127,0.0
4527678662.984,-13.428062827270331,0.0,-2.451566144114242,0.0
4527693662.9835,-13.42508077066475,0.0,-2.4106700484286505,0.0
4527708662.983,-13.42193663162806,0.0,-2.4170836648601486,0.0
4527723662.9825,-13.425402857769878,0.0,-2.4138785073354385,0.0
4527738662.982,-13.423039369623302,0.0,-2.4293080924830996,0.0
4527753662.9815,-13.42715038451387,0.0,-2.4329021920468263,0.0
4527768662.981,-13.416422716833393,0.0,-2.4576175318652353,0.0
4527783662.9805,-13.421711649620535,0.0,-2.4736392840385037,0.0
4527798662.98,-13.423372929190819,0.0,-2.43296102644478,0.0
4527813662.9795,-13.42735095530134,0.0,-2.4592636734921274,0.0
4527828662.979,-13.416989111988505,0.0,-2.4435136792918932,0.0
4527843662.9785,-13.423284037532481,0.0,-2.513394355274941,0.0
4527858662.978,-13.422002445317592,0.0,-2.442134519426522,0.0
4527873662.9775,-13.420571860915091,0.0,-2.4502114012351464,0.0
4527888662.977,-13.420512384940192,0.0,-2.415578002641497,0.0
4527903662.9765,-13.421946747085961,0.0,-2.4652701665949808,0.0
4527918662.976,-13.427585287764117,0.0,-2.4021765194804194,0.0
4527933662.9755,-13.422569929655477,0.0,-2.4695297344374865,0.0
4527948662.975,-13.419823360778047,0.0,-2.413824963193445,0.0
4527963662.9745,-13.420973127347422,0.0,-2.4388851945267294,0.0
4527978662.974,-13.426740139800401,0.0,-2.472045968736029,0.0
4527993662.9735,-13.425635485794995,0.0,-2.4512778762413765,0.0
4528008662.973,-13.428159841453404,0.0,-2.489952003432062,0.0
4528023662.9725,-13.417939102680368,0.0,-2.4769741786761177,0.0
4528038662.972,-13.431978345714484,0.0,-2.4971637978235393,0.0
4528053662.9715,-13.418479218351367,0.0,-2.516301497791822,0.0
4528068662.971,-13.42103187143904,0.0,-2.4506724233199253,0.0
4528083662.9705,-13.422176565660518,0.0,-2.4903130548310486,0.0
4528098662.97,-13.426362899468696,0.0,-2.4318838588841514,0.0
4528113662.9695,-13.421978708115452,0.0,-2.5120479154476962,0.0
4528128662.969,-13.429940833700444,0.0,-2.5011583208544823,0.0
4528143662.9685,-13.416132861506416,0.0,-2.4781437224362572,0.0
4528158662.968,-13.423076513337834,0.0,-2.4868643622485496,0.0
4528173662.9675,-13.417748622534443,0.0,-2.5302092758071337,0.0
4528188662.967,-13.433697997617212,0.0,-2.5288493528811564,0.0
4528203662.9665,-13.427548812425085,0.0,-2.4631738536374397,0.0
4528218662.966,-13.429675110634767,0.0,-2.4975241739723333,0.0
4528233662.9655,-13.423969105642865,0.0,-2.478711155167041,0.0
4528248662.965,-13.42623580838618,0.0,-2.5494251004852506,0.0
4528263662.9645,-13.436636987149491,0.0,-2.4775122908163607,0.0
4528278662.964,-13.41371941973069,0.0,-2.5333186303263835,0.0
4528293662.9635,-13.414657194301977,0.0,-2.5252385260127417,0.0
4528308662.963,-13.419648534573444,0.0,-2.52230352250531,0.0
4528323662.9625,-13.420367585221552,0.0,-2.5113447614294064,0.0
4528338662.962,-13.419668103952791,0.0,-2.5117080251710093,0.0
4528353662.9615,-13.423281388557262,0.0,-2.5347351878893187,0.0
4528368662.961,-13.425093917742132,0.0,-2.5571814673099413,0.0
4528383662.9605,-13.413711257394919,0.0,-2.52531100816753,0.0
4528398662.96,-13.433016277133634,0.0,-2.478468477601714,0.0
4528413662.9595,-13.426890511727443,0.0,-2.5097519943243074,0.0
4528428662.959,-13.422073889821508,0.0,-2.590594735850617,0.0
4528443662.9585,-13.419185793202914,0.0,-2.5383400761509485,0.0
4528458662.958,-13.41913640445523,0.0,-2.556853485328186,0.0
4528473662.9575,-13.432522055106402,0.0,-2.5381116865075137,0.0
4528488662.957,-13.422506221728712,0.0,-2.457957398181472,0.0
4528503662.9565,-13.434248056130595,0.0,-2.5298986269161845,0.0
4528518662.956,-13.43169779664829,0.0,-2.600413237000238,0.0
4528533662.9555,-13.423441103417783,0.0,-2.545351154808818,0.0
4528548662.955,-13.422414845378409,0.0,-2.519189715512351,0.0
4528563662.9545,-13.416716632919126,0.0,-2.584934034347998,0.0
4528578662.954,-13.41915610281202,0.0,-2.5589203258049187,0.0
4528593662.9535,-13.42512020623355,0.0,-2.578469334262825,0.0
4528608662.953,-13.428567566726866,0.0,-2.533681203869695,0.0
4528623662.9525,-13.428079993391114,0.0,-2.568394782433688,0.0
4528638662.952,-13.428874870817971,0.0,-2.586031781182877,0.0
4528653662.9515,-13.42507417194559,0.0,-2.495618789690668,0.0
4528668662.951,-13.412271440137264,0.0,-2.564499193369175,0.0
4528683662.9505,-13.431256149681259,0.0,-2.5920999816509074,0.0
4528698662.95,-13.422019475210739,0.0,-2.5800115309415426,0.0
4528713662.9495,-13.42474713883277,0.0,-2.558201280455731,0.0
4528728662.949,-13.424980491410246,0.0,-2.5892418873960383,0.0
4528743662.9485,-13.426713083148352,0.0,-2.5700219723920483,0.0
4528758662.948,-13.424035896895052,0.0,-2.563310083361563,0.0
4528773662.9475,-13.42974941795908,0.0,-2.549856016041982,0.0
4528788662.947,-13.426136563077815,0.0,-2.618297548676778,0.0
4528803662.9465,-13.42310870282871,0.0,-2.622556570625556,0.0
4528818662.946,-13.415682312501357,0.0,-2.6123677649552284,0.0
4528833662.9455,-13.423912381524772,0.0,-2.628650548751121,0.0
4528848662.945,-13.421811543846902,0.0,-2.6054501714369662,0.0
4528863662.9445,-13.418567264520505,0.0,-2.592089668956657,0.0
4528878662.944,-13.43835907373265,0.0,-2.6171004075482505,0.0
4528893662.9435,-13.42748037482897,0.0,-2.6028296894550262,0.0
4528908662.943,-13.429299561084855,0.0,-2.60444387151845,0.0
4528923662.9425,-13.416320766515408,0.0,-2.6099076713931333,0.0
4528938662.942,-13.425962896394669,0.0,-2.600883246185402,0.0
4528953662.9415,-13.422097570375817,0.0,-2.605739704259143,0.0
4528968662.941,-13.422939365227094,0.0,-2.6193346039021876,0.0
4528983662.9405,-13.419719316743137,0.0,-2.652870910581512,0.0
4528998662.94,-13.430718744815186,0.0,-2.667374149504504,0.0
4529013662.9395,-13.422879668081976,0.0,-2.5996852291279144,0.0
4529028662.939,-13.433648960522826,0.0,-2.6089349666226194,0.0
4529043662.9385,-13.433545081112918,0.0,-2.6420530817741965,0.0
4529058662.938,-13.428178094754697,0.0,-2.6148678235242473,0.0
4529073662.9375,-13.417985671594245,0.0,-2.5850894357760854,0.0
4529088662.937,-13.426574201447497,0.0,-2.631360776957322,0.0
4529103662.9365,-13.425170970764324,0.0,-2.6266556301310158,0.0
4529118662.936,-13.432904508853605,0.0,-2.579538062955494,0.0
4529133662.9355,-13.43752554002058,0.0,-2.639946710808829,0.0
4529148662.935,-13.435434564637125,0.0,-2.6568192867741445,0.0
4529163662.9345,-13.436892636657664,0.0,-2.6913896668407586,0.0
4529178662.934,-13.42600333013179,0.0,-2.6390142996633084,0.0
4529193662.9335,-13.427183210531473,0.0,-2.6164724929001344,0.0
4529208662.933,-13.418451656326047,0.0,-2.718715637208457,0.0
4529223662.9325,-13.422791920866771,0.0,-2.659883165567793,0.0
4529238662.932,-13.421400779438473,0.0,-2.6334329078681207,0.0
4529253662.9315,-13.428980586476914,0.0,-2.660078131769058,0.0
4529268662.931,-13.42584252156723,0.0,-2.652411066661657,0.0
4529283662.9305,-13.429860856970395,0.0,-2.6758691462301316,0.0
4529298662.93,-13.434688339889805,0.0,-2.645592387701508,0.0
4529313662.9295,-13.433150273510648,0.0,-2.659249677857652,0.0
4529328662.929,-13.42235694476042,0.0,-2.652354609621409,0.0
4529343662.9285,-13.427669688951484,0.0,-2.6626758912100508,0.0
4529358662.928,-13.439145822046111,0.0,-2.7272389633074545,0.0
4529373662.9275,-13.422999170131755,0.0,-2.706059193477843,0.0
4529388662.927,-13.421827528506398,0.0,-2.6576891896858448,0.0
4529403662.9265,-13.428687189405862,0.0,-2.6552181841680875,0.0
4529418662.926,-13.42066682841313,0.0,-2.693310231677664,0.0
4529433662.9255,-13.425042351792492,0.0,-2.5958030018689584,0.0
4529448662.925,-13.431943418909126,0.0,-2.677144789493577,0.0
4529463662.9245,-13.427993179479909,0.0,-2.672869183799689,0.0
4529478662.924,-13.421207098921272,0.0,-2.698856918660836,0.0
4529493662.9235,-13.429718401024612,0.0,-2.641464673918441,0.0
4529508662.923,-13.431353303174035,0.0,-2.735546570521669,0.0
4529523662.9225,-13.421345389951787,0.0,-2.689249910360937,0.0
4529538662.922,-13.430311820530816,0.0,-2.736705548968453,0.0
4529553662.9215,-13.4273218247511,0.0,-2.7416609712834497,0.0
4529568662.921,-13.43081947108547,0.0,-2.7183017171686785,0.0
4529583662.9205,-13.420223264085454,0.0,-2.6870240109204167,0.0
4529598662.92,-13.424115113963172,0.0,-2.7449184019406414,0.0
4529613662.9195,-13.432265282553935,0.0,-2.713031001099348,0.0
4529628662.919,-13.425433140840529,0.0,-2.7011811806724286,0.0
4529643662.9185,-13.427751773464433,0.0,-2.7763286844176043,0.0
4529658662.918,-13.43500311572883,0.0,-2.665317243009821,0.0
4529673662.9175,-13.430809758491318,0.0,-2.7005458937894584,0.0
4529688662.917,-13.434169947707508,0.0,-2.741528611106343,0.0
4529703662.9165,-13.435349504062684,0.0,-2.704041452726239,0.0
4529718662.916,-13.428875307212724,0.0,-2.6859064067528187,0.0
4529733662.9155,-13.424921769254432,0.0,-2.7476948520605746,0.0
4529748662.915,-13.421214047719426,0.0,-2.750556084750012,0.0
4529763662.9145,-13.426399224709453,0.0,-2.7377545878849077,0.0
4529778662.914,-13.428138993881332,0.0,-2.781525544073561,0.0
4529793662.9135,-13.422361987260432,0.0,-2.793102909421403,0.0
4529808662.913,-13.429897564136121,0.0,-2.762777821963596,0.0
4529823662.9125,-13.428250156442669,0.0,-2.7840145984304128,0.0
4529838662.912,-13.437729130597,0.0,-2.7267959478426267,0.0
4529853662.9115,-13.426378722445719,0.0,-2.8081271913398735,0.0
4529868662.911,-13.42863530186582,0.0,-2.785179730526872,0.0
4529883662.9105,-13.421982266816691,0.0,-2.794130522224832,0.0
4529898662.91,-13.435776471363743,0.0,-2.749249518718186,0.0
4529913662.9095,-13.42447085011372,0.0,-2.793683361011685,0.0
4529928662.909,-13.429835392671627,0.0,-2.7543797285350293,0.0
4529943662.9085,-13.42191084500677,0.0,-2.787130553041291,0.0
4529958662.908,-13.425838777757189,0.0,-2.82534907084255,0.0
4529973662.9075,-13.434513367406256,0.0,-2.821699397893448,0.0
4529988662.907,-13.418951266087024,0.0,-2.856147604812675,0.0
4530003662.9065,-13.429993966605679,0.0,-2.749603806873515,0.0
4530018662.906,-13.429351630460602,0.0,-2.8508332980287343,0.0
4530033662.9055,-13.434833504293824,0.0,-2.8375199071137356,0.0
4530048662.905,-13.433099423876397,0.0,-2.852006868955925,0.0
4530063662.9045,-13.427921062099013,0.0,-2.8437436916513428,0.0
4530078662.904,-13.425228442821604,0.0,-2.7842934940471005,0.0
4530093662.9035,-13.432994865512299,0.0,-2.8046586340337942,0.0
4530108662.903,-13.429275126531593,0.0,-2.8300007758159924,0.0
4530123662.9025,-13.435160247748641,0.0,-2.8360383470531616,0.0
4530138662.902,-13.42605310987771,0.0,-2.7500243135364815,0.0
4530153662.9015,-13.424205854685685,0.0,-2.7890557527767816,0.0
4530168662.901,-13.431317194558854,0.0,-2.7806658713633086,0.0
4530183662.9005,-13.436362095535477,0.0,-2.851897015235095,0.0
4530198662.9,-13.435369642018388,0.0,-2.814758709732976,0.0
4530213662.8995,-13.42467616157752,0.0,-2.8680069047805965,0.0
4530228662.899,-13.429198036749426,0.0,-2.824574228821036,0.0
4530243662.8985,-13.43090925120163,0.0,-2.903219683318368,0.0
4530258662.898,-13.425736227114726,0.0,-2.8534136536089734,0.0
4530273662.8975,-13.427874362374348,0.0,-2.8699465509794546,0.0
4530288662.897,-13.42419626061,0.0,-2.8207926028681922,0.0
4530303662.8965,-13.421825042311752,0.0,-2.918995079630793,0.0
4530318662.896,-13.42706592050746,0.0,-2.846638348675061,0.0
4530333662.8955,-13.439864392531458,0.0,-2.8576035724452735,0.0
4530348662.895,-13.414500851963727,0.0,-2.882950218564517,0.0
4530363662.8945,-13.42406739329583,0.0,-2.9250799349783874,0.0
4530378662.894,-13.438788827315962,0.0,-2.8003027909523297,0.0
4530393662.8935,-13.427744360700714,0.0,-2.851471099328324,0.0
4530408662.893,-13.426236571693963,0.0,-2.8256061661613714,0.0
4530423662.8925,-13.431268246813184,0.0,-2.930917283875099,0.0
4530438662.892,-13.427824766476643,0.0,-2.857386972018435,0.0
4530453662.8915,-13.430205689298308,0.0,-2.8816817990675587,0.0
4530468662.891,-13.43634429778337,0.0,-2.8114055820598454,0.0
4530483662.8905,-13.431153582629044,0.0,-2.8250456004753692,0.0
4530498662.89,-13.433833466246746,0.0,-2.8672785732847146,0.0
4530513662.8895,-13.422582358131233,0.0,-2.852449439613719,0.0
4530528662.889,-13.428054790709554,0.0,-2.8700873637612863,0.0
4530543662.8885,-13.433650891417601,0.0,-2.947744342895226,0.0
4530558662.888,-13.433527719248904,0.0,-2.890839352133222,0.0
4530573662.8875,-13.431123939459134,0.0,-2.9167519975734635,0.0
4530588662.887,-13.421998094901033,0.0,-2.878739708890204,0.0
4530603662.8865,-13.433348884891723,0.0,-2.840064465994108,0.0
4530618662.886,-13.435205659610494,0.0,-2.9590119790273364,0.0
4530633662.8855,-13.43011894347094,0.0,-2.984789086233526,0.0
4530648662.885,-13.431212309042026,0.0,-2.960338082183883,0.0
4530663662.8845,-13.438650811777615,0.0,-2.862127187840178,0.0
4530678662.884,-13.435857291924933,0.0,-2.9412653160826396,0.0
4530693662.8835,-13.427196058106007,0.0,-2.8872946553535077,0.0
4530708662.883,-13.430244315173717,0.0,-2.945676855625632,0.0
4530723662.8825,-13.440449663673675,0.0,-2.938376487031484,0.0
4530738662.882,-13.429313230158515,0.0,-2.969468814469478,0.0
4530753662.8815,-13.431912080452626,0.0,-2.956946860620697,0.0
4530768662.881,-13.431522882089386,0.0,-2.9790719834330965,0.0
4530783662.8805,-13.428566862659077,0.0,-2.95417534296731,0.0
4530798662.88,-13.431336215291164,0.0,-2.997858189045647,0.0
4530813662.8795,-13.432160312817974,0.0,-2.954352673044354,0.0
4530828662.879,-13.432203568400316,0.0,-2.95654879095707,0.0
4530843662.8785,-13.436581455638068,0.0,-2.933904342506465,0.0
4530858662.878,-13.43732064679983,0.0,-2.9908684234560385,0.0
4530873662.8775,-13.433222870574145,0.0,-2.898244205944016,0.0
4530888662.877,-13.427607819540782,0.0,-2.9587259653676274,0.0
4530903662.8765,-13.431588782440475,0.0,-3.005556698115073,0.0
4530918662.876,-13.427923750049967,0.0,-2.972122129779127,0.0
4530933662.8755,-13.428573119184994,0.0,-2.923021466721311,0.0
4530948662.875,-13.43295670874645,0.0,-3.006518509596082,0.0
4530963662.8745,-13.43095871604602,0.0,-3.001228642667958,0.0
4530978662.874,-13.440268050931092,0.0,-3.005402130141859,0.0
4530993662.8735,-13.440842261418952,0.0,-3.021189705364566,0.0
4531008662.873,-13.43349602338408,0.0,-2.9948537126459427,0.0
4531023662.8725,-13.434187835111576,0.0,-2.9655373136748917,0.0
4531038662.872,-13.434807191244712,0.0,-3.023032703760447,0.0
4531053662.8715,-13.434230545312978,0.0,-3.046634344386594,0.0
4531068662.871,-13.430520899884367,0.0,-2.9797442297889227,0.0
4531083662.8705,-13.42368550062764,0.0,-3.0074323036458543,0.0
4531098662.87,-13.44368772620613,0.0,-2.9832727880560257,0.0
4531113662.8695,-13.426047633779795,0.0,-3.024871510972862,0.0
4531128662.869,-13.433063100620505,0.0,-3.0333262793160802,0.0
4531143662.8685,-13.430847767716081,0.0,-3.005765649433667,0.0
4531158662.868,-13.436273784711483,0.0,-3.039399785998621,0.0
4531173662.8675,-13.425680638002024,0.0,-2.9606876825795503,0.0
4531188662.867,-13.432261699781233,0.0,-2.996825502599285,0.0
4531203662.8665,-13.438286594692116,0.0,-3.0078474316332646,0.0
4531218662.866,-13.441339644440461,0.0,-3.016101506278079,0.0
4531233662.8655,-13.43571941498421,0.0,-3.047763017878659,0.0
4531248662.865,-13.430926346032784,0.0,-3.012308453002099,0.0
4531263662.8645,-13.431725007050762,0.0,-3.0972332241035168,0.0
4531278662.864,-13.442838967253508,0.0,-3.0878872926193908,0.0
4531293662.8635,-13.444551177413812,0.0,-3.08660080065182,0.0
4531308662.863,-13.42811653027633,0.0,-3.0483105722625226,0.0
4531323662.8625,-13.440917471904017,0.0,-3.062859310186179,0.0
4531338662.862,-13.435905430580739,0.0,-3.0997238576187915,0.0
4531353662.8615,-13.441096331160665,0.0,-3.0537383583028577,0.0
4531368662.861,-13.429758046454715,0.0,-3.1023633174279204,0.0
4531383662.8605,-13.43602112444823,0.0,-3.059660605760973,0.0
4531398662.86,-13.426541699788846,0.0,-3.096746425697469,0.0
4531413662.8595,-13.428544141296854,0.0,-3.0542084633490485,0.0
4531428662.859,-13.442806718937778,0.0,-3.0982422331527846,0.0
4531443662.8585,-13.436806807813806,0.0,-3.080878116764829,0.0
4531458662.858,-13.44374724682976,0.0,-3.1320972218112484,0.0
4531473662.8575,-13.434187014449378,0.0,-3.1104064438028756,0.0
4531488662.857,-13.443337081162241,0.0,-3.0481406318186672,0.0
4531503662.8565,-13.439491947609243,0.0,-3.1497525730530707,0.0
4531518662.856,-13.433623560015715,0.0,-3.116733154450018,0.0
4531533662.8555,-13.437647727723467,0.0,-3.167296899272548,0.0
4531548662.855,-13.438548690399978,0.0,-3.0806319295819007,0.0
4531563662.8545,-13.431079989223317,0.0,-3.100951595541247,0.0
4531578662.854,-13.433780751716869,0.0,-3.131088328750931,0.0
4531593662.8535,-13.4403131253755,0.0,-3.1149687277503912,0.0
4531608662.853,-13.4385902997165,0.0,-3.0764921073394826,0.0
4531623662.8525,-13.439348490099851,0.0,-3.1751789291914165,0.0
4531638662.852,-13.437117461671663,0.0,-3.159455442001598,0.0
4531653662.8515,-13.434500483027321,0.0,-3.1274024652978127,0.0
4531668662.851,-13.433262051129596,0.0,-3.11357300458543,0.0
4531683662.8505,-13.440941700525688,0.0,-3.0948481924128384,0.0
4531698662.85,-13.434439248527383,0.0,-3.195452384691054,0.0
4531713662.8495,-13.43898242023762,0.0,-3.1617719373515922,0.0
4531728662.849,-13.430673347332164,0.0,-3.1567402011250545,0.0
4531743662.8485,-13.439036939014116,0.0,-3.1860025054483962,0.0
4531758662.848,-13.431764334210492,0.0,-3.134430161315451,0.0
4531773662.8475,-13.438777524250023,0.0,-3.140510587927798,0.0
4531788662.847,-13.434542059893628,0.0,-3.1446741621898258,0.0
4531803662.8465,-13.447226996971931,0.0,-3.1807785552556513,0.0
4531818662.846,-13.438225495685188,0.0,-3.19990617559335,0.0
4531833662.8455,-13.440212142572916,0.0,-3.130312176697018,0.0
4531848662.845,-13.43648489558497,0.0,-3.2058904368748036,0.0
4531863662.8445,-13.43907574269345,0.0,-3.1742905169064755,0.0
4531878662.844,-13.428522706867671,0.0,-3.161296380782181,0.0
