Frequency,S11,S11-Q,S11-Phase,S11-Phase-Q
4527198663.0,-13.508291815002298,0.0,-1.9171684233977888,0.0
4527213662.9995,-13.507718385800331,0.0,-1.9568942140606411,0.0
4527228662.999,-13.50819988282289,0.0,-1.9701621663906377,0.0
4527243662.9985,-13.505282257134173,0.0,-1.8935771194986581,0.0
4527258662.998,-13.504091044893476,0.0,-1.9775069963905239,0.0
4527273662.9975,-13.51204407930375,0.0,-2.0010349702548873,0.0
4527288662.997,-13.50743491312584,0.0,-1.9873906620138377,0.0
4527303662.9965,-13.500992091513687,0.0,-1.9502638398808312,0.0
4527318662.996,-13.506084597689567,0.0,-1.9154678705821824,0.0
4527333662.9955,-13.51221036328843,0.0,-1.9140015056859974,0.0
4527348662.995,-13.508989454143341,0.0,-1.9672872905925178,0.0
4527363662.9945,-13.514193319277425,0.0,-1.947110156636842,0.0
4527378662.994,-13.5066754355107,0.0,-1.9478741335477734,0.0
4527393662.9935,-13.514943295085173,0.0,-2.031372457528862,0.0
4527408662.993,-13.511023164438507,0.0,-1.989574838471617,0.0
4527423662.9925,-13.506723294100947,0.0,-1.9821781984751838,0.0
4527438662.992,-13.50350955871691,0.0,-1.9318028465906287,0.0
4527453662.9915,-13.496735489141752,0.0,-1.9129681995522316,0.0
4527468662.991,-13.513027329353221,0.0,-1.9124053738069318,0.0
4527483662.9905,-13.496836857801092,0.0,-1.957195720063659,0.0
4527498662.99,-13.49292000457175,0.0,-2.005063723743351,0.0
4527513662.9895,-13.513357831830463,0.0,-1.9671558823384374,0.0
4527528662.989,-13.507898478069922,0.0,-1.9465596545921018,0.0
4527543662.9885,-13.495938766678492,0.0,-1.9462098784073874,0.0
4527558662.988,-13.508393756377668,0.0,-1.9711370435100513,0.0
4527573662.9875,-13.50046282582631,0.0,-1.9645436686649678,0.0
4527588662.987,-13.499947782544792,0.0,-1.99043219920396,0.0
4527603662.9865,-13.501606694245528,0.0,-1.9833776064033453,0.0
4527618662.986,-13.501961772892138,0.0,-1.9716463907464594,0.0
4527633662.9855,-13.491342127208592,0.0,-1.9461503666746556,0.0
4527648662.985,-13.508425964279812,0.0,-1.9805790771720164,0.0
4527663662.9845,-13.502571401603017,0.0,-1.9943751920213897,0.0
4527678662.984,-13.503962447044751,0.0,-1.984709073062516,0.0
4527693662.9835,-13.507543511831738,0.0,-1.9808551742021376,0.0
4527708662.983,-13.5097048676003,0.0,-1.99638810345961,0.0
4527723662.9825,-13.497368555343286,0.0,-1.9844021917647352,0.0
4527738662.982,-13.49844964130752,0.0,-1.956631280814516,0.0
4527753662.9815,-13.501429168966014,0.0,-2.00701824673461,0.0
4527768662.981,-13.49820921885071,0.0,-1.955172441894446,0.0
4527783662.9805,-13.498467529052046,0.0,-2.0391130172269136,0.0
4527798662.98,-13.49964820122854,0.0,-2.003770461999276,0.0
4527813662.9795,-13.50401786719872,0.0,-1.9362870641426446,0.0
4527828662.979,-13.50288750504448,0.0,-1.9858603513307038,0.0
4527843662.9785,-13.497644507566399,0.0,-2.0042638337317817,0.0
4527858662.978,-13.497768510948378,0.0,-2.0314357254900406,0.0
4527873662.9775,-13.502359069106609,0.0,-1.9547571379246704,0.0
4527888662.977,-13.508601525116777,0.0,-1.9334771777723478,0.0
4527903662.9765,-13.49447613996638,0.0,-2.0020243582516213,0.0
4527918662.976,-13.497615849815109,0.0,-2.0425262040199343,0.0
4527933662.9755,-13.503930016289026,0.0,-2.0532431657212307,0.0
4527948662.975,-13.492009935664521,0.0,-2.046700091656766,0.0
4527963662.9745,-13.507012264968758,0.0,-1.9464954525877252,0.0
4527978662.974,-13.503312403347643,0.0,-1.9821497663920766,0.0
4527993662.9735,-13.503160170121447,0.0,-2.029322394736683,0.0
4528008662.973,-13.49977293602836,0.0,-2.003629258751743,0.0
4528023662.9725,-13.5007705447758,0.0,-2.005987145062711,0.0
4528038662.972,-13.496252097564884,0.0,-2.0109441919368995,0.0
4528053662.9715,-13.495444165135028,0.0,-2.0441486532658355,0.0
4528068662.971,-13.491467311824945,0.0,-1.979727566985186,0.0
4528083662.9705,-13.499921642660787,0.0,-2.0593448636518645,0.0
4528098662.97,-13.499036433671218,0.0,-2.0715470181809605,0.0
4528113662.9695,-13.501251335891169,0.0,-2.001964916745989,0.0
4528128662.969,-13.499234561000605,0.0,-2.0958061300686674,0.0
4528143662.9685,-13.508798085562265,0.0,-2.0026441986398047,0.0
4528158662.968,-13.499683540390244,0.0,-2.050997639268798,0.0
4528173662.9675,-13.500834203528875,0.0,-2.035348129623969,0.0
4528188662.967,-13.499370566613305,0.0,-2.0412783800724017,0.0
4528203662.9665,-13.497134429641953,0.0,-1.9727450939958155,0.0
4528218662.966,-13.494479643447834,0.0,-2.0474206573881206,0.0
4528233662.9655,-13.493044338942031,0.0,-1.989364415548845,0.0
4528248662.965,-13.494466253087193,0.0,-2.0456687735455903,0.0
4528263662.9645,-13.504976584433244,0.0,-2.060215044546463,0.0
4528278662.964,-13.507332992094124,0.0,-2.010787019731933,0.0
4528293662.9635,-13.498122901810234,0.0,-2.0581839253160177,0.0
4528308662.963,-13.508708834004231,0.0,-2.0605215976403044,0.0
4528323662.9625,-13.494586535849074,0.0,-2.0788274268368823,0.0
4528338662.962,-13.502172151189388,0.0,-2.0107298363746784,0.0
4528353662.9615,-13.493868708468925,0.0,-2.114845277760597,0.0
4528368662.961,-13.48892105023088,0.0,-2.0284424961672265,0.0
4528383662.9605,-13.496996529412971,0.0,-2.091761123177402,0.0
4528398662.96,-13.489779816347603,0.0,-2.081148536978225,0.0
4528413662.9595,-13.504073519335115,0.0,-2.0403477792829783,0.0
4528428662.959,-13.502610196267877,0.0,-2.058943830711666,0.0
4528443662.9585,-13.5012528725452,0.0,-2.048330361087174,0.0
4528458662.958,-13.48391817711968,0.0,-2.09379626372897,0.0
4528473662.9575,-13.504065135875347,0.0,-2.042906728036133,0.0
4528488662.957,-13.504005489489508,0.0,-2.1068677061312377,0.0
4528503662.9565,-13.500464078118032,0.0,-2.061244079789322,0.0
4528518662.956,-13.498430988377475,0.0,-2.1155445171169434,0.0
4528533662.9555,-13.487801393016028,0.0,-2.0917872453568895,0.0
4528548662.955,-13.496984862996356,0.0,-2.084745671515974,0.0
4528563662.9545,-13.501381413208733,0.0,-2.1221962634511704,0.0
4528578662.954,-13.49694072672488,0.0,-2.0534117510689334,0.0
4528593662.9535,-13.500390335756961,0.0,-2.1172074337212115,0.0
4528608662.953,-13.492482713318811,0.0,-2.061362679741081,0.0
4528623662.9525,-13.496370024959498,0.0,-2.0605583658945816,0.0
4528638662.952,-13.486272496984279,0.0,-2.0608807557756954,0.0
4528653662.9515,-13.491179985460729,0.0,-2.0425572317456084,0.0
4528668662.951,-13.497195661012931,0.0,-2.068182605937368,0.0
4528683662.9505,-13.495329957257589,0.0,-2.075632589922515,0.0
4528698662.95,-13.494294945796517,0.0,-2.0423934745030663,0.0
4528713662.9495,-13.511715356056317,0.0,-2.108054651947109,0.0
4528728662.949,-13.500215895856428,0.0,-2.0168379534125718,0.0
4528743662.9485,-13.49238388945227,0.0,-2.097594267600548,0.0
4528758662.948,-13.494073542826634,0.0,-2.1589117786111807,0.0
4528773662.9475,-13.499836480078173,0.0,-2.034060801742291,0.0
4528788662.947,-13.485062982765744,0.0,-2.0847992265462345,0.0
4528803662.9465,-13.494637340459562,0.0,-2.143586006268983,0.0
4528818662.946,-13.500710926608532,0.0,-2.122332668366015,0.0
4528833662.9455,-13.497843500619917,0.0,-2.072891162015102,0.0
4528848662.945,-13.497698647487733,0.0,-2.1217076082087973,0.0
4528863662.9445,-13.492935341985188,0.0,-2.075230562834095,0.0
4528878662.944,-13.49200580571003,0.0,-2.0471191603819374,0.0
4528893662.9435,-13.486471809704096,0.0,-2.081011188034299,0.0
4528908662.943,-13.482537345543598,0.0,-2.0821420544233424,0.0
4528923662.9425,-13.493164378522927,0.0,-2.0784685489458323,0.0
4528938662.942,-13.496287288435207,0.0,-2.1586962798890577,0.0
4528953662.9415,-13.493724347498864,0.0,-2.0982315462451053,0.0
4528968662.941,-13.487214817667487,0.0,-2.1418767634651963,0.0
4528983662.9405,-13.497306333130634,0.0,-2.163950919842654,0.0
4528998662.94,-13.493546262200882,0.0,-2.157418901642031,0.0
4529013662.9395,-13.488668839054744,0.0,-2.126028935146712,0.0
4529028662.939,-13.481311818338202,0.0,-2.1214252803904765,0.0
4529043662.9385,-13.492482820118138,0.0,-2.1367991344507162,0.0
4529058662.938,-13.488438250131168,0.0,-2.150271367652104,0.0
4529073662.9375,-13.488063222848663,0.0,-2.1487157006757736,0.0
4529088662.937,-13.484074543104065,0.0,-2.100348952850801,0.0
4529103662.9365,-13.501091827763453,0.0,-2.175557109002052,0.0
4529118662.936,-13.493153724567659,0.0,-2.1671121921169405,0.0
4529133662.9355,-13.494072965272707,0.0,-2.172696802142413,0.0
4529148662.935,-13.487503529637618,0.0,-2.1113089522080175,0.0
4529163662.9345,-13.487970075678941,0.0,-2.112325927766185,0.0
4529178662.934,-13.487598077118122,0.0,-2.122309021528598,0.0
4529193662.9335,-13.487950347848923,0.0,-2.139739700046028,0.0
4529208662.933,-13.5026236915864,0.0,-2.149352692167239,0.0
4529223662.9325,-13.497580172350236,0.0,-2.182121537468298,0.0
4529238662.932,-13.499400165003816,0.0,-2.1133986878338575,0.0
4529253662.9315,-13.489675471839762,0.0,-2.096113486448171,0.0
4529268662.931,-13.47667921795847,0.0,-2.138265724224347,0.0
4529283662.9305,-13.497295996272813,0.0,-2.162048033230881,0.0
4529298662.93,-13.496219121404451,0.0,-2.158544060766294,0.0
4529313662.9295,-13.493756462825901,0.0,-2.1722022062703297,0.0
4529328662.929,-13.49325353077965,0.0,-2.194541218303742,0.0
4529343662.9285,-13.49653123232512,0.0,-2.1895906888485706,0.0
4529358662.928,-13.488775384627498,0.0,-2.169088583454609,0.0
4529373662.9275,-13.489753950462859,0.0,-2.208968864418131,0.0
4529388662.927,-13.485898810799451,0.0,-2.1829266157884972,0.0
4529403662.9265,-13.490155084456411,0.0,-2.209100410735478,0.0
4529418662.926,-13.493210455690349,0.0,-2.2552046834558417,0.0
4529433662.9255,-13.495337663501354,0.0,-2.2486600648975665,0.0
4529448662.925,-13.479207490531342,0.0,-2.2094191342676455,0.0
4529463662.9245,-13.489377714158861,0.0,-2.224018500074962,0.0
4529478662.924,-13.492954710383732,0.0,-2.131563426118708,0.0
4529493662.9235,-13.492223974309415,0.0,-2.194220733705676,0.0
4529508662.923,-13.487763519630835,0.0,-2.24173828013001,0.0
4529523662.9225,-13.49427216387441,0.0,-2.1780413201749464,0.0
4529538662.922,-13.487517713137489,0.0,-2.2637410015720953,0.0
4529553662.9215,-13.475181241961138,0.0,-2.1887252491537272,0.0
4529568662.921,-13.486991813924703,0.0,-2.218285795052257,0.0
4529583662.9205,-13.487582089817856,0.0,-2.2033132716210693,0.0
4529598662.92,-13.491573621148763,0.0,-2.229963873072287,0.0
4529613662.9195,-13.497319455997104,0.0,-2.2464086652708737,0.0
4529628662.919,-13.48540555468058,0.0,-2.2176033836383064,0.0
4529643662.9185,-13.487758818025188,0.0,-2.1967691115568924,0.0
4529658662.918,-13.493158917143864,0.0,-2.200824995999592,0.0
4529673662.9175,-13.49629085172215,0.0,-2.165780157382957,0.0
4529688662.917,-13.484234152119797,0.0,-2.189530673944711,0.0
4529703662.9165,-13.492949767068886,0.0,-2.2214074368476995,0.0
4529718662.916,-13.4863022251204,0.0,-2.2588554734067188,0.0
4529733662.9155,-13.501404257570883,0.0,-2.160095071425095,0.0
4529748662.915,-13.492667657773616,0.0,-2.220596385462115,0.0
4529763662.9145,-13.492266799163588,0.0,-2.220843470336723,0.0
4529778662.914,-13.491422744447592,0.0,-2.2801066201000184,0.0
4529793662.9135,-13.486761109435575,0.0,-2.219253031138294,0.0
4529808662.913,-13.4818095050632,0.0,-2.3212088984474577,0.0
4529823662.9125,-13.495763661909823,0.0,-2.2373212720780757,0.0
4529838662.912,-13.482999412481888,0.0,-2.24488156579313,0.0
4529853662.9115,-13.489624526391125,0.0,-2.2273208644639086,0.0
4529868662.911,-13.496708083868691,0.0,-2.2426259699599522,0.0
4529883662.9105,-13.489339901830542,0.0,-2.249927602228842,0.0
4529898662.91,-13.493065189820515,0.0,-2.2315323774597835,0.0
4529913662.9095,-13.488358204901276,0.0,-2.239555494098476,0.0
4529928662.909,-13.494039582802602,0.0,-2.252171084962669,0.0
4529943662.9085,-13.493117919274463,0.0,-2.284984215829912,0.0
4529958662.908,-13.491954573110396,0.0,-2.2430101279929526,0.0
4529973662.9075,-13.485107713792623,0.0,-2.247761950369325,0.0
4529988662.907,-13.490503642043134,0.0,-2.31325182782086,0.0
4530003662.9065,-13.494641517036365,0.0,-2.3397583223056695,0.0
4530018662.906,-13.488972541300798,0.0,-2.2124696498400707,0.0
4530033662.9055,-13.49729009485696,0.0,-2.2522168211899576,0.0
4530048662.905,-13.493833551126722,0.0,-2.287740372499767,0.0
4530063662.9045,-13.487964209911503,0.0,-2.2799853232834826,0.0
4530078662.904,-13.491517465609713,0.0,-2.322660911997468,0.0
4530093662.9035,-13.498738603048801,0.0,-2.2986570445471584,0.0
4530108662.903,-13.494152910618327,0.0,-2.2830986653685708,0.0
4530123662.9025,-13.482262823315596,0.0,-2.291335006406599,0.0
4530138662.902,-13.488999275120744,0.0,-2.2689829470317653,0.0
4530153662.9015,-13.495088138190903,0.0,-2.2915544748262677,0.0
4530168662.901,-13.48609070532351,0.0,-2.245004593911205,0.0
4530183662.9005,-13.491743467937704,0.0,-2.3665334125299804,0.0
4530198662.9,-13.496137726477865,0.0,-2.3003472048470743,0.0
4530213662.8995,-13.493680404329186,0.0,-2.298785559946515,0.0
4530228662.899,-13.490265147283225,0.0,-2.2674137276741786,0.0
4530243662.8985,-13.492704562360645,0.0,-2.2964014654232505,0.0
4530258662.898,-13.485200535522171,0.0,-2.294060532378705,0.0
4530273662.8975,-13.492097541018301,0.0,-2.3015736304019843,0.0
4530288662.897,-13.489448932365635,0.0,-2.288911425010343,0.0
4530303662.8965,-13.490754666847184,0.0,-2.296244763229868,0.0
4530318662.896,-13.479513491023114,0.0,-2.292167106100096,0.0
4530333662.8955,-13.48562458262023,0.0,-2.3020338287643147,0.0
4530348662.895,-13.481287046044955,0.0,-2.3272270520852163,0.0
4530363662.8945,-13.489802061411737,0.0,-2.310480729935505,0.0
4530378662.894,-13.48334496435128,0.0,-2.291051320346364,0.0
4530393662.8935,-13.494698489395535,0.0,-2.324763091289901,0.0
4530408662.893,-13.490439004791405,0.0,-2.3085910457812666,0.0
4530423662.8925,-13.489592002064615,0.0,-2.350026239632692,0.0
4530438662.892,-13.488146466132509,0.0,-2.412679156525734,0.0
4530453662.8915,-13.487866516815687,0.0,-2.3340854781996803,0.0
4530468662.891,-13.481132271926136,0.0,-2.397062271154901,0.0
4530483662.8905,-13.47919717705925,0.0,-2.33869056275465,0.0
4530498662.89,-13.49483489472566,0.0,-2.335533397331418,0.0
4530513662.8895,-13.484492093099728,0.0,-2.299704998946583,0.0
4530528662.889,-13.490367142149521,0.0,-2.368515711010078,0.0
4530543662.8885,-13.49391853092797,0.0,-2.370513212349652,0.0
4530558662.888,-13.491697188033081,0.0,-2.406641499491026,0.0
4530573662.8875,-13.48394399349706,0.0,-2.3439378921505725,0.0
4530588662.887,-13.481599676525091,0.0,-2.326849099809037,0.0
4530603662.8865,-13.481998640758091,0.0,-2.3083286774324008,0.0
4530618662.886,-13.494448453773849,0.0,-2.404997399784179,0.0
4530633662.8855,-13.491112459616678,0.0,-2.368744704668744,0.0
4530648662.885,-13.494356277747169,0.0,-2.3740744503193745,0.0
4530663662.8845,-13.499845980067779,0.0,-2.3971312749424643,0.0
4530678662.884,-13.490673194277342,0.0,-2.3880200291535125,0.0
4530693662.8835,-13.49026041356193,0.0,-2.3801397534985025,0.0
4530708662.883,-13.479769630201808,0.0,-2.4170486009160324,0.0
4530723662.8825,-13.490631444634179,0.0,-2.4012575856059124,0.0
4530738662.882,-13.48821163000892,0.0,-2.370946582336669,0.0
4530753662.8815,-13.485586359160827,0.0,-2.373618295097045,0.0
4530768662.881,-13.482795283834403,0.0,-2.3994464121806796,0.0
4530783662.8805,-13.489872483912846,0.0,-2.362264216724075,0.0
4530798662.88,-13.49431472839261,0.0,-2.4432844566825973,0.0
4530813662.8795,-13.490833884547719,0.0,-2.3170627239283794,0.0
4530828662.879,-13.49032929670015,0.0,-2.425720252203439,0.0
4530843662.8785,-13.488688334153792,0.0,-2.4200971536515223,0.0
4530858662.878,-13.483151688700586,0.0,-2.3433742491683254,0.0
4530873662.8775,-13.486826519307423,0.0,-2.42184382182473,0.0
4530888662.877,-13.492465312107216,0.0,-2.4315061472495367,0.0
4530903662.8765,-13.497304214350267,0.0,-2.471429532294889,0.0
4530918662.876,-13.48015247775546,0.0,-2.4166568746096786,0.0
4530933662.8755,-13.485923806834615,0.0,-2.362136911759331,0.0
4530948662.875,-13.486503820166256,0.0,-2.39776481337782,0.0
4530963662.8745,-13.491570833838713,0.0,-2.379187081184083,0.0
4530978662.874,-13.491083104341088,0.0,-2.400279238448994,0.0
4530993662.8735,-13.488531944233472,0.0,-2.453339699337343,0.0
4531008662.873,-13.480843266044452,0.0,-2.4173420421591536,0.0
4531023662.8725,-13.4895647709803,0.0,-2.389765981505027,0.0
4531038662.872,-13.488160468469374,0.0,-2.442040254934971,0.0
4531053662.8715,-13.491815948629123,0.0,-2.4522343874369463,0.0
4531068662.871,-13.500543046921585,0.0,-2.420951570142532,0.0
4531083662.8705,-13.483156650695209,0.0,-2.478775498109571,0.0
4531098662.87,-13.498850484259039,0.0,-2.431859594526231,0.0
4531113662.8695,-13.483300419723243,0.0,-2.469539105421711,0.0
4531128662.869,-13.487893303342586,0.0,-2.386273336173399,0.0
4531143662.8685,-13.484275414800598,0.0,-2.400437821993415,0.0
4531158662.868,-13.499420165706828,0.0,-2.4054409160627364,0.0
4531173662.8675,-13.48893869505379,0.0,-2.437990047772462,0.0
4531188662.867,-13.485980701669265,0.0,-2.5039276299445166,0.0
4531203662.8665,-13.487982135510011,0.0,-2.398240095500421,0.0
4531218662.866,-13.48551510616603,0.0,-2.4588056655664836,0.0
4531233662.8655,-13.4877733054754,0.0,-2.4560694291624703,0.0
4531248662.865,-13.482359201672562,0.0,-2.473214602448295,0.0
4531263662.8645,-13.478032121615744,0.0,-2.4214468462003595,0.0
4531278662.864,-13.488597601146656,0.0,-2.5083383341142267,0.0
4531293662.8635,-13.489458038307143,0.0,-2.4130928669901515,0.0
4531308662.863,-13.496616624693235,0.0,-2.466918710318228,0.0
4531323662.8625,-13.48414586948569,0.0,-2.511193706541884,0.0
4531338662.862,-13.489970835065561,0.0,-2.487864930934439,0.0
4531353662.8615,-13.49184574433009,0.0,-2.54796810116325,0.0
4531368662.861,-13.49708225892672,0.0,-2.511381230155639,0.0
4531383662.8605,-13.492551536522308,0.0,-2.437463779345098,0.0
4531398662.86,-13.489842534905899,0.0,-2.451657052863513,0.0
4531413662.8595,-13.487187704833552,0.0,-2.4745781470638186,0.0
4531428662.859,-13.490054620346042,0.0,-2.5026779579203575,0.0
4531443662.8585,-13.491855187972476,0.0,-2.520571116898158,0.0
4531458662.858,-13.490484079903293,0.0,-2.5253881998513186,0.0
4531473662.8575,-13.486195057893253,0.0,-2.5380434783667907,0.0
4531488662.857,-13.4821440052783,0.0,-2.502647192971742,0.0
4531503662.8565,-13.491183053060716,0.0,-2.5432947606581906,0.0
4531518662.856,-13.482323676381927,0.0,-2.486929565447234,0.0
4531533662.8555,-13.487956897436602,0.0,-2.516721583119264,0.0
4531548662.855,-13.490042722517401,0.0,-2.4888094721944802,0.0
4531563662.8545,-13.483021179846297,0.0,-2.492022644742267,0.0
4531578662.854,-13.49410934111382,0.0,-2.492301048813166,0.0
4531593662.8535,-13.484508759186138,0.0,-2.5290058422968014,0.0
4531608662.853,-13.477482286854396,0.0,-2.4599053622566696,0.0
4531623662.8525,-13.492127830692937,0.0,-2.5467857815896373,0.0
4531638662.852,-13.484192487728413,0.0,-2.4767060404678514,0.0
4531653662.8515,-13.49562787245192,0.0,-2.5543244198269432,0.0
4531668662.851,-13.481761282078995,0.0,-2.5495851514120154,0.0
4531683662.8505,-13.492134193569509,0.0,-2.511457504917378,0.0
4531698662.85,-13.492564681429117,0.0,-2.5504740764715583,0.0
4531713662.8495,-13.483702837889675,0.0,-2.506435287732579,0.0
4531728662.849,-13.48468312694724,0.0,-2.5351400368055876,0.0
4531743662.8485,-13.489173863144197,0.0,-2.533392607736393,0.0
4531758662.848,-13.477020879836063,0.0,-2.6472290996568004,0.0
4531773662.8475,-13.486357270141248,0.0,-2.5559275488358595,0.0
4531788662.847,-13.487133078698081,0.0,-2.5027186995366075,0.0
4531803662.8465,-13.493630012573943,0.0,-2.598964381857846,0.0
4531818662.846,-13.492200519491037,0.0,-2.5818226384467073,0.0
4531833662.8455,-13.49103152836167,0.0,-2.587908413196811,0.0
4531848662.845,-13.485263624513928,0.0,-2.5652619817309232,0.0
4531863662.8445,-13.488916698654783,0.0,-2.5089088652217217,0.0
4531878662.844,-13.488992195350626,0.0,-2.608255247270652,0.0
