Frequency,S11,S11-Q,S11-Phase,S11-Phase-Q
4527198663.0,-13.410764992243912,0.0,-2.816213975326115,0.0
4527213662.9995,-13.3970112989547,0.0,-2.8226820548772444,0.0
4527228662.999,-13.409399470284855,0.0,-2.8427537558039404,0.0
4527243662.9985,-13.407338845000428,0.0,-2.8853195531544835,0.0
4527258662.998,-13.403501975937303,0.0,-2.8528533929947906,0.0
4527273662.9975,-13.406698955739323,0.0,-2.8144008684381534,0.0
4527288662.997,-13.404967100233339,0.0,-2.8397154768166697,0.0
4527303662.9965,-13.399807546661275,0.0,-2.853170670005926,0.0
4527318662.996,-13.401999233651882,0.0,-2.807255850558721,0.0
4527333662.9955,-13.409779133598143,0.0,-2.811305401427345,0.0
4527348662.995,-13.398536248585064,0.0,-2.877909469279051,0.0
4527363662.9945,-13.409144909259307,0.0,-2.823187585662718,0.0
4527378662.994,-13.39992115631415,0.0,-2.8375766161493607,0.0
4527393662.9935,-13.409787032394206,0.0,-2.856830821225982,0.0
4527408662.993,-13.40347171498456,0.0,-2.907541593227587,0.0
4527423662.9925,-13.408731298620669,0.0,-2.8760491899335965,0.0
4527438662.992,-13.414931920530726,0.0,-2.9253285157335633,0.0
4527453662.9915,-13.405627575023143,0.0,-2.915916394550681,0.0
4527468662.991,-13.40447851957013,0.0,-2.857865981085293,0.0
4527483662.9905,-13.414972032156827,0.0,-2.8466984801113364,0.0
4527498662.99,-13.407356406734834,0.0,-2.8507929525592552,0.0
4527513662.9895,-13.405661232364814,0.0,-2.8292465624418077,0.0
4527528662.989,-13.406731840845591,0.0,-2.853507725169281,0.0
4527543662.9885,-13.411530521785435,0.0,-2.862664938982235,0.0
4527558662.988,-13.405308820747386,0.0,-2.9322066808743497,0.0
4527573662.9875,-13.412886357748281,0.0,-2.851751428615227,0.0
4527588662.987,-13.407116912326726,0.0,-2.8953504321467918,0.0
4527603662.9865,-13.410427959432663,0.0,-2.8687488760582682,0.0
4527618662.986,-13.402344246846965,0.0,-2.8800244097818624,0.0
4527633662.9855,-13.40784832994147,0.0,-2.8688945513532875,0.0
4527648662.985,-13.412835160671225,0.0,-2.8747338397263027,0.0
4527663662.9845,-13.413532682127059,0.0,-2.9429021182851045,0.0
4527678662.984,-13.408005170129623,0.0,-2.882260437768753,0.0
4527693662.9835,-13.40137663675392,0.0,-2.8960549036868084,0.0
4527708662.983,-13.40363674688007,0.0,-2.945366066906408,0.0
4527723662.9825,-13.40461785417762,0.0,-2.9254134104308664,0.0
4527738662.982,-13.413736070508167,0.0,-2.938987152779565,0.0
4527753662.9815,-13.421021160576572,0.0,-2.909056489037215,0.0
4527768662.981,-13.409714933604278,0.0,-2.8827944839305744,0.0
4527783662.9805,-13.410701164013165,0.0,-2.920804316093383,0.0
4527798662.98,-13.40615196143431,0.0,-2.9825860012516925,0.0
4527813662.9795,-13.41238960872878,0.0,-2.8961858060420687,0.0
4527828662.979,-13.413487438298223,0.0,-2.9648678913088506,0.0
4527843662.9785,-13.4113597941851,0.0,-2.930397499082429,0.0
4527858662.978,-13.404866982285501,0.0,-2.8877670641194193,0.0
4527873662.9775,-13.40534563075548,0.0,-2.9704859122287224,0.0
4527888662.977,-13.40445420238648,0.0,-2.9284210960519395,0.0
4527903662.9765,-13.415904042560697,0.0,-2.940451300755656,0.0
4527918662.976,-13.418727587166998,0.0,-2.937711914960057,0.0
4527933662.9755,-13.41025164032773,0.0,-2.8926995231389694,0.0
4527948662.975,-13.41078480725509,0.0,-2.9808266689581435,0.0
4527963662.9745,-13.4060242777919,0.0,-2.958975436299658,0.0
4527978662.974,-13.40538387384292,0.0,-2.9726606385049097,0.0
4527993662.9735,-13.405168160145111,0.0,-2.9658134324597256,0.0
4528008662.973,-13.419240357516873,0.0,-2.985515984459626,0.0
4528023662.9725,-13.407370693626737,0.0,-2.977514666855687,0.0
4528038662.972,-13.411873216365429,0.0,-2.973291090388114,0.0
4528053662.9715,-13.411235166787348,0.0,-3.0131190365335723,0.0
4528068662.971,-13.409223933185618,0.0,-2.980418084034211,0.0
4528083662.9705,-13.409727514933216,0.0,-2.9395992446276535,0.0
4528098662.97,-13.415013679338655,0.0,-2.9846271691563397,0.0
4528113662.9695,-13.409841731475975,0.0,-2.998477514706603,0.0
4528128662.969,-13.41480775991206,0.0,-3.022644030865693,0.0
4528143662.9685,-13.410004801831427,0.0,-3.036193339001891,0.0
4528158662.968,-13.40557986511122,0.0,-2.945228800377171,0.0
4528173662.9675,-13.40847284212667,0.0,-3.001703704062094,0.0
4528188662.967,-13.412144559123753,0.0,-2.989755960402174,0.0
4528203662.9665,-13.40804656230005,0.0,-2.958515951468614,0.0
4528218662.966,-13.408310818963171,0.0,-3.009436683326423,0.0
4528233662.9655,-13.413994660258183,0.0,-2.9938005401488894,0.0
4528248662.965,-13.412746294559208,0.0,-3.000436770177262,0.0
4528263662.9645,-13.409729078756744,0.0,-2.95082792420158,0.0
4528278662.964,-13.407999558738116,0.0,-3.0221573165708278,0.0
4528293662.9635,-13.416179651197037,0.0,-2.9515661774547732,0.0
4528308662.963,-13.411610749328748,0.0,-2.991035948988322,0.0
4528323662.9625,-13.413802846633633,0.0,-2.9871751858434905,0.0
4528338662.962,-13.406376954847214,0.0,-3.0761111778226273,0.0
4528353662.9615,-13.407995450555921,0.0,-3.0201747317234275,0.0
4528368662.961,-13.41018261599669,0.0,-2.9988788281181114,0.0
4528383662.9605,-13.411533766607954,0.0,-3.0512232744615426,0.0
4528398662.96,-13.412114393882534,0.0,-2.9748288622714703,0.0
4528413662.9595,-13.403785182800148,0.0,-3.0110594166539806,0.0
4528428662.959,-13.412047348444709,0.0,-3.041226960321656,0.0
4528443662.9585,-13.41682743802528,0.0,-3.064373257276787,0.0
4528458662.958,-13.405531448941607,0.0,-3.0242630123049827,0.0
4528473662.9575,-13.411663467915298,0.0,-3.024110918040743,0.0
4528488662.957,-13.4050195251363,0.0,-2.999741883018945,0.0
4528503662.9565,-13.407399308838446,0.0,-2.9811678277949896,0.0
4528518662.956,-13.413212359885753,0.0,-3.1006608510629623,0.0
4528533662.9555,-13.402551073046105,0.0,-3.1398375868740978,0.0
4528548662.955,-13.410404335859171,0.0,-2.9673933701368593,0.0
4528563662.9545,-13.407867328625677,0.0,-3.1014377881405073,0.0
4528578662.954,-13.39840105407308,0.0,-3.0169528451846133,0.0
4528593662.9535,-13.403988563682312,0.0,-3.1080331231847085,0.0
4528608662.953,-13.411446746682461,0.0,-3.0667075319606516,0.0
4528623662.9525,-13.414697866165264,0.0,-3.0284051595880643,0.0
4528638662.952,-13.410370220239212,0.0,-3.075814478998408,0.0
4528653662.9515,-13.41015397783563,0.0,-3.052736402439673,0.0
4528668662.951,-13.409707120560332,0.0,-3.0858398306606865,0.0
4528683662.9505,-13.412234833229164,0.0,-3.059811551474654,0.0
4528698662.95,-13.420028172117114,0.0,-3.1377211216938212,0.0
4528713662.9495,-13.410128939010601,0.0,-3.012480336362742,0.0
4528728662.949,-13.40123352424312,0.0,-3.112509004864656,0.0
4528743662.9485,-13.413810656237517,0.0,-3.0285568862892713,0.0
4528758662.948,-13.410877360542726,0.0,-3.0239181596284213,0.0
4528773662.9475,-13.404883863653101,0.0,-3.0513490577108175,0.0
4528788662.947,-13.41683375546453,0.0,-3.0198706345315105,0.0
4528803662.9465,-13.4104689792359,0.0,-3.0580354192307144,0.0
4528818662.946,-13.410530082362811,0.0,-3.102413974526494,0.0
4528833662.9455,-13.416106146335558,0.0,-3.088742170287055,0.0
4528848662.945,-13.412708497402278,0.0,-3.078585901800929,0.0
4528863662.9445,-13.411604787660387,0.0,-3.06804560039024,0.0
4528878662.944,-13.409535565072746,0.0,-3.1171154110248454,0.0
4528893662.9435,-13.41548352720551,0.0,-3.107420777765426,0.0
4528908662.943,-13.41561050744373,0.0,-3.1089315602326413,0.0
4528923662.9425,-13.41133024428974,0.0,-3.0488549501036553,0.0
4528938662.942,-13.417893309775549,0.0,-3.140249116333645,0.0
4528953662.9415,-13.421399005087526,0.0,-3.1717322697368693,0.0
4528968662.941,-13.419372632469024,0.0,-3.0702786798135415,0.0
4528983662.9405,-13.410609310299611,0.0,-3.1152356507140597,0.0
4528998662.94,-13.407553444307789,0.0,-3.1090476867383536,0.0
4529013662.9395,-13.420068819120399,0.0,-3.0958898592295463,0.0
4529028662.939,-13.414285017981687,0.0,-3.1697742272492677,0.0
4529043662.9385,-13.407446735053522,0.0,-3.0818997409842397,0.0
4529058662.938,-13.419151696129603,0.0,-3.1254151181823913,0.0
4529073662.9375,-13.414994024304985,0.0,-3.170424836794487,0.0
4529088662.937,-13.413600783656287,0.0,-3.160637998261555,0.0
4529103662.9365,-13.40927859452379,0.0,-3.14717122644922,0.0
4529118662.936,-13.406228501228307,0.0,-3.137824499749991,0.0
4529133662.9355,-13.403657915222295,0.0,-3.1384038993109864,0.0
4529148662.935,-13.414710421814176,0.0,-3.160021509335621,0.0
4529163662.9345,-13.415411623185303,0.0,-3.1594655137768832,0.0
4529178662.934,-13.41945674978059,0.0,-3.125802274805621,0.0
4529193662.9335,-13.410609394192976,0.0,-3.18003100200433,0.0
4529208662.933,-13.407421492712771,0.0,-3.122371470077729,0.0
4529223662.9325,-13.410352723327696,0.0,-3.2002257020279052,0.0
4529238662.932,-13.407449856388489,0.0,-3.1430026271786597,0.0
4529253662.9315,-13.416024738805117,0.0,-3.1641046100462975,0.0
4529268662.931,-13.409769821355646,0.0,-3.1518628851480077,0.0
4529283662.9305,-13.411311828975261,0.0,-3.180971943020994,0.0
4529298662.93,-13.409526596693656,0.0,-3.2193977100937086,0.0
4529313662.9295,-13.414339517083771,0.0,-3.1026124527169565,0.0
4529328662.929,-13.410963407878999,0.0,-3.217631011671081,0.0
4529343662.9285,-13.421643528621733,0.0,-3.1490657145593404,0.0
4529358662.928,-13.412645151559028,0.0,-3.1794632975228296,0.0
4529373662.9275,-13.418631013181002,0.0,-3.207166879743021,0.0
4529388662.927,-13.408468863036356,0.0,-3.2231712728356916,0.0
4529403662.9265,-13.409909731925566,0.0,-3.1993532470302006,0.0
4529418662.926,-13.413427387985067,0.0,-3.2558154684074956,0.0
4529433662.9255,-13.421203740218763,0.0,-3.2600147168400433,0.0
4529448662.925,-13.418992559641518,0.0,-3.1692102847057457,0.0
4529463662.9245,-13.412055907577201,0.0,-3.171308873076474,0.0
4529478662.924,-13.420018553957402,0.0,-3.2486295467679893,0.0
4529493662.9235,-13.409566542893492,0.0,-3.2337931613110347,0.0
4529508662.923,-13.407349780459064,0.0,-3.2833791419563663,0.0
4529523662.9225,-13.41783206044013,0.0,-3.165235532492118,0.0
4529538662.922,-13.415994755109448,0.0,-3.2498518837147645,0.0
4529553662.9215,-13.413475030826184,0.0,-3.264819436554358,0.0
4529568662.921,-13.423018989917072,0.0,-3.2794339858566808,0.0
4529583662.9205,-13.413969548222681,0.0,-3.1932492227289724,0.0
4529598662.92,-13.408179221411896,0.0,-3.2263965928127045,0.0
4529613662.9195,-13.416779650997539,0.0,-3.22752431769924,0.0
4529628662.919,-13.416600889031088,0.0,-3.2251354606366096,0.0
4529643662.9185,-13.405847112906104,0.0,-3.2337112767171963,0.0
4529658662.918,-13.411592977957268,0.0,-3.2536711462367136,0.0
4529673662.9175,-13.420146040055826,0.0,-3.221447803465071,0.0
4529688662.917,-13.419093531336388,0.0,-3.2576945568190436,0.0
4529703662.9165,-13.416329745434401,0.0,-3.233274812274102,0.0
4529718662.916,-13.410085225829764,0.0,-3.3260301524219336,0.0
4529733662.9155,-13.417978784686966,0.0,-3.2228712545730764,0.0
4529748662.915,-13.412802900654983,0.0,-3.2515226397824226,0.0
4529763662.9145,-13.406061161757687,0.0,-3.262923944700263,0.0
4529778662.914,-13.41105081962828,0.0,-3.278788862353763,0.0
4529793662.9135,-13.415718448835644,0.0,-3.203907645252547,0.0
4529808662.913,-13.407890334465492,0.0,-3.2781110872858097,0.0
4529823662.9125,-13.416844377633627,0.0,-3.2275442783907526,0.0
4529838662.912,-13.413641873622886,0.0,-3.2770814610057126,0.0
4529853662.9115,-13.403272212145277,0.0,-3.2614315975363595,0.0
4529868662.911,-13.419648567459351,0.0,-3.318655502529529,0.0
4529883662.9105,-13.414969298037605,0.0,-3.268557289793518,0.0
4529898662.91,-13.416389803569215,0.0,-3.2433155898421515,0.0
4529913662.9095,-13.408148199622257,0.0,-3.2756335328459536,0.0
4529928662.909,-13.422248356397288,0.0,-3.332690784971715,0.0
4529943662.9085,-13.414374016680066,0.0,-3.3943056149651003,0.0
4529958662.908,-13.415228909674887,0.0,-3.283140025692928,0.0
4529973662.9075,-13.41550735416945,0.0,-3.2881938572682894,0.0
4529988662.907,-13.420436367235578,0.0,-3.2702246415737104,0.0
4530003662.9065,-13.407755396681708,0.0,-3.283952079169625,0.0
4530018662.906,-13.412811031468053,0.0,-3.3588378330336086,0.0
4530033662.9055,-13.41972807924165,0.0,-3.3308916022862403,0.0
4530048662.905,-13.41086266729748,0.0,-3.3211701242353464,0.0
4530063662.9045,-13.410518941113587,0.0,-3.3304211303519673,0.0
4530078662.904,-13.418351931536607,0.0,-3.301314393984825,0.0
4530093662.9035,-13.423554295175858,0.0,-3.309648938625458,0.0
4530108662.903,-13.426881408218268,0.0,-3.3168494506855946,0.0
4530123662.9025,-13.415503430171498,0.0,-3.3725922805092257,0.0
4530138662.902,-13.414264346457962,0.0,-3.356708825708761,0.0
4530153662.9015,-13.412796269985458,0.0,-3.318197667461588,0.0
4530168662.901,-13.414659124375872,0.0,-3.3197864679573965,0.0
4530183662.9005,-13.409286504970941,0.0,-3.34401024191224,0.0
4530198662.9,-13.416118843604822,0.0,-3.3170115085728993,0.0
4530213662.8995,-13.425666145577697,0.0,-3.364823387700885,0.0
4530228662.899,-13.411998700493754,0.0,-3.400708615487796,0.0
4530243662.8985,-13.421475894572447,0.0,-3.440832223437658,0.0
4530258662.898,-13.416801627510985,0.0,-3.3874361623839224,0.0
4530273662.8975,-13.418641681232529,0.0,-3.4043930877197224,0.0
4530288662.897,-13.409343062775243,0.0,-3.440581953178047,0.0
4530303662.8965,-13.415632310180293,0.0,-3.3762502392406044,0.0
4530318662.896,-13.425905252526993,0.0,-3.3437219251525625,0.0
4530333662.8955,-13.419111803075822,0.0,-3.405525286104899,0.0
4530348662.895,-13.41462110498295,0.0,-3.3396026986192324,0.0
4530363662.8945,-13.416987883152542,0.0,-3.4029361732026127,0.0
4530378662.894,-13.422466261709044,0.0,-3.43323744172402,0.0
4530393662.8935,-13.418473880800931,0.0,-3.381324072832382,0.0
4530408662.893,-13.414415452949545,0.0,-3.362273020511539,0.0
4530423662.8925,-13.408095253963639,0.0,-3.385087258868235,0.0
4530438662.892,-13.413508545092602,0.0,-3.399959202946747,0.0
4530453662.8915,-13.409017023537588,0.0,-3.4087141508953356,0.0
4530468662.891,-13.41674910923296,0.0,-3.3957972128279854,0.0
4530483662.8905,-13.42104650522769,0.0,-3.4897320601377544,0.0
4530498662.89,-13.421093150518391,0.0,-3.4058619191052557,0.0
4530513662.8895,-13.417327114752961,0.0,-3.48458354396345,0.0
4530528662.889,-13.414504106618416,0.0,-3.399244468734687,0.0
4530543662.8885,-13.409555842923218,0.0,-3.4351769088667172,0.0
4530558662.888,-13.415458609694742,0.0,-3.4465813495361686,0.0
4530573662.8875,-13.40931287996403,0.0,-3.465662996129583,0.0
4530588662.887,-13.422184835659383,0.0,-3.48412876533502,0.0
4530603662.8865,-13.427760155730278,0.0,-3.439490949293162,0.0
4530618662.886,-13.415697423028735,0.0,-3.405187710656751,0.0
4530633662.8855,-13.42488755348219,0.0,-3.522040353290212,0.0
4530648662.885,-13.421071846343635,0.0,-3.4530401273213323,0.0
4530663662.8845,-13.421299270792897,0.0,-3.446679443014366,0.0
4530678662.884,-13.416855852206822,0.0,-3.4324543962584277,0.0
4530693662.8835,-13.421769133450336,0.0,-3.454937304950052,0.0
4530708662.883,-13.412642107289145,0.0,-3.4788235496609543,0.0
4530723662.8825,-13.423527148213827,0.0,-3.491292161800975,0.0
4530738662.882,-13.419736735850837,0.0,-3.4328058204881238,0.0
4530753662.8815,-13.416195456565953,0.0,-3.4245238751528926,0.0
4530768662.881,-13.421120054356791,0.0,-3.4389067773018893,0.0
4530783662.8805,-13.422975874033039,0.0,-3.463476009226395,0.0
4530798662.88,-13.411291470605622,0.0,-3.5205907647619434,0.0
4530813662.8795,-13.418842019562444,0.0,-3.4782230002602703,0.0
4530828662.879,-13.413383295113219,0.0,-3.463868926897702,0.0
4530843662.8785,-13.411351512656527,0.0,-3.4977375289322628,0.0
4530858662.878,-13.413528859640923,0.0,-3.4976403128642786,0.0
4530873662.8775,-13.42117054337904,0.0,-3.5477814713661178,0.0
4530888662.877,-13.423997320393768,0.0,-3.4699020392800195,0.0
4530903662.8765,-13.421189797841532,0.0,-3.4945877526343065,0.0
4530918662.876,-13.42427370161191,0.0,-3.538167635883407,0.0
4530933662.8755,-13.42436288083405,0.0,-3.4866580854563867,0.0
4530948662.875,-13.410389171666395,0.0,-3.538021860274751,0.0
4530963662.8745,-13.429720094099565,0.0,-3.460874900738133,0.0
4530978662.874,-13.420085602340393,0.0,-3.529821111530727,0.0
4530993662.8735,-13.419788632809443,0.0,-3.524385679594684,0.0
4531008662.873,-13.420432558729944,0.0,-3.570981190697079,0.0
4531023662.8725,-13.414130436294027,0.0,-3.5699867945002848,0.0
4531038662.872,-13.43364639853265,0.0,-3.504655539177805,0.0
4531053662.8715,-13.416624301995713,0.0,-3.5299352364413523,0.0
4531068662.871,-13.420383908795639,0.0,-3.5607493525839815,0.0
4531083662.8705,-13.417177805683874,0.0,-3.5809312496334575,0.0
4531098662.87,-13.418760801755802,0.0,-3.5751851025883528,0.0
4531113662.8695,-13.420604036399775,0.0,-3.583651124893279,0.0
4531128662.869,-13.411794743559744,0.0,-3.5635992424492007,0.0
4531143662.8685,-13.425637134112334,0.0,-3.5267236470153978,0.0
4531158662.868,-13.421842542308475,0.0,-3.5835486071196754,0.0
4531173662.8675,-13.416826680338128,0.0,-3.6421012964906145,0.0
4531188662.867,-13.417142093124003,0.0,-3.5834796416466013,0.0
4531203662.8665,-13.41610790250643,0.0,-3.61711398190617,0.0
4531218662.866,-13.423389631778665,0.0,-3.6650250198054444,0.0
4531233662.8655,-13.414280696426527,0.0,-3.6320730951922737,0.0
4531248662.865,-13.422909393871855,0.0,-3.638867124145287,0.0
4531263662.8645,-13.422711978388937,0.0,-3.618421902537855,0.0
4531278662.864,-13.421381858283695,0.0,-3.66221676127412,0.0
4531293662.8635,-13.418213729753813,0.0,-3.639391759680299,0.0
4531308662.863,-13.416644077055713,0.0,-3.6132073391540382,0.0
4531323662.8625,-13.41752851088745,0.0,-3.602050121301094,0.0
4531338662.862,-13.423689937689705,0.0,-3.6604801225271717,0.0
4531353662.8615,-13.414995946305853,0.0,-3.605973763566312,0.0
4531368662.861,-13.414321111033358,0.0,-3.6438555465363907,0.0
4531383662.8605,-13.421663297174014,0.0,-3.621973635389497,0.0
4531398662.86,-13.42560893961657,0.0,-3.6292827207947145,0.0
4531413662.8595,-13.419677414802154,0.0,-3.6449499850551974,0.0
4531428662.859,-13.425009436367896,0.0,-3.6317917750402553,0.0
4531443662.8585,-13.430122201332821,0.0,-3.6055305924506214,0.0
4531458662.858,-13.431018776499133,0.0,-3.646681213485739,0.0
4531473662.8575,-13.416526252305962,0.0,-3.6440415337139744,0.0
4531488662.857,-13.419693348801085,0.0,-3.619421280875062,0.0
4531503662.8565,-13.417594988298625,0.0,-3.6668818655055095,0.0
4531518662.856,-13.422993826857768,0.0,-3.621009470097711,0.0
4531533662.8555,-13.422346035952726,0.0,-3.698756879012519,0.0
4531548662.855,-13.423172102949705,0.0,-3.5845542647763278,0.0
4531563662.8545,-13.412919491854609,0.0,-3.6871775823235398,0.0
4531578662.854,-13.419858482233169,0.0,-3.7319897965471855,0.0
4531593662.8535,-13.42257707125488,0.0,-3.6907322346218803,0.0
4531608662.853,-13.41893307979844,0.0,-3.71538582081204,0.0
4531623662.8525,-13.425826450580026,0.0,-3.7236077996641086,0.0
4531638662.852,-13.424864424358523,0.0,-3.7415506896964956,0.0
4531653662.8515,-13.423625076579542,0.0,-3.648126211917023,0.0
4531668662.851,-13.429218322600025,0.0,-3.7018142580003666,0.0
4531683662.8505,-13.431108109140762,0.0,-3.7332514317971057,0.0
4531698662.85,-13.414217263251354,0.0,-3.6687118172136777,0.0
4531713662.8495,-13.41793440154122,0.0,-3.706175936236902,0.0
4531728662.849,-13.412546589108372,0.0,-3.674467325956949,0.0
4531743662.8485,-13.42257646093211,0.0,-3.706528208873494,0.0
4531758662.848,-13.426863641723305,0.0,-3.682270345532677,0.0
4531773662.8475,-13.414771909357482,0.0,-3.732923814739369,0.0
4531788662.847,-13.421352175783971,0.0,-3.7405269509638557,0.0
4531803662.8465,-13.427208577037362,0.0,-3.6745196542353944,0.0
4531818662.846,-13.42084295679215,0.0,-3.7907576197414454,0.0
4531833662.8455,-13.427303292117585,0.0,-3.774627952842266,0.0
4531848662.845,-13.422940040874762,0.0,-3.760336033256352,0.0
4531863662.8445,-13.414167968918996,0.0,-3.830184407324109,0.0
