Frequency,S11,S11-Q,S11-Phase,S11-Phase-Q
4527198663.0,-13.41853073582967,0.0,-2.5543096256104247,0.0
4527213662.9995,-13.42033809627097,0.0,-2.60916469240336,0.0
4527228662.999,-13.418962152660228,0.0,-2.5481020261919483,0.0
4527243662.9985,-13.426756610152275,0.0,-2.633718092038607,0.0
4527258662.998,-13.431075781289607,0.0,-2.549635625302328,0.0
4527273662.9975,-13.428583559184684,0.0,-2.5366996023966313,0.0
4527288662.997,-13.426354951184143,0.0,-2.5322959771467586,0.0
4527303662.9965,-13.423811609757973,0.0,-2.587912753511794,0.0
4527318662.996,-13.42644306267821,0.0,-2.5453050206922274,0.0
4527333662.9955,-13.42976882201131,0.0,-2.581890913102724,0.0
4527348662.995,-13.427303405299472,0.0,-2.5733284820989923,0.0
4527363662.9945,-13.42504302165218,0.0,-2.6301091374378958,0.0
4527378662.994,-13.423700030000113,0.0,-2.5453908193431305,0.0
4527393662.9935,-13.427259227067,0.0,-2.5685205195905967,0.0
4527408662.993,-13.425329349479886,0.0,-2.5336793611335704,0.0
4527423662.9925,-13.424221584830276,0.0,-2.5543393933786005,0.0
4527438662.992,-13.427552159821401,0.0,-2.5469730576542524,0.0
4527453662.9915,-13.42519892580319,0.0,-2.582711473775701,0.0
4527468662.991,-13.43352184277386,0.0,-2.564889285001833,0.0
4527483662.9905,-13.42703859781077,0.0,-2.6079670528314556,0.0
4527498662.99,-13.439933914299875,0.0,-2.633862337650156,0.0
4527513662.9895,-13.419783296265479,0.0,-2.5860405182631574,0.0
4527528662.989,-13.431047685729066,0.0,-2.583526168143076,0.0
4527543662.9885,-13.426470362902396,0.0,-2.5971881503393455,0.0
4527558662.988,-13.425832755885343,0.0,-2.6366908611338626,0.0
4527573662.9875,-13.429498830344915,0.0,-2.6541666294020136,0.0
4527588662.987,-13.4370344370796,0.0,-2.612161957414571,0.0
4527603662.9865,-13.435737659935882,0.0,-2.5729378424325575,0.0
4527618662.986,-13.430332088942887,0.0,-2.627259826904031,0.0
4527633662.9855,-13.423839860999307,0.0,-2.5836391688747478,0.0
4527648662.985,-13.423567545876995,0.0,-2.5724835067319076,0.0
4527663662.9845,-13.424436282792612,0.0,-2.5970253628558324,0.0
4527678662.984,-13.43155396744458,0.0,-2.574720386436316,0.0
4527693662.9835,-13.424317350387309,0.0,-2.6840260814777945,0.0
4527708662.983,-13.421448148637928,0.0,-2.6179895344442694,0.0
4527723662.9825,-13.437013125737785,0.0,-2.6328184903855987,0.0
4527738662.982,-13.434379700892507,0.0,-2.589162507782512,0.0
4527753662.9815,-13.415428384674293,0.0,-2.670844046870348,0.0
4527768662.981,-13.427847294170723,0.0,-2.6658239083882083,0.0
4527783662.9805,-13.436632096191426,0.0,-2.6238471425893923,0.0
4527798662.98,-13.42928909566228,0.0,-2.6317020408566876,0.0
4527813662.9795,-13.427741554708906,0.0,-2.653201273951499,0.0
4527828662.979,-13.432257530485774,0.0,-2.5706046822174335,0.0
4527843662.9785,-13.437660914510655,0.0,-2.5958986793141228,0.0
4527858662.978,-13.430529722015761,0.0,-2.5966808290507966,0.0
4527873662.9775,-13.426144927509892,0.0,-2.6541243070635634,0.0
4527888662.977,-13.430486704327118,0.0,-2.6357944986762556,0.0
4527903662.9765,-13.424777226357582,0.0,-2.679322244619425,0.0
4527918662.976,-13.424867786156787,0.0,-2.691488413977448,0.0
4527933662.9755,-13.428925243325342,0.0,-2.7042755169656885,0.0
4527948662.975,-13.434532036161391,0.0,-2.700561399690741,0.0
4527963662.9745,-13.42447606225868,0.0,-2.721349079426629,0.0
4527978662.974,-13.425550303546643,0.0,-2.7463225682303123,0.0
4527993662.9735,-13.421625659813783,0.0,-2.6657119457419483,0.0
4528008662.973,-13.42017630806678,0.0,-2.696305060780964,0.0
4528023662.9725,-13.433562688702018,0.0,-2.593214323454734,0.0
4528038662.972,-13.424624844708479,0.0,-2.6901057652314773,0.0
4528053662.9715,-13.435008937824215,0.0,-2.664789844826647,0.0
4528068662.971,-13.428852023195347,0.0,-2.6529904920981373,0.0
4528083662.9705,-13.43146956474213,0.0,-2.7219015166235665,0.0
4528098662.97,-13.432827805114975,0.0,-2.6716585883183823,0.0
4528113662.9695,-13.418273755621442,0.0,-2.712381089608887,0.0
4528128662.969,-13.428441671100519,0.0,-2.732111236867347,0.0
4528143662.9685,-13.432203019551185,0.0,-2.6711948798482847,0.0
4528158662.968,-13.424888721279785,0.0,-2.7141630582027303,0.0
4528173662.9675,-13.427179201206375,0.0,-2.6929465287137684,0.0
4528188662.967,-13.431612813927057,0.0,-2.6795126875058046,0.0
4528203662.9665,-13.431009918280516,0.0,-2.708992953322486,0.0
4528218662.966,-13.429458514606559,0.0,-2.671361745155396,0.0
4528233662.9655,-13.425249327059497,0.0,-2.727391473523257,0.0
4528248662.965,-13.431001379616188,0.0,-2.7282626707641207,0.0
4528263662.9645,-13.429666426643099,0.0,-2.710022550023103,0.0
4528278662.964,-13.425499689899867,0.0,-2.7304974955631693,0.0
4528293662.9635,-13.419160312430193,0.0,-2.834090151591584,0.0
4528308662.963,-13.42508338140538,0.0,-2.7337654692298323,0.0
4528323662.9625,-13.431543837045243,0.0,-2.7561510445619883,0.0
4528338662.962,-13.430762999006218,0.0,-2.7554962081522087,0.0
4528353662.9615,-13.42373424996348,0.0,-2.72682244519293,0.0
4528368662.961,-13.427167046013084,0.0,-2.7187432786553316,0.0
4528383662.9605,-13.432501438528906,0.0,-2.7529547356342663,0.0
4528398662.96,-13.428756509543085,0.0,-2.7577156550296524,0.0
4528413662.9595,-13.430293425070172,0.0,-2.7589661757162736,0.0
4528428662.959,-13.426121972576722,0.0,-2.7542841699685296,0.0
4528443662.9585,-13.423874701660491,0.0,-2.7313917378696004,0.0
4528458662.958,-13.434428868732555,0.0,-2.7820269345531248,0.0
4528473662.9575,-13.435283788050524,0.0,-2.737329817074889,0.0
4528488662.957,-13.427237526176345,0.0,-2.7891398606532416,0.0
4528503662.9565,-13.425798870171622,0.0,-2.793569856098479,0.0
4528518662.956,-13.420522998894981,0.0,-2.7524849517139423,0.0
4528533662.9555,-13.430453306505928,0.0,-2.8150531440939868,0.0
4528548662.955,-13.428638339296574,0.0,-2.7500055710515574,0.0
4528563662.9545,-13.43168655045615,0.0,-2.741442775743596,0.0
4528578662.954,-13.425973010475973,0.0,-2.811898729808328,0.0
4528593662.9535,-13.431673017362298,0.0,-2.793539868742572,0.0
4528608662.953,-13.432992738557793,0.0,-2.795758935867744,0.0
4528623662.9525,-13.434742967542315,0.0,-2.7934657439289605,0.0
4528638662.952,-13.426680032023391,0.0,-2.8061014637906156,0.0
4528653662.9515,-13.434509094730556,0.0,-2.7901560541438606,0.0
4528668662.951,-13.425271456723728,0.0,-2.783791775251703,0.0
4528683662.9505,-13.432415832887719,0.0,-2.8039631125529416,0.0
4528698662.95,-13.42025265145438,0.0,-2.78550129608007,0.0
4528713662.9495,-13.424079549660807,0.0,-2.7576929840108844,0.0
4528728662.949,-13.436104101687683,0.0,-2.8458286902214267,0.0
4528743662.9485,-13.433059918267034,0.0,-2.8350913321116136,0.0
4528758662.948,-13.426436378238204,0.0,-2.7656698206681924,0.0
4528773662.9475,-13.428462278456305,0.0,-2.8306767239026325,0.0
4528788662.947,-13.430776105568805,0.0,-2.860651861989053,0.0
4528803662.9465,-13.433696184227411,0.0,-2.815711576734893,0.0
4528818662.946,-13.437194603890362,0.0,-2.7923474627083102,0.0
4528833662.9455,-13.431867712742116,0.0,-2.8108267699226204,0.0
4528848662.945,-13.422482651656091,0.0,-2.8420892599445513,0.0
4528863662.9445,-13.431144111486743,0.0,-2.810535789415603,0.0
4528878662.944,-13.445060890613563,0.0,-2.827643171168428,0.0
4528893662.9435,-13.43090346328234,0.0,-2.8424509721547313,0.0
4528908662.943,-13.433754846591802,0.0,-2.868472130313819,0.0
4528923662.9425,-13.428300377736331,0.0,-2.819221906672468,0.0
4528938662.942,-13.428282444849057,0.0,-2.8638356899703297,0.0
4528953662.9415,-13.430321364292157,0.0,-2.8192914599359575,0.0
4528968662.941,-13.432522370845891,0.0,-2.794654100744583,0.0
4528983662.9405,-13.43534960173464,0.0,-2.8803034287535683,0.0
4528998662.94,-13.426317713935621,0.0,-2.8010736684107314,0.0
4529013662.9395,-13.429831427248708,0.0,-2.864178424124158,0.0
4529028662.939,-13.430349877894091,0.0,-2.895551155569258,0.0
4529043662.9385,-13.43310765103329,0.0,-2.861982855901577,0.0
4529058662.938,-13.426913085170556,0.0,-2.91082009510565,0.0
4529073662.9375,-13.43886710549228,0.0,-2.8538637706325893,0.0
4529088662.937,-13.431660754202465,0.0,-2.877479173699524,0.0
4529103662.9365,-13.433388615236893,0.0,-2.8663308491715234,0.0
4529118662.936,-13.424140255715686,0.0,-2.876543660239103,0.0
4529133662.9355,-13.431791702825864,0.0,-2.8482344894159377,0.0
4529148662.935,-13.434406987376908,0.0,-2.8750454495609774,0.0
4529163662.9345,-13.424439378349986,0.0,-2.8916497905767464,0.0
4529178662.934,-13.430089962070145,0.0,-2.875165794674056,0.0
4529193662.9335,-13.429489293405762,0.0,-2.863996991069138,0.0
4529208662.933,-13.43085843681952,0.0,-2.8012129581217295,0.0
4529223662.9325,-13.44044655386054,0.0,-2.909029910376451,0.0
4529238662.932,-13.438529848349845,0.0,-2.883306302386233,0.0
4529253662.9315,-13.440785070990962,0.0,-2.898346904721486,0.0
4529268662.931,-13.424330786954556,0.0,-2.933471142788454,0.0
4529283662.9305,-13.432976437461816,0.0,-2.9264648969328895,0.0
4529298662.93,-13.42893042332328,0.0,-2.8687267440603357,0.0
4529313662.9295,-13.443798085059637,0.0,-2.8901007342367513,0.0
4529328662.929,-13.425223710998457,0.0,-2.963431544992042,0.0
4529343662.9285,-13.429164250584293,0.0,-2.8956279807337704,0.0
4529358662.928,-13.435377254624438,0.0,-2.8942065538705464,0.0
4529373662.9275,-13.4300941034762,0.0,-2.951144831520801,0.0
4529388662.927,-13.426985744045405,0.0,-2.8942763628854506,0.0
4529403662.9265,-13.424536896420808,0.0,-2.952583857092461,0.0
4529418662.926,-13.43608311228242,0.0,-2.9391960130491657,0.0
4529433662.9255,-13.426751455430866,0.0,-2.9536709900140226,0.0
4529448662.925,-13.432953236770631,0.0,-2.938330198594965,0.0
4529463662.9245,-13.42849190431878,0.0,-2.9686192041191273,0.0
4529478662.924,-13.434299651793218,0.0,-2.8755322222282342,0.0
4529493662.9235,-13.424499735120946,0.0,-2.9713174033416268,0.0
4529508662.923,-13.438330503523046,0.0,-2.9772059828806747,0.0
4529523662.9225,-13.43282600681017,0.0,-2.936034584623933,0.0
4529538662.922,-13.433466400091653,0.0,-2.8769203070081013,0.0
4529553662.9215,-13.4384091427523,0.0,-2.9296271478974694,0.0
4529568662.921,-13.431372936291467,0.0,-2.9578168355732903,0.0
4529583662.9205,-13.437739065302052,0.0,-3.026288692509323,0.0
4529598662.92,-13.430427475299345,0.0,-2.9663931582133527,0.0
4529613662.9195,-13.426954746005634,0.0,-3.0084232737679226,0.0
4529628662.919,-13.435722826584371,0.0,-2.967897353232422,0.0
4529643662.9185,-13.438804957295778,0.0,-2.9920820279444906,0.0
4529658662.918,-13.437951109862261,0.0,-2.9386839583160853,0.0
4529673662.9175,-13.433630019039907,0.0,-2.9845825104337407,0.0
4529688662.917,-13.432129798572696,0.0,-2.9499358210650386,0.0
4529703662.9165,-13.432350196182409,0.0,-2.9432674927463554,0.0
4529718662.916,-13.433722314749524,0.0,-2.9621088436505594,0.0
4529733662.9155,-13.431958797717199,0.0,-3.0424231234536054,0.0
4529748662.915,-13.43848620063282,0.0,-3.0096020324321233,0.0
4529763662.9145,-13.434567742833321,0.0,-3.04248747022286,0.0
4529778662.914,-13.43493369535034,0.0,-2.9646204416988833,0.0
4529793662.9135,-13.432912001325082,0.0,-2.99626353851443,0.0
4529808662.913,-13.43064322456299,0.0,-3.021870052306043,0.0
4529823662.9125,-13.43914743331198,0.0,-2.9861765758901084,0.0
4529838662.912,-13.434344565557117,0.0,-3.020535594888877,0.0
4529853662.9115,-13.43666560164114,0.0,-2.99003583767465,0.0
4529868662.911,-13.434394902729721,0.0,-3.01507963304816,0.0
4529883662.9105,-13.42989912954458,0.0,-3.013245559801512,0.0
4529898662.91,-13.430394937321463,0.0,-3.0469666242405933,0.0
4529913662.9095,-13.43501845723571,0.0,-3.0524803769758844,0.0
4529928662.909,-13.437110375645918,0.0,-3.0087905428258694,0.0
4529943662.9085,-13.437105882751775,0.0,-3.035877508931824,0.0
4529958662.908,-13.422340002031303,0.0,-3.004478110397094,0.0
4529973662.9075,-13.432226866670318,0.0,-3.113762733451676,0.0
4529988662.907,-13.440244037196976,0.0,-3.1311029135852086,0.0
4530003662.9065,-13.441926105703349,0.0,-2.9942071986667953,0.0
4530018662.906,-13.438239012162512,0.0,-3.0425098386184386,0.0
4530033662.9055,-13.437677571731179,0.0,-3.1059830649077,0.0
4530048662.905,-13.433967043819013,0.0,-3.1133249268930174,0.0
4530063662.9045,-13.427086130483602,0.0,-3.0876174513897237,0.0
4530078662.904,-13.428275803591774,0.0,-3.0708109076373216,0.0
4530093662.9035,-13.440506529820146,0.0,-3.10035279299715,0.0
4530108662.903,-13.445536036084103,0.0,-3.045905326836817,0.0
4530123662.9025,-13.427087970322102,0.0,-3.1195026661496223,0.0
4530138662.902,-13.429342917757873,0.0,-3.0692059343170777,0.0
4530153662.9015,-13.43921358425719,0.0,-3.116732978018192,0.0
4530168662.901,-13.440453689359215,0.0,-3.1599843256819398,0.0
4530183662.9005,-13.440688999055626,0.0,-3.160940780278169,0.0
4530198662.9,-13.441583003427356,0.0,-3.1503474097099473,0.0
4530213662.8995,-13.440752012580756,0.0,-3.0698566747410663,0.0
4530228662.899,-13.438009899772352,0.0,-3.103049141075755,0.0
4530243662.8985,-13.435766871088493,0.0,-3.084641080666454,0.0
4530258662.898,-13.440201773357261,0.0,-3.0789810802640116,0.0
4530273662.8975,-13.428981737347394,0.0,-3.1288179162538685,0.0
4530288662.897,-13.442377580378311,0.0,-3.1022210205655223,0.0
4530303662.8965,-13.434231637408606,0.0,-3.0299380377018674,0.0
4530318662.896,-13.433890009787689,0.0,-3.1053390159193244,0.0
4530333662.8955,-13.43405440190342,0.0,-3.1313779035724707,0.0
4530348662.895,-13.428985200619577,0.0,-3.0617331033535566,0.0
4530363662.8945,-13.434592801156038,0.0,-3.1253822071735913,0.0
4530378662.894,-13.431922182511709,0.0,-3.13028829802578,0.0
4530393662.8935,-13.428651678047647,0.0,-3.1379425606494484,0.0
4530408662.893,-13.43630705696824,0.0,-3.183316358892649,0.0
4530423662.8925,-13.429528155878764,0.0,-3.1064162156752233,0.0
4530438662.892,-13.4372450357273,0.0,-3.158494752484373,0.0
4530453662.8915,-13.439207224021718,0.0,-3.202642136159563,0.0
4530468662.891,-13.432447147401794,0.0,-3.1609713311679255,0.0
4530483662.8905,-13.438837369919616,0.0,-3.1749384033715287,0.0
4530498662.89,-13.436913988972062,0.0,-3.1931699319132,0.0
4530513662.8895,-13.429764568685968,0.0,-3.1590339278909028,0.0
4530528662.889,-13.44958141470493,0.0,-3.1961170291138252,0.0
4530543662.8885,-13.436672757846598,0.0,-3.1837075542218884,0.0
4530558662.888,-13.428962389319958,0.0,-3.1945250728495793,0.0
4530573662.8875,-13.43796410783755,0.0,-3.1216321151921975,0.0
4530588662.887,-13.434229247840113,0.0,-3.2029137291869025,0.0
4530603662.8865,-13.43823545076033,0.0,-3.1967625937970845,0.0
4530618662.886,-13.442714153043308,0.0,-3.141026241720061,0.0
4530633662.8855,-13.43812357964026,0.0,-3.2138425798626495,0.0
4530648662.885,-13.439044731731487,0.0,-3.2137780243122136,0.0
4530663662.8845,-13.436235800612488,0.0,-3.2462213954575025,0.0
4530678662.884,-13.442435435013543,0.0,-3.1512414102922284,0.0
4530693662.8835,-13.442837724923294,0.0,-3.2129730917229,0.0
4530708662.883,-13.438841466343987,0.0,-3.2070615744041957,0.0
4530723662.8825,-13.433848953877028,0.0,-3.212498310645281,0.0
4530738662.882,-13.43678491572481,0.0,-3.236881986361299,0.0
4530753662.8815,-13.439415301975604,0.0,-3.1953320934037555,0.0
4530768662.881,-13.438995870110178,0.0,-3.2558519201094316,0.0
4530783662.8805,-13.43208222789807,0.0,-3.198309429878262,0.0
4530798662.88,-13.44482592577748,0.0,-3.2360067900361322,0.0
4530813662.8795,-13.431128200234067,0.0,-3.2250590866476188,0.0
4530828662.879,-13.433438164568582,0.0,-3.224578331080603,0.0
4530843662.8785,-13.435796353644392,0.0,-3.2343250058852266,0.0
4530858662.878,-13.42844603099545,0.0,-3.261999770300838,0.0
4530873662.8775,-13.43730054106586,0.0,-3.2183576766713804,0.0
4530888662.877,-13.43617369714291,0.0,-3.2916002897746077,0.0
4530903662.8765,-13.444950794335242,0.0,-3.2878730486619396,0.0
4530918662.876,-13.43338106442658,0.0,-3.2891632556661894,0.0
4530933662.8755,-13.441647733844404,0.0,-3.2559612453299813,0.0
4530948662.875,-13.438395180628556,0.0,-3.290034676453075,0.0
4530963662.8745,-13.432641269207796,0.0,-3.218636626601033,0.0
4530978662.874,-13.441186095951581,0.0,-3.2825656595064334,0.0
4530993662.8735,-13.437972327763054,0.0,-3.2860841700935297,0.0
4531008662.873,-13.435115967974799,0.0,-3.225045976613251,0.0
4531023662.8725,-13.44986351651431,0.0,-3.3114372207182865,0.0
4531038662.872,-13.444361937139073,0.0,-3.306415630616969,0.0
4531053662.8715,-13.442239221283096,0.0,-3.265984650566222,0.0
4531068662.871,-13.435783204028318,0.0,-3.329319378008657,0.0
4531083662.8705,-13.438549171144892,0.0,-3.2903197265990705,0.0
4531098662.87,-13.43946293663042,0.0,-3.295549403071958,0.0
4531113662.8695,-13.442310733705398,0.0,-3.330322294788817,0.0
4531128662.869,-13.435085252135702,0.0,-3.2858132729993046,0.0
4531143662.8685,-13.440193256410229,0.0,-3.3065110501029804,0.0
4531158662.868,-13.434614353490426,0.0,-3.371982550747979,0.0
4531173662.8675,-13.427918059089997,0.0,-3.360095477580234,0.0
4531188662.867,-13.44457852673841,0.0,-3.3041165475695493,0.0
4531203662.8665,-13.441117641258018,0.0,-3.280754830338662,0.0
4531218662.866,-13.432968836373725,0.0,-3.361030730210895,0.0
4531233662.8655,-13.443232212487032,0.0,-3.3645143448609898,0.0
4531248662.865,-13.442313179048709,0.0,-3.33125338593032,0.0
4531263662.8645,-13.437012447232174,0.0,-3.3040815201887486,0.0
4531278662.864,-13.442430926958604,0.0,-3.3313946496582036,0.0
4531293662.8635,-13.450640274062478,0.0,-3.326703314555306,0.0
4531308662.863,-13.434733415778542,0.0,-3.403138674870593,0.0
4531323662.8625,-13.439012974403772,0.0,-3.3317557079995903,0.0
4531338662.862,-13.438348831888424,0.0,-3.401434592606741,0.0
4531353662.8615,-13.445036105436323,0.0,-3.3782814263960046,0.0
4531368662.861,-13.445301138820842,0.0,-3.3914035993061473,0.0
4531383662.8605,-13.436058308644077,0.0,-3.36990757091299,0.0
4531398662.86,-13.447344936895513,0.0,-3.3906801406314733,0.0
4531413662.8595,-13.435615916273072,0.0,-3.4211460504277853,0.0
4531428662.859,-13.447989923825542,0.0,-3.392500409878662,0.0
4531443662.8585,-13.438164692308273,0.0,-3.4075028717504097,0.0
4531458662.858,-13.446475524903242,0.0,-3.460968126262088,0.0
4531473662.8575,-13.434490213924835,0.0,-3.4037690391861437,0.0
4531488662.857,-13.43981409404517,0.0,-3.423987081697198,0.0
4531503662.8565,-13.44615606372762,0.0,-3.4187938585552415,0.0
4531518662.856,-13.438706349692634,0.0,-3.4886393785257415,0.0
4531533662.8555,-13.435717992900205,0.0,-3.428041610633831,0.0
4531548662.855,-13.440241263365479,0.0,-3.410390845882328,0.0
4531563662.8545,-13.443474950788152,0.0,-3.428097547242531,0.0
4531578662.854,-13.450217943807312,0.0,-3.436436870249819,0.0
4531593662.8535,-13.452580229882958,0.0,-3.3811424772166876,0.0
4531608662.853,-13.440823421820621,0.0,-3.4336052981126435,0.0
4531623662.8525,-13.439603783252014,0.0,-3.441859490486934,0.0
4531638662.852,-13.432575887541562,0.0,-3.479424303068444,0.0
4531653662.8515,-13.446746337506452,0.0,-3.5172697768794046,0.0
4531668662.851,-13.451703299023844,0.0,-3.4502255618157114,0.0
4531683662.8505,-13.443063876633204,0.0,-3.4799373031394634,0.0
4531698662.85,-13.447493361807885,0.0,-3.4644600200407942,0.0
4531713662.8495,-13.435054042362559,0.0,-3.508504673604538,0.0
4531728662.849,-13.44532339116627,0.0,-3.4758203478073812,0.0
4531743662.8485,-13.444560360629676,0.0,-3.4485438824620984,0.0
4531758662.848,-13.441755755509067,0.0,-3.4990438571564644,0.0
4531773662.8475,-13.447157037811849,0.0,-3.423429417317728,0.0
4531788662.847,-13.436107112155804,0.0,-3.557019407318851,0.0
4531803662.8465,-13.450593399666463,0.0,-3.510741276011713,0.0
4531818662.846,-13.443735775899142,0.0,-3.4841186548583796,0.0
4531833662.8455,-13.446432260117344,0.0,-3.5217305944497097,0.0
4531848662.845,-13.43854751728989,0.0,-3.5331092330811886,0.0
4531863662.8445,-13.442639585088214,0.0,-3.531546855054607,0.0
