Frequency,S11,S11-Q,S11-Phase,S11-Phase-Q
4527198663.0,-13.41775426716507,0.0,-2.389153687443756,0.0
4527213662.9995,-13.427247986973743,0.0,-2.3334859956201472,0.0
4527228662.999,-13.422827934229531,0.0,-2.4224641133126634,0.0
4527243662.9985,-13.42280186457641,0.0,-2.4022693485297206,0.0
4527258662.998,-13.42804033695601,0.0,-2.361272533291163,0.0
4527273662.9975,-13.420821761623124,0.0,-2.370872263648156,0.0
4527288662.997,-13.419992820366986,0.0,-2.327537638402292,0.0
4527303662.9965,-13.417949566612961,0.0,-2.3307034910413464,0.0
4527318662.996,-13.423233560888,0.0,-2.402254949058414,0.0
4527333662.9955,-13.429261990741361,0.0,-2.357843151303882,0.0
4527348662.995,-13.431384415168068,0.0,-2.367815244785312,0.0
4527363662.9945,-13.417655723927197,0.0,-2.3764086648207297,0.0
4527378662.994,-13.42082114395961,0.0,-2.362951531034968,0.0
4527393662.9935,-13.42108330598495,0.0,-2.380404372347917,0.0
4527408662.993,-13.418898776818754,0.0,-2.4138235938275137,0.0
4527423662.9925,-13.420101539934844,0.0,-2.392665391831625,0.0
4527438662.992,-13.422200259931651,0.0,-2.3590203777367935,0.0
4527453662.9915,-13.421180616722419,0.0,-2.3660053887961507,0.0
4527468662.991,-13.43467557993521,0.0,-2.452584051809797,0.0
4527483662.9905,-13.430430300675658,0.0,-2.374021165033239,0.0
4527498662.99,-13.424744104358886,0.0,-2.489772165077986,0.0
4527513662.9895,-13.415907260095581,0.0,-2.4138561756817625,0.0
4527528662.989,-13.422103991561574,0.0,-2.3459359473614385,0.0
4527543662.9885,-13.418381191189548,0.0,-2.4297334459042954,0.0
4527558662.988,-13.431656686594597,0.0,-2.428493307225646,0.0
4527573662.9875,-13.420696501609086,0.0,-2.3486319746501514,0.0
4527588662.987,-13.430036646613733,0.0,-2.3886633661318197,0.0
4527603662.9865,-13.40978816645377,0.0,-2.4361340243952694,0.0
4527618662.986,-13.425424593391062,0.0,-2.398102297138904,0.0
4527633662.9855,-13.419704336063221,0.0,-2.3870733460527065,0.0
4527648662.985,-13.421804712387114,0.0,-2.4508271852781336,0.0
4527663662.9845,-13.426228232455479,0.0,-2.4130061608320323,0.0
4527678662.984,-13.431474613426674,0.0,-2.414735475399038,0.0
4527693662.9835,-13.422056240747649,0.0,-2.441312071242593,0.0
4527708662.983,-13.421940807213728,0.0,-2.395363844298067,0.0
4527723662.9825,-13.423347136420468,0.0,-2.4814128220133926,0.0
4527738662.982,-13.431932079091396,0.0,-2.4589526164380224,0.0
4527753662.9815,-13.429567383022807,0.0,-2.4685003428032553,0.0
4527768662.981,-13.427971707592622,0.0,-2.4474349996992233,0.0
4527783662.9805,-13.420805053831202,0.0,-2.4646102006165203,0.0
4527798662.98,-13.422738313676065,0.0,-2.464285307693582,0.0
4527813662.9795,-13.424592614496419,0.0,-2.41532834722016,0.0
4527828662.979,-13.427398011220397,0.0,-2.4449458747669492,0.0
4527843662.9785,-13.423010343498138,0.0,-2.515271890651832,0.0
4527858662.978,-13.432347614723943,0.0,-2.463528393286957,0.0
4527873662.9775,-13.426859976771217,0.0,-2.446962997676673,0.0
4527888662.977,-13.419750147014295,0.0,-2.439953102885971,0.0
4527903662.9765,-13.42895275174003,0.0,-2.4788264571146956,0.0
4527918662.976,-13.425851138116753,0.0,-2.5332431370409996,0.0
4527933662.9755,-13.438182166420196,0.0,-2.4468500317624384,0.0
4527948662.975,-13.430702688811461,0.0,-2.438649467769335,0.0
4527963662.9745,-13.425710702374722,0.0,-2.4489925677552593,0.0
4527978662.974,-13.419753806227883,0.0,-2.434448246305616,0.0
4527993662.9735,-13.421312712565815,0.0,-2.5300474042109786,0.0
4528008662.973,-13.423047708301873,0.0,-2.493902888295901,0.0
4528023662.9725,-13.422201554293967,0.0,-2.529716992235801,0.0
4528038662.972,-13.419424560919342,0.0,-2.469754563782003,0.0
4528053662.9715,-13.422368567734749,0.0,-2.5022525478030797,0.0
4528068662.971,-13.424982354341566,0.0,-2.4285776288608805,0.0
4528083662.9705,-13.422506580010822,0.0,-2.4884793799365887,0.0
4528098662.97,-13.430483740450816,0.0,-2.4571381851508054,0.0
4528113662.9695,-13.421532565834395,0.0,-2.4896060124630957,0.0
4528128662.969,-13.422113493610919,0.0,-2.5576059321346034,0.0
4528143662.9685,-13.423735766005917,0.0,-2.4099026163841484,0.0
4528158662.968,-13.425683856616962,0.0,-2.509332653872183,0.0
4528173662.9675,-13.42607944035037,0.0,-2.50545225948862,0.0
4528188662.967,-13.425523029336457,0.0,-2.481071405686768,0.0
4528203662.9665,-13.435982579819562,0.0,-2.5020506392401916,0.0
4528218662.966,-13.423226941746274,0.0,-2.5184171467424985,0.0
4528233662.9655,-13.42799966934168,0.0,-2.535297158054024,0.0
4528248662.965,-13.421576844092659,0.0,-2.5346085095711683,0.0
4528263662.9645,-13.426279770298725,0.0,-2.5560217435114567,0.0
4528278662.964,-13.415578221363788,0.0,-2.487508176384583,0.0
4528293662.9635,-13.415889460224887,0.0,-2.517377208413495,0.0
4528308662.963,-13.42683320883743,0.0,-2.474845169597685,0.0
4528323662.9625,-13.42725744475067,0.0,-2.5248313904996507,0.0
4528338662.962,-13.420979264198458,0.0,-2.4932955468991023,0.0
4528353662.9615,-13.433115606762417,0.0,-2.5333149942319535,0.0
4528368662.961,-13.424722401841906,0.0,-2.489370029127929,0.0
4528383662.9605,-13.41692876565361,0.0,-2.5276683171473975,0.0
4528398662.96,-13.424442473348353,0.0,-2.549456066825503,0.0
4528413662.9595,-13.434919908613923,0.0,-2.5004810283488546,0.0
4528428662.959,-13.425719988492288,0.0,-2.5044047420507387,0.0
4528443662.9585,-13.425198365179167,0.0,-2.491569832531802,0.0
4528458662.958,-13.425505425248506,0.0,-2.5759908698331464,0.0
4528473662.9575,-13.420525273534974,0.0,-2.53685439712373,0.0
4528488662.957,-13.422646865817,0.0,-2.535061603276635,0.0
4528503662.9565,-13.434367375842406,0.0,-2.5114550736943526,0.0
4528518662.956,-13.42168959268728,0.0,-2.565845142414601,0.0
4528533662.9555,-13.415885745058114,0.0,-2.5412656730901233,0.0
4528548662.955,-13.42833982331044,0.0,-2.5015198842983346,0.0
4528563662.9545,-13.418363187974352,0.0,-2.5182966217249327,0.0
4528578662.954,-13.419345424052873,0.0,-2.548009332909958,0.0
4528593662.9535,-13.431710807546168,0.0,-2.5287986530283693,0.0
4528608662.953,-13.426096712248746,0.0,-2.5851470228608853,0.0
4528623662.9525,-13.429808282485565,0.0,-2.574211730147443,0.0
4528638662.952,-13.428799211036832,0.0,-2.594730747803841,0.0
4528653662.9515,-13.424051670016102,0.0,-2.5518136913311493,0.0
4528668662.951,-13.417958161369976,0.0,-2.540905461673016,0.0
4528683662.9505,-13.42143478014484,0.0,-2.5936528310872973,0.0
4528698662.95,-13.417023185260309,0.0,-2.5802542454715707,0.0
4528713662.9495,-13.427759360573264,0.0,-2.518134816389503,0.0
4528728662.949,-13.419173146980867,0.0,-2.593263560865214,0.0
4528743662.9485,-13.436852340253548,0.0,-2.5941792315236185,0.0
4528758662.948,-13.42441443139493,0.0,-2.5839974799164933,0.0
4528773662.9475,-13.420899452404893,0.0,-2.572137940720694,0.0
4528788662.947,-13.430166053255732,0.0,-2.5825479527778743,0.0
4528803662.9465,-13.428005759984806,0.0,-2.5748045241690027,0.0
4528818662.946,-13.424291495062219,0.0,-2.6092081129326883,0.0
4528833662.9455,-13.437635724906158,0.0,-2.5299661862477967,0.0
4528848662.945,-13.436418456437465,0.0,-2.6308646688005344,0.0
4528863662.9445,-13.423402814189387,0.0,-2.5733486377821313,0.0
4528878662.944,-13.422757582672084,0.0,-2.6359339064529044,0.0
4528893662.9435,-13.420389492751607,0.0,-2.594648488313323,0.0
4528908662.943,-13.429233865986037,0.0,-2.5921818615162793,0.0
4528923662.9425,-13.425475460362806,0.0,-2.6719468582055628,0.0
4528938662.942,-13.432250842662423,0.0,-2.648718521664464,0.0
4528953662.9415,-13.422966505598096,0.0,-2.572392933086578,0.0
4528968662.941,-13.438035821979227,0.0,-2.598857953729312,0.0
4528983662.9405,-13.42235020075432,0.0,-2.619414569134597,0.0
4528998662.94,-13.419156281026904,0.0,-2.6692816920605766,0.0
4529013662.9395,-13.425833755241987,0.0,-2.643236779490268,0.0
4529028662.939,-13.424438907237077,0.0,-2.663526245344225,0.0
4529043662.9385,-13.42190313318605,0.0,-2.635145326659617,0.0
4529058662.938,-13.424536694356854,0.0,-2.6514005967802623,0.0
4529073662.9375,-13.427356854249686,0.0,-2.602888898742793,0.0
4529088662.937,-13.432432959019295,0.0,-2.6292926471942604,0.0
4529103662.9365,-13.425961282087473,0.0,-2.6415443803899814,0.0
4529118662.936,-13.429528702413503,0.0,-2.636122057968971,0.0
4529133662.9355,-13.431779445080995,0.0,-2.6340538241346882,0.0
4529148662.935,-13.435494866736743,0.0,-2.659502670207011,0.0
4529163662.9345,-13.422773388714532,0.0,-2.6468468776728233,0.0
4529178662.934,-13.433249676101834,0.0,-2.6348223312678276,0.0
4529193662.9335,-13.431728717012835,0.0,-2.6473108702569603,0.0
4529208662.933,-13.426829659452972,0.0,-2.659801257028149,0.0
4529223662.9325,-13.43392226567303,0.0,-2.7229294385972493,0.0
4529238662.932,-13.427958291600762,0.0,-2.6751801774318995,0.0
4529253662.9315,-13.426832895232195,0.0,-2.6916339525653865,0.0
4529268662.931,-13.427650680543596,0.0,-2.6510591141902644,0.0
4529283662.9305,-13.425314538270747,0.0,-2.6344636676168647,0.0
4529298662.93,-13.428530351877264,0.0,-2.703038148759054,0.0
4529313662.9295,-13.432226897128709,0.0,-2.688908756574649,0.0
4529328662.929,-13.42467932486741,0.0,-2.710347473451231,0.0
4529343662.9285,-13.435293856155784,0.0,-2.6861562946614668,0.0
4529358662.928,-13.432692940695535,0.0,-2.6803517964548855,0.0
4529373662.9275,-13.422345321474435,0.0,-2.6671599682344875,0.0
4529388662.927,-13.42906923528773,0.0,-2.620253482442224,0.0
4529403662.9265,-13.428524572781267,0.0,-2.696616879282269,0.0
4529418662.926,-13.43372250372327,0.0,-2.6916598893448653,0.0
4529433662.9255,-13.429467841960465,0.0,-2.7107309317155184,0.0
4529448662.925,-13.430667773842611,0.0,-2.679095401935678,0.0
4529463662.9245,-13.430642374149055,0.0,-2.7275320794385496,0.0
4529478662.924,-13.427594099837439,0.0,-2.628666612880321,0.0
4529493662.9235,-13.429136806658919,0.0,-2.757005213811057,0.0
4529508662.923,-13.432900135293542,0.0,-2.717117054877784,0.0
4529523662.9225,-13.418819518204932,0.0,-2.6690731203784788,0.0
4529538662.922,-13.42791157871289,0.0,-2.7248635665426977,0.0
4529553662.9215,-13.425882035293045,0.0,-2.7203817620182,0.0
4529568662.921,-13.425049702652768,0.0,-2.7411475016516427,0.0
4529583662.9205,-13.424686908163048,0.0,-2.746136154585854,0.0
4529598662.92,-13.431506692622165,0.0,-2.688821193659115,0.0
4529613662.9195,-13.42835545190991,0.0,-2.6849065512781563,0.0
4529628662.919,-13.418333004168641,0.0,-2.73357598292572,0.0
4529643662.9185,-13.434016279778074,0.0,-2.7426908475243805,0.0
4529658662.918,-13.427121357416947,0.0,-2.729735924354913,0.0
4529673662.9175,-13.428744124062653,0.0,-2.7242827311717512,0.0
4529688662.917,-13.423150108730951,0.0,-2.736839242510572,0.0
4529703662.9165,-13.427732110556931,0.0,-2.6936542008464706,0.0
4529718662.916,-13.433671627286849,0.0,-2.7176182046533794,0.0
4529733662.9155,-13.430349677943402,0.0,-2.7601868219514594,0.0
4529748662.915,-13.427584180627314,0.0,-2.7181483434945974,0.0
4529763662.9145,-13.429349985721245,0.0,-2.6455776804835214,0.0
4529778662.914,-13.421749035095774,0.0,-2.754052560313884,0.0
4529793662.9135,-13.430693500515021,0.0,-2.752963750157889,0.0
4529808662.913,-13.427002654778686,0.0,-2.7749749407042756,0.0
4529823662.9125,-13.438520732937846,0.0,-2.7385737069677965,0.0
4529838662.912,-13.422595484326717,0.0,-2.713175987890989,0.0
4529853662.9115,-13.437857121416009,0.0,-2.8168280191356985,0.0
4529868662.911,-13.431497950135025,0.0,-2.7278055890005364,0.0
4529883662.9105,-13.436176777959009,0.0,-2.751255907627316,0.0
4529898662.91,-13.421569635039374,0.0,-2.765101393772243,0.0
4529913662.9095,-13.427438488023872,0.0,-2.756347347524633,0.0
4529928662.909,-13.427633698035699,0.0,-2.740972522180346,0.0
4529943662.9085,-13.423111098709041,0.0,-2.7967661651816687,0.0
4529958662.908,-13.429705174139093,0.0,-2.831847099504155,0.0
4529973662.9075,-13.439518661329332,0.0,-2.782094155244799,0.0
4529988662.907,-13.425506347121331,0.0,-2.7964010843842826,0.0
4530003662.9065,-13.428817108210708,0.0,-2.757021928584763,0.0
4530018662.906,-13.430663515725472,0.0,-2.775136117920114,0.0
4530033662.9055,-13.428246945798483,0.0,-2.777505913183476,0.0
4530048662.905,-13.43030038068588,0.0,-2.821742661985278,0.0
4530063662.9045,-13.424629249755958,0.0,-2.78727936704473,0.0
4530078662.904,-13.42873493590271,0.0,-2.8446475655417482,0.0
4530093662.9035,-13.424033551367371,0.0,-2.8283124920370066,0.0
4530108662.903,-13.434306761379833,0.0,-2.8378441564267054,0.0
4530123662.9025,-13.426132008612406,0.0,-2.7761954889109637,0.0
4530138662.902,-13.423736174795016,0.0,-2.725748661464366,0.0
4530153662.9015,-13.425183685507793,0.0,-2.8614737733073787,0.0
4530168662.901,-13.429961867086055,0.0,-2.855957773291303,0.0
4530183662.9005,-13.428109445361464,0.0,-2.8879697450971418,0.0
4530198662.9,-13.434449692577191,0.0,-2.8476047815113934,0.0
4530213662.8995,-13.435729415980791,0.0,-2.8422403207312628,0.0
4530228662.899,-13.44122831688723,0.0,-2.886107177370835,0.0
4530243662.8985,-13.422925177999364,0.0,-2.8267532980548946,0.0
4530258662.898,-13.423635155232347,0.0,-2.860997156129732,0.0
4530273662.8975,-13.425135009101762,0.0,-2.874369558204284,0.0
4530288662.897,-13.4337430511367,0.0,-2.9004967517910685,0.0
4530303662.8965,-13.439618618478256,0.0,-2.9131756579141257,0.0
4530318662.896,-13.439465896773722,0.0,-2.8465419108904793,0.0
4530333662.8955,-13.429734867540223,0.0,-2.8053194847789205,0.0
4530348662.895,-13.431526395046454,0.0,-2.873295674764848,0.0
4530363662.8945,-13.435177616929101,0.0,-2.8522668602937724,0.0
4530378662.894,-13.434779051146462,0.0,-2.8453803569581186,0.0
4530393662.8935,-13.441318835400187,0.0,-2.894751229113207,0.0
4530408662.893,-13.432121964206019,0.0,-2.8650335946410554,0.0
4530423662.8925,-13.4363823257445,0.0,-2.8920304356605535,0.0
4530438662.892,-13.431342296262063,0.0,-2.912793006872185,0.0
4530453662.8915,-13.433621284923106,0.0,-2.877851671561565,0.0
4530468662.891,-13.426477330553727,0.0,-2.8937298613009137,0.0
4530483662.8905,-13.42811439470896,0.0,-2.854080271413645,0.0
4530498662.89,-13.434499315192056,0.0,-2.8572284175112523,0.0
4530513662.8895,-13.434930074571632,0.0,-2.8790841941465453,0.0
4530528662.889,-13.437036379640642,0.0,-2.9046833554210156,0.0
4530543662.8885,-13.436196849782487,0.0,-2.8768276581239474,0.0
4530558662.888,-13.43045613308185,0.0,-2.8373782834842705,0.0
4530573662.8875,-13.435325039878931,0.0,-2.8889431349881924,0.0
4530588662.887,-13.43452704972641,0.0,-2.8850054020980602,0.0
4530603662.8865,-13.437088208541216,0.0,-2.8961092940241184,0.0
4530618662.886,-13.433507856560446,0.0,-2.9478353425237054,0.0
4530633662.8855,-13.426014162351033,0.0,-2.8749023582658335,0.0
4530648662.885,-13.42727659094811,0.0,-2.932446253594154,0.0
4530663662.8845,-13.425489594871127,0.0,-2.9031513133993494,0.0
4530678662.884,-13.432019039267049,0.0,-2.9595365086971546,0.0
4530693662.8835,-13.432553060529228,0.0,-2.91589751470452,0.0
4530708662.883,-13.435219962421037,0.0,-2.916770120391684,0.0
4530723662.8825,-13.435442677268096,0.0,-2.938458967474805,0.0
4530738662.882,-13.430972597674407,0.0,-2.917404139061009,0.0
4530753662.8815,-13.433463247290018,0.0,-2.8959512998379133,0.0
4530768662.881,-13.43601088707749,0.0,-2.939727122988396,0.0
4530783662.8805,-13.43864773110106,0.0,-2.915313640727354,0.0
4530798662.88,-13.434787742677583,0.0,-2.967447494139107,0.0
4530813662.8795,-13.434581625692587,0.0,-2.9424883315124455,0.0
4530828662.879,-13.43936379741281,0.0,-2.954873814977959,0.0
4530843662.8785,-13.421292369424629,0.0,-2.9604471918537683,0.0
4530858662.878,-13.440441838691164,0.0,-2.968969436494862,0.0
4530873662.8775,-13.442549741824747,0.0,-2.940646066366145,0.0
4530888662.877,-13.439557106927367,0.0,-2.9247818357121864,0.0
4530903662.8765,-13.43190428122199,0.0,-2.965187627416312,0.0
4530918662.876,-13.432577792524434,0.0,-2.9922815623258447,0.0
4530933662.8755,-13.435888228012578,0.0,-2.943883228207347,0.0
4530948662.875,-13.437396228265898,0.0,-3.0298165632115386,0.0
4530963662.8745,-13.44769732936275,0.0,-3.025592876452419,0.0
4530978662.874,-13.430647721235289,0.0,-3.019720987391048,0.0
4530993662.8735,-13.434382872817443,0.0,-2.999920544843462,0.0
4531008662.873,-13.436766719596807,0.0,-2.989318299195356,0.0
4531023662.8725,-13.442363889538537,0.0,-2.9918011938243665,0.0
4531038662.872,-13.424819544242073,0.0,-3.0016751526632763,0.0
4531053662.8715,-13.439412652816651,0.0,-2.968573654996954,0.0
4531068662.871,-13.437774931478387,0.0,-3.0067216790253375,0.0
4531083662.8705,-13.426623680836588,0.0,-2.9919833356826353,0.0
4531098662.87,-13.428912803757477,0.0,-3.1079204055071594,0.0
4531113662.8695,-13.430645568041388,0.0,-2.9889575617105537,0.0
4531128662.869,-13.429334732333507,0.0,-3.0163131822692377,0.0
4531143662.8685,-13.441651377854715,0.0,-3.0737731261812957,0.0
4531158662.868,-13.440786835315006,0.0,-3.017353253385676,0.0
4531173662.8675,-13.437426424019064,0.0,-3.0166111384239986,0.0
4531188662.867,-13.435196105577148,0.0,-3.004306154491687,0.0
4531203662.8665,-13.438600687240429,0.0,-3.0676380195449786,0.0
4531218662.866,-13.438389103799441,0.0,-3.0163688742213908,0.0
4531233662.8655,-13.432018804186558,0.0,-3.0223983144705855,0.0
4531248662.865,-13.433289035132109,0.0,-3.0407853000807266,0.0
4531263662.8645,-13.426477923406724,0.0,-2.993344021386058,0.0
4531278662.864,-13.440525468430085,0.0,-3.043845150896033,0.0
4531293662.8635,-13.445075494679555,0.0,-3.0333127345667417,0.0
4531308662.863,-13.4362059863799,0.0,-3.108684447066545,0.0
4531323662.8625,-13.431791363322878,0.0,-3.1115354892782596,0.0
4531338662.862,-13.437312418223435,0.0,-3.0479477044800882,0.0
4531353662.8615,-13.434905111348671,0.0,-3.0385191507930824,0.0
4531368662.861,-13.431980843021332,0.0,-3.046085816042632,0.0
4531383662.8605,-13.43626059146046,0.0,-3.0751735212659637,0.0
4531398662.86,-13.433473421310513,0.0,-3.026284821452512,0.0
4531413662.8595,-13.430180102204556,0.0,-3.018391791684509,0.0
4531428662.859,-13.437305095588536,0.0,-3.039857095343325,0.0
4531443662.8585,-13.433324136893392,0.0,-3.083341808227205,0.0
4531458662.858,-13.433572727211558,0.0,-3.0719254074278526,0.0
4531473662.8575,-13.43428788300826,0.0,-3.1177101102119704,0.0
4531488662.857,-13.438437625729804,0.0,-3.043697625565359,0.0
4531503662.8565,-13.429572396855749,0.0,-3.1310396297878995,0.0
4531518662.856,-13.436528407681863,0.0,-3.083548786429705,0.0
4531533662.8555,-13.435290340836097,0.0,-3.1081825944072636,0.0
4531548662.855,-13.436039680670348,0.0,-3.107850736875871,0.0
4531563662.8545,-13.447623318043032,0.0,-3.0879859944225565,0.0
4531578662.854,-13.43766175102603,0.0,-3.0603581284955004,0.0
4531593662.8535,-13.433523102924159,0.0,-3.06813590795368,0.0
4531608662.853,-13.436769464783625,0.0,-3.1020563655496183,0.0
4531623662.8525,-13.432138299385327,0.0,-3.135945682747649,0.0
4531638662.852,-13.43987196645054,0.0,-3.1562570086094297,0.0
4531653662.8515,-13.43739549708859,0.0,-3.166175621431069,0.0
4531668662.851,-13.432026085741981,0.0,-3.132984114407738,0.0
4531683662.8505,-13.4333786244129,0.0,-3.1691724296567902,0.0
4531698662.85,-13.440215380463327,0.0,-3.1274537640693905,0.0
4531713662.8495,-13.447350684709354,0.0,-3.1613263915763725,0.0
4531728662.849,-13.438812349433702,0.0,-3.156111164280111,0.0
4531743662.8485,-13.440029515849547,0.0,-3.1265930256681007,0.0
4531758662.848,-13.444011856487556,0.0,-3.142983159853977,0.0
4531773662.8475,-13.432843862010612,0.0,-3.125472697810216,0.0
4531788662.847,-13.441647575864998,0.0,-3.1820576076902163,0.0
4531803662.8465,-13.441310372396103,0.0,-3.1734205441156442,0.0
4531818662.846,-13.443615464006967,0.0,-3.1595364060724274,0.0
4531833662.8455,-13.432015873228684,0.0,-3.1879768617291164,0.0
4531848662.845,-13.429070002812857,0.0,-3.181730015552138,0.0
4531863662.8445,-13.441864693814093,0.0,-3.1311320155840896,0.0
