Frequency,S11,S11-Q,S11-Phase,S11-Phase-Q
4527198663.0,-13.444403473583893,0.0,-2.093936233843354,0.0
4527213662.9995,-13.454907672651998,0.0,-2.100588311164049,0.0
4527228662.999,-13.448831810143389,0.0,-2.0574384407167976,0.0
4527243662.9985,-13.44555951331172,0.0,-2.1252923157037795,0.0
4527258662.998,-13.438214758277097,0.0,-2.0703520568470086,0.0
4527273662.9975,-13.446852229308375,0.0,-2.1367770822302097,0.0
4527288662.997,-13.442429525311288,0.0,-2.0839318829791824,0.0
4527303662.9965,-13.44547398262488,0.0,-2.036602408408313,0.0
4527318662.996,-13.45370562976331,0.0,-2.0945778483017365,0.0
4527333662.9955,-13.459080492798865,0.0,-2.0860914984555454,0.0
4527348662.995,-13.441377727071284,0.0,-2.1038509481710252,0.0
4527363662.9945,-13.453503379420695,0.0,-2.07115559104232,0.0
4527378662.994,-13.449452370139621,0.0,-2.124845375847541,0.0
4527393662.9935,-13.445157828385097,0.0,-2.1468191613440966,0.0
4527408662.993,-13.454827291661163,0.0,-2.0758169285891843,0.0
4527423662.9925,-13.442866866344406,0.0,-2.1213139489545245,0.0
4527438662.992,-13.448373713907802,0.0,-2.1068027665654507,0.0
4527453662.9915,-13.450996701936582,0.0,-2.1546226309567693,0.0
4527468662.991,-13.44535004303658,0.0,-2.0703977878117787,0.0
4527483662.9905,-13.450418283991752,0.0,-2.1507130888769033,0.0
4527498662.99,-13.447003956507604,0.0,-2.073607032929796,0.0
4527513662.9895,-13.449323334728762,0.0,-2.160117467337936,0.0
4527528662.989,-13.445929564646498,0.0,-2.130424558948063,0.0
4527543662.9885,-13.452110248049005,0.0,-2.121840468004085,0.0
4527558662.988,-13.455282658965533,0.0,-2.130930058293595,0.0
4527573662.9875,-13.455460749750095,0.0,-2.1519308199453633,0.0
4527588662.987,-13.45571505420153,0.0,-2.1278713106791804,0.0
4527603662.9865,-13.448407735071523,0.0,-2.112557329049843,0.0
4527618662.986,-13.446942524524212,0.0,-2.1209222820862537,0.0
4527633662.9855,-13.440213029631263,0.0,-2.0867653923073832,0.0
4527648662.985,-13.443747384475213,0.0,-2.139724880255327,0.0
4527663662.9845,-13.446388436169748,0.0,-2.1706426770671516,0.0
4527678662.984,-13.436471941049437,0.0,-2.098412587765947,0.0
4527693662.9835,-13.451119111338771,0.0,-2.1766697870966856,0.0
4527708662.983,-13.44447318086436,0.0,-2.1218362249093756,0.0
4527723662.9825,-13.450807757622481,0.0,-2.1353532474272154,0.0
4527738662.982,-13.451180543654838,0.0,-2.12513141902052,0.0
4527753662.9815,-13.451311503911647,0.0,-2.193887023010959,0.0
4527768662.981,-13.452537162465923,0.0,-2.12460003069929,0.0
4527783662.9805,-13.455839781998726,0.0,-2.0779067646257916,0.0
4527798662.98,-13.450618742615987,0.0,-2.200488477938562,0.0
4527813662.9795,-13.450999713239785,0.0,-2.14321670321587,0.0
4527828662.979,-13.44662691189221,0.0,-2.1579875493503473,0.0
4527843662.9785,-13.457553594592792,0.0,-2.1108637670837154,0.0
4527858662.978,-13.44169799007706,0.0,-2.1506201862817846,0.0
4527873662.9775,-13.452056678616318,0.0,-2.1440713498084323,0.0
4527888662.977,-13.44713800088735,0.0,-2.1861794548476854,0.0
4527903662.9765,-13.44592000205369,0.0,-2.2490481398456943,0.0
4527918662.976,-13.453723323505486,0.0,-2.244472439680684,0.0
4527933662.9755,-13.453333922383042,0.0,-2.179014530011879,0.0
4527948662.975,-13.452778453150675,0.0,-2.1755318490423927,0.0
4527963662.9745,-13.45957660540926,0.0,-2.1458717155627425,0.0
4527978662.974,-13.445664528063242,0.0,-2.1759781051046523,0.0
4527993662.9735,-13.455856491965532,0.0,-2.242017856908449,0.0
4528008662.973,-13.450658610786357,0.0,-2.1908904943577734,0.0
4528023662.9725,-13.449398346013037,0.0,-2.1747731712720464,0.0
4528038662.972,-13.452201632414802,0.0,-2.15096264724227,0.0
4528053662.9715,-13.45361032631985,0.0,-2.161208307985255,0.0
4528068662.971,-13.447085486955771,0.0,-2.19236495905258,0.0
4528083662.9705,-13.450039178177827,0.0,-2.2010454525237364,0.0
4528098662.97,-13.447717065010243,0.0,-2.1982696570908455,0.0
4528113662.9695,-13.448992062407637,0.0,-2.198737948968073,0.0
4528128662.969,-13.450297279142365,0.0,-2.2177533739834847,0.0
4528143662.9685,-13.445660367029742,0.0,-2.188222791632987,0.0
4528158662.968,-13.444594583165905,0.0,-2.205264917549476,0.0
4528173662.9675,-13.452793609062997,0.0,-2.2325202064895597,0.0
4528188662.967,-13.447858432021537,0.0,-2.186450998433443,0.0
4528203662.9665,-13.44455179854467,0.0,-2.2013841351172165,0.0
4528218662.966,-13.450889688449038,0.0,-2.2428846227442274,0.0
4528233662.9655,-13.451978753840528,0.0,-2.1771725220947697,0.0
4528248662.965,-13.451336236395953,0.0,-2.2402654008902676,0.0
4528263662.9645,-13.452043406050295,0.0,-2.228110245805577,0.0
4528278662.964,-13.444709629801288,0.0,-2.258876064827442,0.0
4528293662.9635,-13.449205744267367,0.0,-2.2033055138032744,0.0
4528308662.963,-13.453450390682061,0.0,-2.155377342274653,0.0
4528323662.9625,-13.458311181782802,0.0,-2.1946595320618765,0.0
4528338662.962,-13.44823081634237,0.0,-2.2498169185507626,0.0
4528353662.9615,-13.448136826034675,0.0,-2.224887015977864,0.0
4528368662.961,-13.450346956078135,0.0,-2.198113901550363,0.0
4528383662.9605,-13.448413399445089,0.0,-2.209919367673564,0.0
4528398662.96,-13.443650601083405,0.0,-2.276107157082728,0.0
4528413662.9595,-13.455423118902008,0.0,-2.214583283843096,0.0
4528428662.959,-13.441247729343788,0.0,-2.2158291034346846,0.0
4528443662.9585,-13.450524201339174,0.0,-2.2353328993814663,0.0
4528458662.958,-13.448970795391148,0.0,-2.199202783019226,0.0
4528473662.9575,-13.440459294251674,0.0,-2.236052451971392,0.0
4528488662.957,-13.450390545751736,0.0,-2.242567933393133,0.0
4528503662.9565,-13.449890958313466,0.0,-2.2546310425196507,0.0
4528518662.956,-13.45127949434521,0.0,-2.202589427225485,0.0
4528533662.9555,-13.45297379079977,0.0,-2.263531967069389,0.0
4528548662.955,-13.454464058437207,0.0,-2.241902806116722,0.0
4528563662.9545,-13.453295019112483,0.0,-2.25054600925985,0.0
4528578662.954,-13.441926004894764,0.0,-2.305272226453929,0.0
4528593662.9535,-13.446222044061905,0.0,-2.2387214388621706,0.0
4528608662.953,-13.442610479371046,0.0,-2.2940731638603045,0.0
4528623662.9525,-13.452990892934086,0.0,-2.2513789757811553,0.0
4528638662.952,-13.442631363892358,0.0,-2.2806902046899618,0.0
4528653662.9515,-13.453267355762161,0.0,-2.2986751761846804,0.0
4528668662.951,-13.44750200311328,0.0,-2.2611468531264327,0.0
4528683662.9505,-13.448065452321856,0.0,-2.2247400726376916,0.0
4528698662.95,-13.448778158124297,0.0,-2.2793090331990253,0.0
4528713662.9495,-13.451803215108068,0.0,-2.1942911447789024,0.0
4528728662.949,-13.456129543554862,0.0,-2.3122667220632005,0.0
4528743662.9485,-13.45917415823333,0.0,-2.2852562316447647,0.0
4528758662.948,-13.457103422622703,0.0,-2.2935751857429008,0.0
4528773662.9475,-13.448670091611291,0.0,-2.241805644576821,0.0
4528788662.947,-13.450847805917363,0.0,-2.324837158729208,0.0
4528803662.9465,-13.46381202612918,0.0,-2.3293731568112945,0.0
4528818662.946,-13.451655614202618,0.0,-2.29983335705779,0.0
4528833662.9455,-13.456379936175951,0.0,-2.3830335513377574,0.0
4528848662.945,-13.451259750031062,0.0,-2.3068484027046514,0.0
4528863662.9445,-13.453079712294272,0.0,-2.3038917265079557,0.0
4528878662.944,-13.45713914548523,0.0,-2.3253680517608792,0.0
4528893662.9435,-13.456777768696957,0.0,-2.2357982449317473,0.0
4528908662.943,-13.442433736560666,0.0,-2.336251450426688,0.0
4528923662.9425,-13.448250078545223,0.0,-2.315683373184017,0.0
4528938662.942,-13.450769997914172,0.0,-2.3897142571865784,0.0
4528953662.9415,-13.44565980086156,0.0,-2.280120992310481,0.0
4528968662.941,-13.445965050295364,0.0,-2.355946060447614,0.0
4528983662.9405,-13.451486307750427,0.0,-2.3502648063329676,0.0
4528998662.94,-13.456060374956515,0.0,-2.344182984558423,0.0
4529013662.9395,-13.44816269818838,0.0,-2.2919468664055054,0.0
4529028662.939,-13.460267839343862,0.0,-2.331561103221207,0.0
4529043662.9385,-13.452871922244965,0.0,-2.373505761846845,0.0
4529058662.938,-13.454381015814871,0.0,-2.3247408217312526,0.0
4529073662.9375,-13.445668536510425,0.0,-2.3321389200587594,0.0
4529088662.937,-13.455595825180877,0.0,-2.325317728894529,0.0
4529103662.9365,-13.450366661152673,0.0,-2.3003323785085743,0.0
4529118662.936,-13.443444540626821,0.0,-2.3782734348534427,0.0
4529133662.9355,-13.442892721625627,0.0,-2.2918782843418657,0.0
4529148662.935,-13.458534993617022,0.0,-2.3611816036044475,0.0
4529163662.9345,-13.44585023124041,0.0,-2.296780745776275,0.0
4529178662.934,-13.448876078363066,0.0,-2.3564263297447194,0.0
4529193662.9335,-13.451541050580504,0.0,-2.3295277769959277,0.0
4529208662.933,-13.452092789619527,0.0,-2.324229946885636,0.0
4529223662.9325,-13.440203180825918,0.0,-2.325496666552891,0.0
4529238662.932,-13.44704783830798,0.0,-2.3980035932341135,0.0
4529253662.9315,-13.460076259719994,0.0,-2.381823003283208,0.0
4529268662.931,-13.451682218835444,0.0,-2.3231741474809375,0.0
4529283662.9305,-13.446005315685257,0.0,-2.357915514346229,0.0
4529298662.93,-13.453309349615639,0.0,-2.3356525795663092,0.0
4529313662.9295,-13.457240831423123,0.0,-2.39115800746997,0.0
4529328662.929,-13.445562178947007,0.0,-2.3648671085026796,0.0
4529343662.9285,-13.447325129191404,0.0,-2.3993739500822,0.0
4529358662.928,-13.451320042269268,0.0,-2.372395736086065,0.0
4529373662.9275,-13.453304504373458,0.0,-2.33567318703251,0.0
4529388662.927,-13.454049296117198,0.0,-2.3616256990729916,0.0
4529403662.9265,-13.445158191398608,0.0,-2.31608819660644,0.0
4529418662.926,-13.456301065412518,0.0,-2.31857563657116,0.0
4529433662.9255,-13.444113986943204,0.0,-2.3966067741683132,0.0
4529448662.925,-13.45120147741191,0.0,-2.383555268124063,0.0
4529463662.9245,-13.454459488544988,0.0,-2.371624504131895,0.0
4529478662.924,-13.44362536869311,0.0,-2.3674761352564486,0.0
4529493662.9235,-13.442580787714347,0.0,-2.322510207182582,0.0
4529508662.923,-13.446175572090162,0.0,-2.3927232434913517,0.0
4529523662.9225,-13.455716022451947,0.0,-2.4602940847384063,0.0
4529538662.922,-13.459455244089307,0.0,-2.377694122271654,0.0
4529553662.9215,-13.444145991747439,0.0,-2.410214277480602,0.0
4529568662.921,-13.451309812311923,0.0,-2.343918947295312,0.0
4529583662.9205,-13.454727665138666,0.0,-2.420468435776149,0.0
4529598662.92,-13.449667826506262,0.0,-2.412531877788583,0.0
4529613662.9195,-13.448671211927397,0.0,-2.429242034851582,0.0
4529628662.919,-13.454470588493042,0.0,-2.399555968495878,0.0
4529643662.9185,-13.45473142510885,0.0,-2.43289545884636,0.0
4529658662.918,-13.451640267540563,0.0,-2.383460723298614,0.0
4529673662.9175,-13.458063758421234,0.0,-2.398921033932288,0.0
4529688662.917,-13.443774147672606,0.0,-2.471027338394748,0.0
4529703662.9165,-13.458072651327374,0.0,-2.4477544224362906,0.0
4529718662.916,-13.45038664870621,0.0,-2.385977991796964,0.0
4529733662.9155,-13.464606704519646,0.0,-2.4551837289024827,0.0
4529748662.915,-13.450491946219946,0.0,-2.420577675466942,0.0
4529763662.9145,-13.456872143962729,0.0,-2.4372956124679765,0.0
4529778662.914,-13.454530546880846,0.0,-2.484761154969352,0.0
4529793662.9135,-13.450204239593738,0.0,-2.400186576341486,0.0
4529808662.913,-13.44644760078933,0.0,-2.401290484667106,0.0
4529823662.9125,-13.461848592403678,0.0,-2.384374037073361,0.0
4529838662.912,-13.458910713966725,0.0,-2.4665568273658205,0.0
4529853662.9115,-13.462120608131594,0.0,-2.485850047269614,0.0
4529868662.911,-13.44726139027931,0.0,-2.4589795744566767,0.0
4529883662.9105,-13.45116297523273,0.0,-2.4575950166370806,0.0
4529898662.91,-13.452091811084717,0.0,-2.427567981718204,0.0
4529913662.9095,-13.462094118600485,0.0,-2.4916329813275264,0.0
4529928662.909,-13.449641128411528,0.0,-2.4509227165460192,0.0
4529943662.9085,-13.452989938227983,0.0,-2.452551671570556,0.0
4529958662.908,-13.45102115741879,0.0,-2.459717395491582,0.0
4529973662.9075,-13.448924984718328,0.0,-2.4235541911213203,0.0
4529988662.907,-13.442888081316076,0.0,-2.502057447634458,0.0
4530003662.9065,-13.449379223226568,0.0,-2.4668657586815024,0.0
4530018662.906,-13.454692006394826,0.0,-2.427108199454098,0.0
4530033662.9055,-13.450109944164911,0.0,-2.5258823730630917,0.0
4530048662.905,-13.461166060140464,0.0,-2.4193769823439024,0.0
4530063662.9045,-13.4465529423113,0.0,-2.474965706566174,0.0
4530078662.904,-13.45340212603352,0.0,-2.529364945493013,0.0
4530093662.9035,-13.454098896295374,0.0,-2.4422952769448423,0.0
4530108662.903,-13.452933103498616,0.0,-2.488446308959167,0.0
4530123662.9025,-13.455208876897892,0.0,-2.5083194274359144,0.0
4530138662.902,-13.452186606084345,0.0,-2.463736605189339,0.0
4530153662.9015,-13.453327217050122,0.0,-2.4475112333300646,0.0
4530168662.901,-13.451293038714933,0.0,-2.4960868415764805,0.0
4530183662.9005,-13.453083920870714,0.0,-2.506467088288513,0.0
4530198662.9,-13.45293130635268,0.0,-2.5172385234707937,0.0
4530213662.8995,-13.450343779038533,0.0,-2.520975594400592,0.0
4530228662.899,-13.442471255422051,0.0,-2.4830215211044626,0.0
4530243662.8985,-13.453217574466251,0.0,-2.551686526341977,0.0
4530258662.898,-13.448946294854276,0.0,-2.523773814305365,0.0
4530273662.8975,-13.455962605302108,0.0,-2.465326371975436,0.0
4530288662.897,-13.460291088846947,0.0,-2.5609286979293175,0.0
4530303662.8965,-13.461623605513795,0.0,-2.4998356567547626,0.0
4530318662.896,-13.444489521341884,0.0,-2.5016355931429644,0.0
4530333662.8955,-13.456777094226439,0.0,-2.493948930990064,0.0
4530348662.895,-13.444391920469922,0.0,-2.5303843717254564,0.0
4530363662.8945,-13.44738357713821,0.0,-2.588110443554599,0.0
4530378662.894,-13.457028890563496,0.0,-2.5544454321052057,0.0
4530393662.8935,-13.451615071952993,0.0,-2.523608623657382,0.0
4530408662.893,-13.455368405279435,0.0,-2.533727891352689,0.0
4530423662.8925,-13.453294443480072,0.0,-2.5766308055260034,0.0
4530438662.892,-13.459531930191096,0.0,-2.5769568396417655,0.0
4530453662.8915,-13.44907396121792,0.0,-2.60805235779027,0.0
4530468662.891,-13.451673305968047,0.0,-2.549678618307485,0.0
4530483662.8905,-13.452769819701874,0.0,-2.549665127413415,0.0
4530498662.89,-13.450446881005753,0.0,-2.492746901713907,0.0
4530513662.8895,-13.452132086079367,0.0,-2.584142585478095,0.0
4530528662.889,-13.449744104336007,0.0,-2.6017628939616646,0.0
4530543662.8885,-13.456090932471643,0.0,-2.574588071932761,0.0
4530558662.888,-13.448129691369356,0.0,-2.5844416227134923,0.0
4530573662.8875,-13.453445592403368,0.0,-2.572440627536209,0.0
4530588662.887,-13.44930356700581,0.0,-2.5496934013681187,0.0
4530603662.8865,-13.453458482897387,0.0,-2.5379729303198046,0.0
4530618662.886,-13.453166069645654,0.0,-2.54952358365821,0.0
4530633662.8855,-13.45517586313903,0.0,-2.5566569463837134,0.0
4530648662.885,-13.458256442218007,0.0,-2.547535547319501,0.0
4530663662.8845,-13.45752294528461,0.0,-2.5455611849915707,0.0
4530678662.884,-13.458928871224117,0.0,-2.5994925085887233,0.0
4530693662.8835,-13.456789535928767,0.0,-2.604141156828337,0.0
4530708662.883,-13.451505461020076,0.0,-2.610458218631043,0.0
4530723662.8825,-13.44855905931796,0.0,-2.5891326885018104,0.0
4530738662.882,-13.45030910435311,0.0,-2.636269786882808,0.0
4530753662.8815,-13.451395774997636,0.0,-2.6038671611668387,0.0
4530768662.881,-13.45677967289813,0.0,-2.602506112425408,0.0
4530783662.8805,-13.459191643197501,0.0,-2.5794988401951384,0.0
4530798662.88,-13.460524303008288,0.0,-2.6080627216800405,0.0
4530813662.8795,-13.461943048303109,0.0,-2.6328936739421342,0.0
4530828662.879,-13.456722672154145,0.0,-2.6256181995534535,0.0
4530843662.8785,-13.45410799810315,0.0,-2.5770122465451077,0.0
4530858662.878,-13.45782954443964,0.0,-2.5740475253600894,0.0
4530873662.8775,-13.459491242289054,0.0,-2.5425939507856836,0.0
4530888662.877,-13.473370395638307,0.0,-2.6576472653867884,0.0
4530903662.8765,-13.459714309274142,0.0,-2.593639512818401,0.0
4530918662.876,-13.452178366174321,0.0,-2.5861653621916085,0.0
4530933662.8755,-13.460435774137562,0.0,-2.6127642699603326,0.0
4530948662.875,-13.455890984872687,0.0,-2.6201453351950814,0.0
4530963662.8745,-13.453040372875567,0.0,-2.6007849619891834,0.0
4530978662.874,-13.455152039322613,0.0,-2.6114168717670556,0.0
4530993662.8735,-13.457277918561793,0.0,-2.6072463230745124,0.0
4531008662.873,-13.454014747989948,0.0,-2.627338939918645,0.0
4531023662.8725,-13.457535199829692,0.0,-2.5878337635612385,0.0
4531038662.872,-13.453964204091244,0.0,-2.670003334428319,0.0
4531053662.8715,-13.45441479608408,0.0,-2.5732178004267743,0.0
4531068662.871,-13.449102094743953,0.0,-2.659751188755054,0.0
4531083662.8705,-13.454043527704602,0.0,-2.6140128535495166,0.0
4531098662.87,-13.462319332759154,0.0,-2.583809807308045,0.0
4531113662.8695,-13.45014497837004,0.0,-2.6488378476798453,0.0
4531128662.869,-13.454750428030405,0.0,-2.6899320210397994,0.0
4531143662.8685,-13.461073371241758,0.0,-2.644465947304449,0.0
4531158662.868,-13.458814242755203,0.0,-2.705480056503737,0.0
4531173662.8675,-13.457444359226244,0.0,-2.6442484983000885,0.0
4531188662.867,-13.458239928740154,0.0,-2.6327550876124657,0.0
4531203662.8665,-13.460397533522585,0.0,-2.6665386725298945,0.0
4531218662.866,-13.452315875218206,0.0,-2.7172954939319336,0.0
4531233662.8655,-13.462117367355557,0.0,-2.6582278666536037,0.0
4531248662.865,-13.459046728452384,0.0,-2.6631013122871168,0.0
4531263662.8645,-13.452275527625714,0.0,-2.700506717192083,0.0
4531278662.864,-13.457425984453302,0.0,-2.722425389081219,0.0
4531293662.8635,-13.460616064136222,0.0,-2.6624458292666286,0.0
4531308662.863,-13.45503451284995,0.0,-2.67532745692216,0.0
4531323662.8625,-13.464046795774083,0.0,-2.734570326294892,0.0
4531338662.862,-13.46043753459985,0.0,-2.648436495886484,0.0
4531353662.8615,-13.462798220459263,0.0,-2.648079590646071,0.0
4531368662.861,-13.457081229108681,0.0,-2.640559570131763,0.0
4531383662.8605,-13.460114767109594,0.0,-2.72138746801811,0.0
4531398662.86,-13.461679963779012,0.0,-2.6612243217660847,0.0
4531413662.8595,-13.45364458621547,0.0,-2.741859999236528,0.0
4531428662.859,-13.461333207393604,0.0,-2.7534583664990078,0.0
4531443662.8585,-13.452601727770004,0.0,-2.7053462840053375,0.0
4531458662.858,-13.467529421486123,0.0,-2.711124033116541,0.0
4531473662.8575,-13.46522399960531,0.0,-2.701375719557066,0.0
4531488662.857,-13.462936053284626,0.0,-2.7416609733407515,0.0
4531503662.8565,-13.467313936382242,0.0,-2.6854645930121754,0.0
4531518662.856,-13.459536015224876,0.0,-2.7289503079548547,0.0
4531533662.8555,-13.456323315715116,0.0,-2.7123700584245527,0.0
4531548662.855,-13.461541721708931,0.0,-2.7857285729240617,0.0
4531563662.8545,-13.453011371572167,0.0,-2.858385811405105,0.0
4531578662.854,-13.465095790518827,0.0,-2.7265240314984385,0.0
4531593662.8535,-13.463198498219153,0.0,-2.7361838118345427,0.0
4531608662.853,-13.46046290967028,0.0,-2.769621873034804,0.0
4531623662.8525,-13.457069723398831,0.0,-2.742310334414667,0.0
4531638662.852,-13.454777243947087,0.0,-2.7811379627801935,0.0
4531653662.8515,-13.452106855323521,0.0,-2.7702801753090327,0.0
4531668662.851,-13.462917378758469,0.0,-2.7552833291954895,0.0
4531683662.8505,-13.454708483315061,0.0,-2.743382563763799,0.0
4531698662.85,-13.458029856634845,0.0,-2.7225997154915,0.0
4531713662.8495,-13.460320189441573,0.0,-2.7510026598364394,0.0
4531728662.849,-13.467502360532533,0.0,-2.794602832410101,0.0
4531743662.8485,-13.461883301393868,0.0,-2.782650674904875,0.0
4531758662.848,-13.458362634637615,0.0,-2.759570542125069,0.0
4531773662.8475,-13.458553206805187,0.0,-2.8288434151996484,0.0
4531788662.847,-13.471160831515983,0.0,-2.7843564851381775,0.0
4531803662.8465,-13.460413366823033,0.0,-2.7474728724103694,0.0
4531818662.846,-13.460820208640019,0.0,-2.836445746347164,0.0
4531833662.8455,-13.463038137260488,0.0,-2.752536220255926,0.0
4531848662.845,-13.465309882433598,0.0,-2.8067262973296097,0.0
4531863662.8445,-13.461782009978599,0.0,-2.769906232101292,0.0
4531878662.844,-13.458784044472804,0.0,-2.8716228237982193,0.0
